! MS46122B
! 1919307/90821646
! 5/16/2022 12:56:43 PM
! C:\USERS\PC_\DESKTOP\CARACTERIZACION\MEDICIONES\BANDA ANCHA\S11_S21_ABS65_1004C.S2P
! CHANNEL.1
! TR.MEASUREMENT
! CORRECTED.DATA
# GHZ S RI R 50.0
! FREQ.GHZ         S11RE         S11IM         S21RE         S21IM         S12RE         S12IM         S22RE         S22IM         
!; PortSelection: Port_12
   4.950000000    -0.8396592    0.0693325    -0.0309188   -0.5376894    -0.0362306   -0.5581782    -0.8502938    0.0219387 
   4.957564576    -0.8402186    0.0691764    -0.0306618   -0.5367370    -0.0360602   -0.5560745    -0.8474386    0.0317657 
   4.965129151    -0.8432862    0.0669886    -0.0307695   -0.5343226    -0.0354541   -0.5535520    -0.8449193    0.0430680 
   4.972693727    -0.8453323    0.0661409    -0.0289435   -0.5313510    -0.0346746   -0.5512362    -0.8439316    0.0553478 
   4.980258303    -0.8461034    0.0665117    -0.0275345   -0.5283999    -0.0336639   -0.5480123    -0.8414526    0.0666975 
   4.987822878    -0.8458185    0.0685394    -0.0232284   -0.5265064    -0.0321730   -0.5450572    -0.8395612    0.0779409 
   4.995387454    -0.8453090    0.0715073    -0.0196930   -0.5260886    -0.0306533   -0.5429279    -0.8380908    0.0868482 
   5.002952030    -0.8441718    0.0749248    -0.0151683   -0.5272400    -0.0287976   -0.5408687    -0.8365472    0.0937681 
   5.010516605    -0.8418927    0.0782708    -0.0104912   -0.5301012    -0.0272204   -0.5396643    -0.8363246    0.0989019 
   5.018081181    -0.8393724    0.0803452    -0.0081548   -0.5332533    -0.0255297   -0.5379803    -0.8348239    0.1034951 
   5.025645756    -0.8368089    0.0831441    -0.0051480   -0.5367164    -0.0244457   -0.5369830    -0.8325493    0.1063964 
   5.033210332    -0.8341019    0.0858890    -0.0046517   -0.5406372    -0.0232113   -0.5350967    -0.8307881    0.1077294 
   5.040774908    -0.8323535    0.0899181    -0.0038299   -0.5445606    -0.0224292   -0.5346688    -0.8294500    0.1094382 
   5.048339483    -0.8310068    0.0923174    -0.0044937   -0.5490977    -0.0216136   -0.5343421    -0.8283320    0.1104690 
   5.055904059    -0.8308209    0.0941915    -0.0037427   -0.5536664    -0.0207235   -0.5350863    -0.8278070    0.1106025 
   5.063468635    -0.8305419    0.0954392    -0.0047947   -0.5582046    -0.0200476   -0.5360500    -0.8270174    0.1111547 
   5.071033210    -0.8299443    0.0972693    -0.0050276   -0.5619162    -0.0202784   -0.5371462    -0.8262945    0.1122395 
   5.078597786    -0.8299272    0.0977422    -0.0071386   -0.5652916    -0.0209364   -0.5388969    -0.8252427    0.1133880 
   5.086162362    -0.8284692    0.0987932    -0.0109373   -0.5685331    -0.0223685   -0.5406985    -0.8247693    0.1159011 
   5.093726937    -0.8275867    0.0994566    -0.0132170   -0.5710475    -0.0238559   -0.5430503    -0.8243839    0.1170991 
   5.101291513    -0.8268102    0.0996146    -0.0159715   -0.5737180    -0.0247309   -0.5457820    -0.8241634    0.1175329 
   5.108856089    -0.8265186    0.0998614    -0.0175112   -0.5759015    -0.0258434   -0.5486733    -0.8240650    0.1186415 
   5.116420664    -0.8259800    0.1007528    -0.0182865   -0.5777671    -0.0262582   -0.5512925    -0.8253186    0.1202026 
   5.123985240    -0.8246022    0.1025956    -0.0177714   -0.5793999    -0.0266419   -0.5546674    -0.8252628    0.1212958 
   5.131549815    -0.8218907    0.1046446    -0.0174008   -0.5824577    -0.0272887   -0.5584940    -0.8257149    0.1213327 
   5.139114391    -0.8177677    0.1071005    -0.0164032   -0.5855495    -0.0282373   -0.5636775    -0.8262178    0.1206358 
   5.146678967    -0.8142787    0.1117364    -0.0164782   -0.5907107    -0.0295026   -0.5690264    -0.8262299    0.1194137 
   5.154243542    -0.8083426    0.1168678    -0.0169983   -0.5956026    -0.0313213   -0.5744091    -0.8231496    0.1157435 
   5.161808118    -0.8027143    0.1201150    -0.0170918   -0.6026762    -0.0314988   -0.5798910    -0.8197664    0.1131195 
   5.169372694    -0.7961240    0.1222693    -0.0182167   -0.6092063    -0.0319937   -0.5852602    -0.8147103    0.1110892 
   5.176937269    -0.7891558    0.1244607    -0.0209330   -0.6168224    -0.0317796   -0.5898480    -0.8095480    0.1106434 
   5.184501845    -0.7811331    0.1249236    -0.0249102   -0.6238071    -0.0314661   -0.5950812    -0.8027970    0.1112604 
   5.192066421    -0.7738577    0.1230628    -0.0301949   -0.6306601    -0.0312331   -0.6014668    -0.7978942    0.1133517 
   5.199630996    -0.7690107    0.1208895    -0.0377090   -0.6374027    -0.0322828   -0.6098348    -0.7921534    0.1155561 
   5.207195572    -0.7655413    0.1179246    -0.0462096   -0.6433750    -0.0340256   -0.6186543    -0.7855112    0.1198170 
   5.214760148    -0.7649984    0.1146821    -0.0560651   -0.6470904    -0.0385084   -0.6273062    -0.7763914    0.1242674 
   5.222324723    -0.7636815    0.1117118    -0.0669695   -0.6486154    -0.0445102   -0.6344799    -0.7677343    0.1275719 
   5.229889299    -0.7629725    0.1085435    -0.0765151   -0.6474838    -0.0515441   -0.6405642    -0.7620469    0.1297319 
   5.237453875    -0.7626361    0.1071859    -0.0853341   -0.6445968    -0.0589432   -0.6431129    -0.7576624    0.1305895 
   5.245018450    -0.7621164    0.1072624    -0.0927698   -0.6412491    -0.0667011   -0.6448800    -0.7577818    0.1335897 
   5.252583026    -0.7623554    0.1092177    -0.0994467   -0.6389618    -0.0738699   -0.6450850    -0.7613035    0.1372913 
   5.260147601    -0.7578642    0.1124534    -0.1049553   -0.6358384    -0.0795468   -0.6438158    -0.7644588    0.1402237 
   5.267712177    -0.7553614    0.1151999    -0.1090003   -0.6326079    -0.0846072   -0.6424068    -0.7678950    0.1411129 
   5.275276753    -0.7488922    0.1172538    -0.1114535   -0.6293776    -0.0880548   -0.6390998    -0.7709836    0.1400811 
   5.282841328    -0.7426131    0.1163491    -0.1145973   -0.6256000    -0.0906018   -0.6357160    -0.7752733    0.1350607 
   5.290405904    -0.7380403    0.1138118    -0.1152324   -0.6227559    -0.0912181   -0.6332064    -0.7799991    0.1275449 
   5.297970480    -0.7339227    0.1108163    -0.1173041   -0.6215413    -0.0922426   -0.6316074    -0.7845063    0.1183334 
   5.305535055    -0.7330048    0.1084653    -0.1197711   -0.6218163    -0.0935713   -0.6310838    -0.7893248    0.1087302 
   5.313099631    -0.7347115    0.1073506    -0.1233265   -0.6244581    -0.0963614   -0.6320190    -0.7936067    0.0988000 
   5.320664207    -0.7373477    0.1074457    -0.1289329   -0.6267764    -0.1006799   -0.6329767    -0.7980428    0.0896903 
   5.328228782    -0.7412342    0.1084792    -0.1371219   -0.6274922    -0.1067073   -0.6339642    -0.8005139    0.0802301 
   5.335793358    -0.7430456    0.1090362    -0.1456464   -0.6252250    -0.1152812   -0.6327788    -0.8014614    0.0717450 
   5.343357934    -0.7454197    0.1100767    -0.1547378   -0.6207170    -0.1238542   -0.6305492    -0.8018242    0.0662054 
   5.350922509    -0.7488242    0.1094246    -0.1632956   -0.6140538    -0.1328581   -0.6249292    -0.8003135    0.0637491 
   5.358487085    -0.7516604    0.1099199    -0.1705883   -0.6067909    -0.1420925   -0.6179343    -0.7987300    0.0647093 
   5.366051661    -0.7569478    0.1099403    -0.1752889   -0.5986629    -0.1493511   -0.6110130    -0.7956702    0.0690088 
   5.373616236    -0.7628043    0.1106265    -0.1782870   -0.5907914    -0.1550330   -0.6033292    -0.7927510    0.0749784 
   5.381180812    -0.7674875    0.1119486    -0.1787030   -0.5816281    -0.1593416   -0.5965151    -0.7901877    0.0819402 
   5.388745387    -0.7729624    0.1125825    -0.1785568   -0.5725104    -0.1619775   -0.5896732    -0.7880103    0.0902669 
   5.396309963    -0.7774616    0.1119895    -0.1766943   -0.5640922    -0.1644498   -0.5839739    -0.7860239    0.0987258 
   5.403874539    -0.7813208    0.1122898    -0.1731480   -0.5552875    -0.1661317   -0.5781462    -0.7840812    0.1077537 
   5.411439114    -0.7867499    0.1131579    -0.1681879   -0.5490535    -0.1682978   -0.5730074    -0.7821949    0.1150473 
   5.419003690    -0.7918851    0.1152822    -0.1632428   -0.5448039    -0.1698514   -0.5686947    -0.7812578    0.1201489 
   5.426568266    -0.7966658    0.1180071    -0.1569083   -0.5434968    -0.1718872   -0.5651717    -0.7823129    0.1222493 
   5.434132841    -0.7995937    0.1214458    -0.1531822   -0.5435925    -0.1728423   -0.5621623    -0.7846956    0.1234095 
   5.441697417    -0.8012803    0.1249399    -0.1504398   -0.5446188    -0.1740123   -0.5596634    -0.7892124    0.1242031 
   5.449261993    -0.8013386    0.1273348    -0.1492822   -0.5440916    -0.1754341   -0.5559717    -0.7936433    0.1242081 
   5.456826568    -0.8008509    0.1285149    -0.1497933   -0.5429056    -0.1771157   -0.5512139    -0.7984735    0.1236097 
   5.464391144    -0.8010777    0.1291722    -0.1510127   -0.5406905    -0.1780386   -0.5461271    -0.8016937    0.1223751 
   5.471955720    -0.8030234    0.1291116    -0.1500121   -0.5379079    -0.1763424   -0.5413915    -0.8044093    0.1195736 
   5.479520295    -0.8046694    0.1285485    -0.1478816   -0.5345359    -0.1731862   -0.5375242    -0.8057935    0.1167503 
   5.487084871    -0.8074417    0.1289071    -0.1451939   -0.5318348    -0.1680779   -0.5350250    -0.8059729    0.1128245 
   5.494649446    -0.8101858    0.1290567    -0.1416277   -0.5285125    -0.1630313   -0.5328336    -0.8062111    0.1086324 
   5.502214022    -0.8142397    0.1295586    -0.1373303   -0.5263969    -0.1568599   -0.5318839    -0.8070640    0.1073567 
   5.509778598    -0.8184177    0.1302295    -0.1332421   -0.5240362    -0.1516668   -0.5317164    -0.8087595    0.1080003 
   5.517343173    -0.8235855    0.1321527    -0.1295462   -0.5229267    -0.1463817   -0.5316444    -0.8091434    0.1126739 
   5.524907749    -0.8277049    0.1356030    -0.1248254   -0.5214637    -0.1409262   -0.5318178    -0.8094498    0.1185720 
   5.532472325    -0.8312912    0.1395177    -0.1208061   -0.5205656    -0.1358833   -0.5324178    -0.8092617    0.1266191 
   5.540036900    -0.8346336    0.1438930    -0.1154782   -0.5193532    -0.1298684   -0.5328956    -0.8097640    0.1355702 
   5.547601476    -0.8353701    0.1487008    -0.1096322   -0.5189099    -0.1242560   -0.5331292    -0.8093213    0.1449983 
   5.555166052    -0.8373554    0.1529832    -0.1034177   -0.5189757    -0.1189447   -0.5331344    -0.8082743    0.1543436 
   5.562730627    -0.8339889    0.1582986    -0.0964472   -0.5193887    -0.1125621   -0.5332478    -0.8072568    0.1643501 
   5.570295203    -0.8335188    0.1604578    -0.0898220   -0.5214520    -0.1072462   -0.5329258    -0.8064513    0.1744370 
   5.577859779    -0.8316773    0.1659983    -0.0839125   -0.5251151    -0.1023941   -0.5330058    -0.8059973    0.1833159 
   5.585424354    -0.8292388    0.1699295    -0.0778525   -0.5299925    -0.0974286   -0.5336879    -0.8057526    0.1919872 
   5.592988930    -0.8275182    0.1741756    -0.0710717   -0.5353584    -0.0916906   -0.5344526    -0.8054723    0.1994043 
   5.600553506    -0.8254418    0.1780471    -0.0662885   -0.5414795    -0.0866345   -0.5357856    -0.8049955    0.2046038 
   5.608118081    -0.8237872    0.1826257    -0.0619867   -0.5477233    -0.0807623   -0.5372931    -0.8041139    0.2097459 
   5.615682657    -0.8223690    0.1860922    -0.0589045   -0.5556138    -0.0762932   -0.5392488    -0.8049657    0.2130757 
   5.623247232    -0.8203588    0.1913052    -0.0572331   -0.5632597    -0.0724788   -0.5417916    -0.8028993    0.2170957 
   5.630811808    -0.8182727    0.1965829    -0.0564098   -0.5708795    -0.0684502   -0.5453467    -0.8015124    0.2208558 
   5.638376384    -0.8165392    0.2025232    -0.0567408   -0.5789031    -0.0663205   -0.5503111    -0.8007760    0.2246639 
   5.645940959    -0.8162273    0.2079461    -0.0570643   -0.5871001    -0.0649152   -0.5557927    -0.8006940    0.2286777 
   5.653505535    -0.8148462    0.2137419    -0.0586263   -0.5932426    -0.0635348   -0.5615457    -0.8001738    0.2343921 
   5.661070111    -0.8143641    0.2182834    -0.0599516   -0.5996214    -0.0630540   -0.5670234    -0.8006276    0.2385816 
   5.668634686    -0.8122468    0.2224322    -0.0619003   -0.6044963    -0.0624602   -0.5723041    -0.8017534    0.2430218 
   5.676199262    -0.8102112    0.2262090    -0.0632203   -0.6099457    -0.0632676   -0.5769819    -0.8027759    0.2471198 
   5.683763838    -0.8071151    0.2316199    -0.0659203   -0.6156407    -0.0644239   -0.5825779    -0.8040239    0.2512743 
   5.691328413    -0.8033339    0.2371208    -0.0657551   -0.6214387    -0.0660604   -0.5893822    -0.8045306    0.2544208 
   5.698892989    -0.7996166    0.2422047    -0.0675067   -0.6278599    -0.0675064   -0.5962655    -0.8056939    0.2562842 
   5.706457565    -0.7946344    0.2464183    -0.0678673   -0.6340212    -0.0691440   -0.6047108    -0.8051026    0.2583095 
   5.714022140    -0.7885222    0.2515712    -0.0688253   -0.6407011    -0.0702926   -0.6119261    -0.8027101    0.2596388 
   5.721586716    -0.7810183    0.2552432    -0.0701182   -0.6473564    -0.0722613   -0.6199155    -0.8027425    0.2605865 
   5.729151292    -0.7718254    0.2593288    -0.0735919   -0.6541852    -0.0737997   -0.6274261    -0.7998036    0.2604691 
   5.736715867    -0.7632591    0.2626260    -0.0765400   -0.6632023    -0.0778018   -0.6361055    -0.7945914    0.2616174 
   5.744280443    -0.7538636    0.2651847    -0.0803449   -0.6728612    -0.0813399   -0.6461601    -0.7876930    0.2623860 
   5.751845018    -0.7450963    0.2677442    -0.0863234   -0.6819620    -0.0854998   -0.6560971    -0.7797753    0.2640943 
   5.759409594    -0.7362027    0.2678388    -0.0919227   -0.6910518    -0.0893854   -0.6670954    -0.7699733    0.2653650 
   5.766974170    -0.7272397    0.2682417    -0.0998985   -0.6990931    -0.0941205   -0.6766073    -0.7585425    0.2660575 
   5.774538745    -0.7185728    0.2682403    -0.1094015   -0.7053164    -0.1010347   -0.6856171    -0.7468987    0.2677199 
   5.782103321    -0.7109715    0.2670858    -0.1208828   -0.7103223    -0.1098136   -0.6934932    -0.7353064    0.2708874 
   5.789667897    -0.7035822    0.2658842    -0.1325744   -0.7148094    -0.1199907   -0.6996676    -0.7233418    0.2732313 
   5.797232472    -0.6958127    0.2656724    -0.1444514   -0.7172277    -0.1286507   -0.7050881    -0.7117348    0.2769534 
   5.804797048    -0.6896695    0.2642410    -0.1550213   -0.7188036    -0.1381895   -0.7089118    -0.7019106    0.2812691 
   5.812361624    -0.6816606    0.2630417    -0.1650069   -0.7181147    -0.1451523   -0.7111053    -0.6925036    0.2850184 
   5.819926199    -0.6747283    0.2608266    -0.1736721   -0.7160782    -0.1522946   -0.7121638    -0.6837130    0.2895163 
   5.827490775    -0.6668986    0.2586589    -0.1824578   -0.7132546    -0.1567777   -0.7113482    -0.6773395    0.2927679 
   5.835055351    -0.6581389    0.2550173    -0.1903175   -0.7094576    -0.1630128   -0.7109102    -0.6717316    0.2955261 
   5.842619926    -0.6521699    0.2511956    -0.1964575   -0.7071985    -0.1654680   -0.7119343    -0.6673755    0.2969881 
   5.850184502    -0.6473216    0.2480156    -0.2041549   -0.7049630    -0.1712720   -0.7134113    -0.6659701    0.2964472 
   5.857749077    -0.6440054    0.2446722    -0.2087466   -0.7042727    -0.1742105   -0.7162789    -0.6662800    0.2934763 
   5.865313653    -0.6409229    0.2433823    -0.2152680   -0.7039328    -0.1785666   -0.7189277    -0.6673315    0.2882174 
   5.872878229    -0.6374447    0.2414844    -0.2210707   -0.7030395    -0.1836944   -0.7221206    -0.6683815    0.2787007 
   5.880442804    -0.6327124    0.2420494    -0.2298933   -0.7019935    -0.1930661   -0.7244901    -0.6711282    0.2689686 
   5.888007380    -0.6274738    0.2405463    -0.2377774   -0.7000193    -0.2022888   -0.7251980    -0.6749104    0.2553595 
   5.895571956    -0.6225438    0.2379292    -0.2454664   -0.6985549    -0.2131364   -0.7241003    -0.6805941    0.2441755 
   5.903136531    -0.6194795    0.2350716    -0.2545450   -0.6954895    -0.2245459   -0.7216136    -0.6852348    0.2328708 
   5.910701107    -0.6182297    0.2315601    -0.2620073   -0.6919341    -0.2352130   -0.7170472    -0.6899673    0.2230186 
   5.918265683    -0.6187743    0.2275198    -0.2700264   -0.6870939    -0.2455002   -0.7108951    -0.6928033    0.2145575 
   5.925830258    -0.6210856    0.2239200    -0.2778281   -0.6807399    -0.2534158   -0.7042252    -0.6940202    0.2094244 
   5.933394834    -0.6242147    0.2199829    -0.2847032   -0.6735235    -0.2615328   -0.6957716    -0.6926930    0.2059580 
   5.940959410    -0.6279120    0.2168068    -0.2906885   -0.6653917    -0.2686504   -0.6865423    -0.6893483    0.2050044 
   5.948523985    -0.6327463    0.2144515    -0.2957429   -0.6569561    -0.2751516   -0.6776345    -0.6844227    0.2039069 
   5.956088561    -0.6382882    0.2108128    -0.2981529   -0.6478955    -0.2801106   -0.6695294    -0.6787861    0.2040212 
   5.963653137    -0.6440556    0.2096985    -0.2990576   -0.6394715    -0.2867870   -0.6609154    -0.6728422    0.2072105 
   5.971217712    -0.6505031    0.2089350    -0.2998216   -0.6313243    -0.2914344   -0.6529747    -0.6662490    0.2097634 
   5.978782288    -0.6565225    0.2088096    -0.2982216   -0.6235111    -0.2944394   -0.6452457    -0.6613388    0.2128908 
   5.986346863    -0.6616480    0.2086481    -0.2973778   -0.6166893    -0.2964782   -0.6383951    -0.6581369    0.2152950 
   5.993911439    -0.6658344    0.2090240    -0.2949426   -0.6111798    -0.2988251   -0.6315904    -0.6574278    0.2161895 
   6.001476015    -0.6687170    0.2091159    -0.2937613   -0.6064571    -0.3013820   -0.6254919    -0.6584989    0.2178218 
   6.009040590    -0.6712710    0.2091680    -0.2917873   -0.6022539    -0.3051615   -0.6199163    -0.6604117    0.2177050 
   6.016605166    -0.6739559    0.2084546    -0.2901277   -0.5989935    -0.3075061   -0.6148230    -0.6639853    0.2179667 
   6.024169742    -0.6754084    0.2077927    -0.2887974   -0.5953434    -0.3097398   -0.6093333    -0.6672202    0.2187111 
   6.031734317    -0.6784635    0.2063335    -0.2867366   -0.5924706    -0.3110533   -0.6047747    -0.6710731    0.2177849 
   6.039298893    -0.6808890    0.2043101    -0.2858424   -0.5896913    -0.3110648   -0.5996490    -0.6753540    0.2167713 
   6.046863469    -0.6835135    0.2018540    -0.2839059   -0.5869036    -0.3103652   -0.5944189    -0.6789178    0.2127279 
   6.054428044    -0.6871724    0.2001541    -0.2834190   -0.5840780    -0.3105469   -0.5898171    -0.6836147    0.2075319 
   6.061992620    -0.6908073    0.1993208    -0.2832233   -0.5812582    -0.3095778   -0.5855538    -0.6873066    0.2024277 
   6.069557196    -0.6951569    0.1977727    -0.2823200   -0.5785440    -0.3085497   -0.5827277    -0.6888589    0.1988903 
   6.077121771    -0.6998718    0.1983575    -0.2812894   -0.5756862    -0.3070258   -0.5793732    -0.6898341    0.1950139 
   6.084686347    -0.7040495    0.1983766    -0.2802212   -0.5723699    -0.3040401   -0.5772201    -0.6914772    0.1928484 
   6.092250923    -0.7083195    0.2011507    -0.2776098   -0.5686423    -0.3007399   -0.5741133    -0.6917465    0.1921412 
   6.099815498    -0.7127886    0.2028901    -0.2755813   -0.5643227    -0.2967718   -0.5712796    -0.6922982    0.1934050 
   6.107380074    -0.7168557    0.2073061    -0.2713880   -0.5610054    -0.2926661   -0.5677975    -0.6914895    0.1960620 
   6.114944649    -0.7207627    0.2118240    -0.2678011   -0.5576153    -0.2878700   -0.5655302    -0.6913446    0.2013886 
   6.122509225    -0.7245282    0.2155421    -0.2633515   -0.5554076    -0.2823516   -0.5645255    -0.6915859    0.2076884 
   6.130073801    -0.7269403    0.2219336    -0.2579203   -0.5541914    -0.2767636   -0.5630910    -0.6912552    0.2155593 
