! MS46122B
! 1919307/90821646
! 5/25/2022 12:18:13 PM
! C:\USERS\PC_\DESKTOP\CARACTERIZACION\MEDICIONES\S11_S21_ABS15_1002CL.S2P
! CHANNEL.1
! TR.MEASUREMENT
! CORRECTED.DATA
# GHZ S RI R 50.0
! FREQ.GHZ         S11RE         S11IM         S21RE         S21IM         S12RE         S12IM         S22RE         S22IM         
!; PortSelection: Port_12
   4.950000000    -0.7397916    0.4047003    -0.2155475   -0.4377174    -0.2165909   -0.4433759    -0.7282939    0.2988574 
   4.957564576    -0.7396985    0.4045883    -0.2163842   -0.4404501    -0.2172391   -0.4448253    -0.7293921    0.3029617 
   4.965129151    -0.7416586    0.4039385    -0.2167836   -0.4428531    -0.2174844   -0.4466161    -0.7323822    0.3077959 
   4.972693727    -0.7421864    0.4027618    -0.2174087   -0.4440284    -0.2182774   -0.4481993    -0.7343329    0.3134733 
   4.980258303    -0.7414619    0.4014540    -0.2172667   -0.4454358    -0.2184507   -0.4498529    -0.7353048    0.3182500 
   4.987822878    -0.7401409    0.4012071    -0.2178864   -0.4472408    -0.2192786   -0.4512976    -0.7361473    0.3234694 
   4.995387454    -0.7400218    0.4016624    -0.2174638   -0.4490034    -0.2193232   -0.4532843    -0.7369202    0.3281403 
   5.002952030    -0.7396672    0.4023927    -0.2174377   -0.4518153    -0.2198789   -0.4554015    -0.7377415    0.3318531 
   5.010516605    -0.7396341    0.4023999    -0.2166476   -0.4548114    -0.2195056   -0.4582692    -0.7381936    0.3348460 
   5.018081181    -0.7395282    0.4022478    -0.2160525   -0.4581460    -0.2200621   -0.4608749    -0.7375504    0.3376860 
   5.025645756    -0.7399900    0.4031035    -0.2162808   -0.4616701    -0.2203292   -0.4639271    -0.7367677    0.3405859 
   5.033210332    -0.7393365    0.4053724    -0.2171345   -0.4658842    -0.2210656   -0.4675425    -0.7363309    0.3426585 
   5.040774908    -0.7400590    0.4090286    -0.2189243   -0.4709111    -0.2223100   -0.4717873    -0.7354949    0.3456717 
   5.048339483    -0.7416194    0.4107332    -0.2201990   -0.4763381    -0.2236895   -0.4763700    -0.7362845    0.3492282 
   5.055904059    -0.7428210    0.4140192    -0.2226039   -0.4817946    -0.2255033   -0.4812858    -0.7362211    0.3542368 
   5.063468635    -0.7434520    0.4164813    -0.2248947   -0.4872049    -0.2276159   -0.4853656    -0.7362302    0.3590851 
   5.071033210    -0.7430593    0.4184606    -0.2283305   -0.4916641    -0.2306590   -0.4899802    -0.7355635    0.3655119 
   5.078597786    -0.7410513    0.4203694    -0.2318483   -0.4958822    -0.2341234   -0.4943062    -0.7346235    0.3724938 
   5.086162362    -0.7374350    0.4225311    -0.2366492   -0.5003216    -0.2387345   -0.4988979    -0.7336905    0.3803391 
   5.093726937    -0.7329058    0.4247028    -0.2420442   -0.5051540    -0.2434976   -0.5041627    -0.7318148    0.3879910 
   5.101291513    -0.7284313    0.4258225    -0.2459121   -0.5107604    -0.2483826   -0.5092228    -0.7292459    0.3960170 
   5.108856089    -0.7229106    0.4268104    -0.2514809   -0.5163949    -0.2532255   -0.5147749    -0.7256871    0.4044282 
   5.116420664    -0.7163833    0.4272901    -0.2569320   -0.5213480    -0.2594987   -0.5195711    -0.7233683    0.4136164 
   5.123985240    -0.7088363    0.4273226    -0.2637984   -0.5273432    -0.2658783   -0.5236108    -0.7191076    0.4215451 
   5.131549815    -0.6992890    0.4265311    -0.2710642   -0.5315799    -0.2744908   -0.5274946    -0.7147904    0.4296482 
   5.139114391    -0.6901335    0.4276871    -0.2796401   -0.5366513    -0.2823506   -0.5316052    -0.7109509    0.4355344 
   5.146678967    -0.6793070    0.4298783    -0.2886988   -0.5399284    -0.2913589   -0.5347983    -0.7047964    0.4398203 
   5.154243542    -0.6690291    0.4311071    -0.2969810   -0.5429884    -0.2996946   -0.5370319    -0.6982353    0.4410529 
   5.161808118    -0.6590118    0.4319049    -0.3063152   -0.5452629    -0.3076634   -0.5385745    -0.6915547    0.4415229 
   5.169372694    -0.6481616    0.4323178    -0.3150789   -0.5466208    -0.3147038   -0.5395713    -0.6832337    0.4412676 
   5.176937269    -0.6368469    0.4323215    -0.3240414   -0.5476087    -0.3219106   -0.5397930    -0.6750337    0.4405381 
   5.184501845    -0.6258569    0.4316192    -0.3321779   -0.5480351    -0.3291151   -0.5400774    -0.6656902    0.4397634 
   5.192066421    -0.6159471    0.4304177    -0.3410285   -0.5485508    -0.3365439   -0.5409731    -0.6578254    0.4378736 
   5.199630996    -0.6071989    0.4306113    -0.3505249   -0.5485579    -0.3442573   -0.5422767    -0.6500326    0.4345393 
   5.207195572    -0.5985999    0.4305792    -0.3592954   -0.5498082    -0.3525893   -0.5432687    -0.6429091    0.4315875 
   5.214760148    -0.5904597    0.4312869    -0.3696684   -0.5491957    -0.3617663   -0.5433983    -0.6345102    0.4284822 
   5.222324723    -0.5807825    0.4296949    -0.3799406   -0.5469466    -0.3717018   -0.5427657    -0.6272860    0.4240314 
   5.229889299    -0.5709671    0.4291847    -0.3902132   -0.5446436    -0.3824432   -0.5411450    -0.6212138    0.4213693 
   5.237453875    -0.5614753    0.4267302    -0.3998749   -0.5394666    -0.3922477   -0.5370026    -0.6153067    0.4175346 
   5.245018450    -0.5514101    0.4276013    -0.4099985   -0.5351717    -0.4023517   -0.5332943    -0.6105022    0.4166986 
   5.252583026    -0.5423182    0.4279252    -0.4193064   -0.5285054    -0.4110452   -0.5269899    -0.6062579    0.4174595 
   5.260147601    -0.5290307    0.4286438    -0.4275312   -0.5227299    -0.4184850   -0.5200325    -0.6002400    0.4171581 
   5.267712177    -0.5185652    0.4291366    -0.4324523   -0.5152631    -0.4242118   -0.5131406    -0.5932726    0.4169355 
   5.275276753    -0.5061620    0.4272648    -0.4367874   -0.5071614    -0.4289021   -0.5058768    -0.5847979    0.4134561 
   5.282841328    -0.4950170    0.4233088    -0.4383074   -0.4998078    -0.4306773   -0.4996548    -0.5776638    0.4076165 
   5.290405904    -0.4862868    0.4175670    -0.4398903   -0.4938398    -0.4318193   -0.4948800    -0.5704952    0.3982387 
   5.297970480    -0.4790546    0.4117941    -0.4424897   -0.4892933    -0.4337625   -0.4917005    -0.5649238    0.3891641 
   5.305535055    -0.4760389    0.4092422    -0.4456019   -0.4862231    -0.4374715   -0.4891692    -0.5608060    0.3805122 
   5.313099631    -0.4750123    0.4095668    -0.4509199   -0.4841876    -0.4421999   -0.4869088    -0.5568594    0.3729737 
   5.320664207    -0.4738549    0.4105411    -0.4557686   -0.4790681    -0.4473241   -0.4835027    -0.5534395    0.3658405 
   5.328228782    -0.4732266    0.4130171    -0.4603698   -0.4742235    -0.4533580   -0.4786225    -0.5489168    0.3575135 
   5.335793358    -0.4709855    0.4133853    -0.4646495   -0.4663075    -0.4584168   -0.4719823    -0.5454006    0.3498425 
   5.343357934    -0.4697686    0.4138288    -0.4674791   -0.4585260    -0.4616818   -0.4645605    -0.5429210    0.3422948 
   5.350922509    -0.4701569    0.4139160    -0.4693594   -0.4507559    -0.4634234   -0.4561172    -0.5400600    0.3371565 
   5.358487085    -0.4706472    0.4161167    -0.4691349   -0.4431258    -0.4637542   -0.4493538    -0.5392596    0.3327512 
   5.366051661    -0.4717197    0.4172966    -0.4687928   -0.4376977    -0.4637681   -0.4430862    -0.5372654    0.3303754 
   5.373616236    -0.4737830    0.4198159    -0.4664164   -0.4329643    -0.4622280   -0.4377027    -0.5361424    0.3295917 
   5.381180812    -0.4754320    0.4226941    -0.4646010   -0.4278902    -0.4602972   -0.4338324    -0.5356297    0.3300523 
   5.388745387    -0.4764669    0.4237528    -0.4609503   -0.4246472    -0.4579647   -0.4301841    -0.5344067    0.3315102 
   5.396309963    -0.4776660    0.4235301    -0.4588075   -0.4214840    -0.4549518   -0.4278593    -0.5345680    0.3334430 
   5.403874539    -0.4776320    0.4226101    -0.4549621   -0.4196423    -0.4528954   -0.4263353    -0.5340478    0.3350993 
   5.411439114    -0.4803346    0.4226539    -0.4529713   -0.4185093    -0.4508098   -0.4255484    -0.5335034    0.3357647 
   5.419003690    -0.4827980    0.4223477    -0.4513912   -0.4184113    -0.4503329   -0.4254957    -0.5344604    0.3364103 
   5.426568266    -0.4863469    0.4232326    -0.4508740   -0.4191369    -0.4502097   -0.4261866    -0.5354935    0.3368247 
   5.434132841    -0.4894425    0.4239106    -0.4506326   -0.4185526    -0.4507253   -0.4263716    -0.5358339    0.3375272 
   5.441697417    -0.4922145    0.4244964    -0.4491745   -0.4183011    -0.4509483   -0.4254715    -0.5355196    0.3383942 
   5.449261993    -0.4948279    0.4244840    -0.4488841   -0.4171209    -0.4504805   -0.4236135    -0.5349243    0.3384125 
   5.456826568    -0.4980714    0.4253635    -0.4477857   -0.4161977    -0.4501874   -0.4215215    -0.5336413    0.3370217 
   5.464391144    -0.5012530    0.4260691    -0.4460139   -0.4164556    -0.4481945   -0.4202076    -0.5334628    0.3369294 
   5.471955720    -0.5056237    0.4282179    -0.4446961   -0.4172500    -0.4460446   -0.4203736    -0.5312566    0.3363746 
   5.479520295    -0.5101026    0.4305155    -0.4415948   -0.4196745    -0.4433917   -0.4219115    -0.5301326    0.3368132 
   5.487084871    -0.5134940    0.4331889    -0.4392273   -0.4227176    -0.4409499   -0.4241868    -0.5285884    0.3376327 
   5.494649446    -0.5172850    0.4361415    -0.4376474   -0.4260711    -0.4387293   -0.4280416    -0.5277026    0.3383588 
   5.502214022    -0.5207080    0.4388636    -0.4364044   -0.4300558    -0.4380725   -0.4317267    -0.5290034    0.3410693 
   5.509778598    -0.5243863    0.4427399    -0.4361795   -0.4350442    -0.4377853   -0.4367683    -0.5292497    0.3464239 
   5.517343173    -0.5266493    0.4469479    -0.4370567   -0.4396136    -0.4389246   -0.4407865    -0.5306137    0.3543596 
   5.524907749    -0.5277076    0.4525642    -0.4389342   -0.4446026    -0.4402525   -0.4458132    -0.5313303    0.3627265 
   5.532472325    -0.5281915    0.4579341    -0.4405335   -0.4494068    -0.4426543   -0.4502377    -0.5308752    0.3728690 
   5.540036900    -0.5282621    0.4632733    -0.4428568   -0.4539413    -0.4444970   -0.4550412    -0.5313939    0.3839359 
   5.547601476    -0.5256416    0.4669109    -0.4449252   -0.4581579    -0.4467849   -0.4597846    -0.5308698    0.3939207 
   5.555166052    -0.5242607    0.4699938    -0.4466916   -0.4629768    -0.4488328   -0.4639142    -0.5286901    0.4032669 
   5.562730627    -0.5177207    0.4732074    -0.4497136   -0.4672151    -0.4511600   -0.4685218    -0.5261105    0.4118346 
   5.570295203    -0.5140235    0.4738285    -0.4531330   -0.4722763    -0.4542615   -0.4734184    -0.5234082    0.4195010 
   5.577859779    -0.5096408    0.4783730    -0.4566720   -0.4785538    -0.4580877   -0.4790302    -0.5195551    0.4266210 
   5.585424354    -0.5048981    0.4817868    -0.4615102   -0.4849344    -0.4625862   -0.4856841    -0.5151833    0.4344429 
   5.592988930    -0.5005749    0.4848801    -0.4660677   -0.4910828    -0.4681739   -0.4917964    -0.5095910    0.4397724 
   5.600553506    -0.4956583    0.4884850    -0.4716542   -0.4971588    -0.4738695   -0.4987421    -0.5040190    0.4454353 
   5.608118081    -0.4902267    0.4918743    -0.4779896   -0.5034740    -0.4805689   -0.5041157    -0.4979058    0.4501600 
   5.615682657    -0.4841885    0.4957556    -0.4865690   -0.5090025    -0.4880291   -0.5099988    -0.4922195    0.4530028 
   5.623247232    -0.4765301    0.5002309    -0.4955702   -0.5147940    -0.4970346   -0.5139903    -0.4830449    0.4571669 
   5.630811808    -0.4679533    0.5046645    -0.5047227   -0.5206863    -0.5061708   -0.5183422    -0.4733901    0.4615779 
   5.638376384    -0.4587509    0.5096111    -0.5154184   -0.5254380    -0.5172377   -0.5221652    -0.4641302    0.4668628 
   5.645940959    -0.4494596    0.5135503    -0.5262972   -0.5299639    -0.5278646   -0.5262706    -0.4537309    0.4723150 
   5.653505535    -0.4389827    0.5172607    -0.5378405   -0.5331154    -0.5388350   -0.5293493    -0.4423637    0.4781898 
   5.661070111    -0.4278168    0.5185404    -0.5505292   -0.5351431    -0.5495675   -0.5315880    -0.4326377    0.4842769 
   5.668634686    -0.4152460    0.5186374    -0.5633283   -0.5366083    -0.5608445   -0.5330957    -0.4229997    0.4888763 
   5.676199262    -0.4009840    0.5174088    -0.5765741   -0.5373512    -0.5733332   -0.5331839    -0.4123375    0.4933866 
   5.683763838    -0.3858314    0.5159592    -0.5911866   -0.5364618    -0.5865004   -0.5326930    -0.4003325    0.4973872 
   5.691328413    -0.3695436    0.5142244    -0.6041110   -0.5366075    -0.6001464   -0.5313658    -0.3880997    0.4993298 
   5.698892989    -0.3541214    0.5097104    -0.6177071   -0.5341277    -0.6133497   -0.5296989    -0.3766151    0.5008490 
   5.706457565    -0.3380380    0.5034059    -0.6298569   -0.5308820    -0.6261594   -0.5274175    -0.3646055    0.5006361 
   5.714022140    -0.3212882    0.4962308    -0.6424208   -0.5260375    -0.6379498   -0.5231433    -0.3521582    0.4979154 
   5.721586716    -0.3035518    0.4873195    -0.6550185   -0.5219660    -0.6494982   -0.5185729    -0.3400205    0.4944682 
   5.729151292    -0.2872857    0.4777324    -0.6664833   -0.5158458    -0.6615441   -0.5133188    -0.3279009    0.4877248 
   5.736715867    -0.2719154    0.4683795    -0.6793031   -0.5109033    -0.6735798   -0.5081205    -0.3160816    0.4803321 
   5.744280443    -0.2572894    0.4582724    -0.6906555   -0.5052962    -0.6853043   -0.5028899    -0.3040217    0.4704603 
   5.751845018    -0.2440067    0.4493231    -0.7032684   -0.4987109    -0.6967199   -0.4967695    -0.2930602    0.4618204 
   5.759409594    -0.2321596    0.4395877    -0.7141179   -0.4913437    -0.7074689   -0.4909679    -0.2830123    0.4498905 
   5.766974170    -0.2207450    0.4300705    -0.7245629   -0.4832444    -0.7178059   -0.4833347    -0.2745018    0.4372074 
   5.774538745    -0.2091111    0.4200603    -0.7351413   -0.4745727    -0.7289240   -0.4745832    -0.2660889    0.4245134 
   5.782103321    -0.1987500    0.4109028    -0.7446477   -0.4636211    -0.7393857   -0.4648467    -0.2588761    0.4120861 
   5.789667897    -0.1885723    0.4018843    -0.7537563   -0.4550582    -0.7491873   -0.4554234    -0.2533625    0.4010826 
   5.797232472    -0.1775958    0.3943513    -0.7621042   -0.4435660    -0.7579099   -0.4452680    -0.2473641    0.3905488 
   5.804797048    -0.1684839    0.3855305    -0.7697926   -0.4339960    -0.7650971   -0.4345616    -0.2426846    0.3817430 
   5.812361624    -0.1582893    0.3772204    -0.7752519   -0.4219413    -0.7709510   -0.4240032    -0.2380084    0.3735991 
   5.819926199    -0.1486766    0.3679845    -0.7795112   -0.4127042    -0.7751417   -0.4126701    -0.2339306    0.3654372 
   5.827490775    -0.1390622    0.3575607    -0.7837229   -0.4011402    -0.7793186   -0.4019895    -0.2309255    0.3570995 
   5.835055351    -0.1295233    0.3468767    -0.7882217   -0.3906935    -0.7838627   -0.3912210    -0.2259096    0.3476133 
   5.842619926    -0.1222482    0.3367831    -0.7926428   -0.3808576    -0.7869114   -0.3834142    -0.2236503    0.3389687 
   5.850184502    -0.1159805    0.3276919    -0.7959419   -0.3723575    -0.7922103   -0.3730969    -0.2219045    0.3307590 
   5.857749077    -0.1110757    0.3190207    -0.8007011   -0.3621955    -0.7950746   -0.3663139    -0.2214210    0.3230379 
   5.865313653    -0.1066338    0.3112287    -0.8038497   -0.3527052    -0.7996601   -0.3562509    -0.2188120    0.3145320 
   5.872878229    -0.1039858    0.3037681    -0.8077480   -0.3421147    -0.8031341   -0.3459947    -0.2169018    0.3045105 
   5.880442804    -0.1017068    0.2969615    -0.8107564   -0.3299332    -0.8066908   -0.3343363    -0.2154717    0.2943660 
   5.888007380    -0.1004657    0.2901266    -0.8133550   -0.3178441    -0.8099328   -0.3216463    -0.2145283    0.2811646 
   5.895571956    -0.1005993    0.2851487    -0.8132632   -0.3081646    -0.8102248   -0.3123782    -0.2143831    0.2701788 
   5.903136531    -0.1014690    0.2799372    -0.8139660   -0.2961506    -0.8108582   -0.3006598    -0.2150720    0.2588215 
   5.910701107    -0.1041455    0.2767566    -0.8114643   -0.2862557    -0.8097399   -0.2896192    -0.2156591    0.2483637 
   5.918265683    -0.1075661    0.2749421    -0.8094780   -0.2759467    -0.8076267   -0.2802490    -0.2164896    0.2388930 
   5.925830258    -0.1118105    0.2742828    -0.8059653   -0.2667605    -0.8036565   -0.2720664    -0.2175765    0.2298386 
   5.933394834    -0.1153237    0.2735515    -0.8019604   -0.2591019    -0.7991714   -0.2647437    -0.2201764    0.2224468 
   5.940959410    -0.1187908    0.2746388    -0.7969690   -0.2533861    -0.7942716   -0.2587973    -0.2221030    0.2169727 
   5.948523985    -0.1216202    0.2761799    -0.7932889   -0.2490648    -0.7896122   -0.2549441    -0.2244597    0.2131170 
   5.956088561    -0.1235284    0.2780043    -0.7902907   -0.2472925    -0.7875007   -0.2513621    -0.2273315    0.2116424 
   5.963653137    -0.1245664    0.2796826    -0.7871993   -0.2481591    -0.7856006   -0.2539626    -0.2280641    0.2124999 
   5.971217712    -0.1239746    0.2808068    -0.7882013   -0.2447701    -0.7867864   -0.2510371    -0.2284673    0.2156121 
   5.978782288    -0.1229997    0.2807990    -0.7876326   -0.2452479    -0.7885727   -0.2501549    -0.2269379    0.2185455 
   5.986346863    -0.1221242    0.2794597    -0.7899221   -0.2416538    -0.7900940   -0.2477269    -0.2247548    0.2216517 
   5.993911439    -0.1209822    0.2775160    -0.7917958   -0.2403068    -0.7931226   -0.2432262    -0.2226175    0.2236586 
   6.001476015    -0.1206421    0.2746055    -0.7943020   -0.2365369    -0.7946037   -0.2410320    -0.2193429    0.2251444 
   6.009040590    -0.1206573    0.2711728    -0.7968569   -0.2331037    -0.7968321   -0.2360622    -0.2154787    0.2243167 
   6.016605166    -0.1214181    0.2669493    -0.7988694   -0.2290450    -0.7985809   -0.2325575    -0.2114824    0.2236605 
   6.024169742    -0.1221731    0.2632789    -0.7998981   -0.2252494    -0.8001590   -0.2286338    -0.2081268    0.2214397 
   6.031734317    -0.1239433    0.2597668    -0.8020087   -0.2221533    -0.8015704   -0.2248336    -0.2030540    0.2187397 
   6.039298893    -0.1256584    0.2558193    -0.8030943   -0.2182426    -0.8029290   -0.2209697    -0.1992316    0.2149349 
   6.046863469    -0.1268490    0.2528658    -0.8043859   -0.2153265    -0.8044215   -0.2179367    -0.1944782    0.2105400 
   6.054428044    -0.1292446    0.2493167    -0.8070387   -0.2120115    -0.8066856   -0.2138302    -0.1904894    0.2050096 
   6.061992620    -0.1304745    0.2467931    -0.8089970   -0.2078656    -0.8089271   -0.2103216    -0.1857293    0.2008176 
   6.069557196    -0.1317569    0.2448678    -0.8122376   -0.2049802    -0.8117845   -0.2072028    -0.1808032    0.1959173 
   6.077121771    -0.1320719    0.2428311    -0.8151597   -0.2024523    -0.8137771   -0.2038222    -0.1751784    0.1911648 
   6.084686347    -0.1323004    0.2409865    -0.8187643   -0.1986552    -0.8165230   -0.2001739    -0.1706459    0.1881222 
   6.092250923    -0.1315460    0.2390336    -0.8218509   -0.1956385    -0.8188618   -0.1969032    -0.1652496    0.1849968 
   6.099815498    -0.1300865    0.2371971    -0.8253910   -0.1914753    -0.8217605   -0.1927497    -0.1601386    0.1835482 
   6.107380074    -0.1280486    0.2347291    -0.8284482   -0.1877673    -0.8249581   -0.1891939    -0.1554366    0.1820918 
   6.114944649    -0.1255964    0.2324547    -0.8330345   -0.1823194    -0.8290918   -0.1851440    -0.1503861    0.1819000 
   6.122509225    -0.1231065    0.2294018    -0.8357750   -0.1776586    -0.8324490   -0.1821192    -0.1455061    0.1819197 
   6.130073801    -0.1200791    0.2261589    -0.8393279   -0.1722845    -0.8364979   -0.1777588    -0.1411163    0.1818116 
