! MS46122B
! 1919307/90821646
! 5/18/2022 2:43:04 PM
! C:\USERS\PC_\DESKTOP\CARACTERIZACION\MEDICIONES\S11_S21_ABS8_502CL.S2P
! CHANNEL.1
! TR.MEASUREMENT
! CORRECTED.DATA
# GHZ S RI R 50.0
! FREQ.GHZ         S11RE         S11IM         S21RE         S21IM         S12RE         S12IM         S22RE         S22IM         
!; PortSelection: Port_12
   4.950000000    -0.7631196   -0.0227502     0.0548289   -0.6306384     0.0597991   -0.6539316    -0.7452040   -0.1125336 
   4.957564576    -0.7627147   -0.0201269     0.0560472   -0.6299376     0.0601194   -0.6525933    -0.7470624   -0.1092324 
   4.965129151    -0.7646514   -0.0204359     0.0566386   -0.6280699     0.0608447   -0.6509752    -0.7491441   -0.1031169 
   4.972693727    -0.7668095   -0.0204640     0.0572196   -0.6260841     0.0604395   -0.6487835    -0.7507176   -0.0946242 
   4.980258303    -0.7688213   -0.0201645     0.0576587   -0.6236311     0.0605847   -0.6464790    -0.7507923   -0.0848017 
   4.987822878    -0.7697942   -0.0190163     0.0604319   -0.6209916     0.0600787   -0.6436657    -0.7490954   -0.0736506 
   4.995387454    -0.7709680   -0.0169357     0.0629165   -0.6196024     0.0601546   -0.6411805    -0.7470407   -0.0622218 
   5.002952030    -0.7711793   -0.0146282     0.0672131   -0.6195482     0.0594438   -0.6384663    -0.7440617   -0.0514953 
   5.010516605    -0.7703530   -0.0129317     0.0711118   -0.6206903     0.0598062   -0.6358338    -0.7409936   -0.0412775 
   5.018081181    -0.7697049   -0.0119639     0.0736518   -0.6222252     0.0599468   -0.6326402    -0.7376164   -0.0309679 
   5.025645756    -0.7679505   -0.0102112     0.0767978   -0.6237326     0.0597570   -0.6297430    -0.7334683   -0.0217292 
   5.033210332    -0.7650681   -0.0081775     0.0779402   -0.6259177     0.0599711   -0.6261972    -0.7303027   -0.0150382 
   5.040774908    -0.7635398   -0.0041171     0.0794392   -0.6279437     0.0603289   -0.6233400    -0.7289808   -0.0089163 
   5.048339483    -0.7619483   -0.0019275     0.0803104   -0.6311737     0.0613395   -0.6209059    -0.7287165   -0.0044055 
   5.055904059    -0.7611849    0.0013217     0.0831161   -0.6342009     0.0631041   -0.6200398    -0.7306399   -0.0033011 
   5.063468635    -0.7600974    0.0047122     0.0844204   -0.6380484     0.0654243   -0.6195899    -0.7322975   -0.0033245 
   5.071033210    -0.7582372    0.0088555     0.0868459   -0.6411055     0.0668774   -0.6204700    -0.7353517   -0.0045216 
   5.078597786    -0.7560585    0.0115190     0.0874983   -0.6448103     0.0683307   -0.6223524    -0.7388661   -0.0073433 
   5.086162362    -0.7533268    0.0149960     0.0872596   -0.6486412     0.0685733   -0.6248212    -0.7424132   -0.0098809 
   5.093726937    -0.7510176    0.0172409     0.0859678   -0.6533271     0.0682228   -0.6284567    -0.7455280   -0.0138241 
   5.101291513    -0.7485442    0.0184006     0.0844002   -0.6574063     0.0684443   -0.6324240    -0.7476321   -0.0185257 
   5.108856089    -0.7468364    0.0193261     0.0844952   -0.6614202     0.0688324   -0.6365938    -0.7477654   -0.0224387 
   5.116420664    -0.7447791    0.0197560     0.0839562   -0.6651561     0.0687443   -0.6406893    -0.7470893   -0.0252456 
   5.123985240    -0.7426443    0.0199491     0.0853120   -0.6687260     0.0692113   -0.6451153    -0.7441492   -0.0269351 
   5.131549815    -0.7395137    0.0202561     0.0847744   -0.6725006     0.0687138   -0.6505322    -0.7397856   -0.0270786 
   5.139114391    -0.7358271    0.0212358     0.0859867   -0.6762865     0.0680163   -0.6560825    -0.7348633   -0.0267881 
   5.146678967    -0.7328032    0.0232188     0.0846622   -0.6811767     0.0667857   -0.6621171    -0.7291886   -0.0253181 
   5.154243542    -0.7274433    0.0262024     0.0846101   -0.6860067     0.0653803   -0.6671616    -0.7204704   -0.0245940 
   5.161808118    -0.7221404    0.0272429     0.0839374   -0.6920176     0.0650606   -0.6719610    -0.7119287   -0.0231109 
   5.169372694    -0.7162740    0.0280957     0.0839157   -0.6975817     0.0657796   -0.6760482    -0.7031152   -0.0198589 
   5.176937269    -0.7098102    0.0294037     0.0823026   -0.7040637     0.0673278   -0.6793313    -0.6952436   -0.0162223 
   5.184501845    -0.7018431    0.0295016     0.0813284   -0.7097689     0.0696908   -0.6827252    -0.6882107   -0.0120172 
   5.192066421    -0.6940106    0.0281720     0.0782309   -0.7171964     0.0728065   -0.6879903    -0.6839299   -0.0086594 
   5.199630996    -0.6876631    0.0264756     0.0739114   -0.7240633     0.0749448   -0.6959057    -0.6809735   -0.0072497 
   5.207195572    -0.6816819    0.0234688     0.0695356   -0.7313793     0.0763026   -0.7050387    -0.6788766   -0.0046291 
   5.214760148    -0.6786593    0.0203327     0.0625921   -0.7390441     0.0749609   -0.7154763    -0.6750144   -0.0028141 
   5.222324723    -0.6748269    0.0167012     0.0532798   -0.7452381     0.0717972   -0.7248954    -0.6709023   -0.0032262 
   5.229889299    -0.6722000    0.0125887     0.0442449   -0.7487973     0.0665403   -0.7332730    -0.6681806   -0.0058314 
   5.237453875    -0.6693316    0.0099951     0.0338256   -0.7505822     0.0596925   -0.7388392    -0.6652069   -0.0113019 
   5.245018450    -0.6673597    0.0088800     0.0245279   -0.7515727     0.0521030   -0.7442112    -0.6652787   -0.0156316 
   5.252583026    -0.6650309    0.0088563     0.0139104   -0.7518876     0.0430143   -0.7475157    -0.6676973   -0.0191451 
   5.260147601    -0.6597550    0.0103048     0.0058056   -0.7521850     0.0345596   -0.7495016    -0.6686487   -0.0222739 
   5.267712177    -0.6549390    0.0099192    -0.0038358   -0.7504120     0.0258487   -0.7506676    -0.6672099   -0.0258519 
   5.275276753    -0.6461644    0.0090437    -0.0128391   -0.7480375     0.0158426   -0.7490635    -0.6617573   -0.0289575 
   5.282841328    -0.6365065    0.0006508    -0.0263059   -0.7407168     0.0024985   -0.7426876    -0.6515784   -0.0365380 
   5.290405904    -0.6388373   -0.0203673    -0.0294764   -0.7165625    -0.0022309   -0.7172107    -0.6434587   -0.0686583 
   5.297970480    -0.6541353   -0.0201572    -0.0107797   -0.7155810     0.0184868   -0.7149063    -0.6706382   -0.0821713 
   5.305535055    -0.6563096   -0.0164018    -0.0094157   -0.7240475     0.0198571   -0.7226725    -0.6794453   -0.0796557 
   5.313099631    -0.6592389   -0.0160764    -0.0131953   -0.7309850     0.0169562   -0.7277790    -0.6820719   -0.0805237 
   5.320664207    -0.6628968   -0.0167481    -0.0182938   -0.7364848     0.0114671   -0.7309747    -0.6852044   -0.0840278 
   5.328228782    -0.6688682   -0.0166415    -0.0258492   -0.7404351     0.0054870   -0.7334659    -0.6872218   -0.0907096 
   5.335793358    -0.6730295   -0.0164182    -0.0359802   -0.7418448    -0.0022765   -0.7346091    -0.6899068   -0.0970204 
   5.343357934    -0.6774651   -0.0153258    -0.0470354   -0.7398243    -0.0107651   -0.7345926    -0.6923104   -0.1042415 
   5.350922509    -0.6816149   -0.0145830    -0.0584681   -0.7359440    -0.0201267   -0.7326343    -0.6949346   -0.1088031 
   5.358487085    -0.6850411   -0.0135218    -0.0679936   -0.7303008    -0.0312182   -0.7297309    -0.6996154   -0.1132204 
   5.366051661    -0.6892739   -0.0122495    -0.0753127   -0.7241000    -0.0409360   -0.7262009    -0.7028335   -0.1148126 
   5.373616236    -0.6944067   -0.0118002    -0.0815445   -0.7171751    -0.0492956   -0.7210119    -0.7076936   -0.1158215 
   5.381180812    -0.6990657   -0.0091073    -0.0851284   -0.7088516    -0.0562764   -0.7168663    -0.7107424   -0.1143389 
   5.388745387    -0.7038277   -0.0083917    -0.0878934   -0.7003186    -0.0619807   -0.7119261    -0.7144358   -0.1103708 
   5.396309963    -0.7085549   -0.0080787    -0.0897520   -0.6915907    -0.0669045   -0.7075477    -0.7157525   -0.1056284 
   5.403874539    -0.7132663   -0.0074784    -0.0892733   -0.6822883    -0.0726056   -0.7027494    -0.7167448   -0.0976215 
   5.411439114    -0.7207559   -0.0062061    -0.0886871   -0.6743854    -0.0780339   -0.6983139    -0.7154444   -0.0907097 
   5.419003690    -0.7283469   -0.0044923    -0.0867345   -0.6678673    -0.0834493   -0.6928360    -0.7141736   -0.0831182 
   5.426568266    -0.7367675   -0.0005244    -0.0831740   -0.6644276    -0.0881146   -0.6878075    -0.7120579   -0.0782679 
   5.434132841    -0.7436276    0.0039419    -0.0805522   -0.6615392    -0.0913677   -0.6829933    -0.7112790   -0.0732107 
   5.441697417    -0.7485297    0.0088008    -0.0794489   -0.6595133    -0.0936524   -0.6787690    -0.7125220   -0.0692432 
   5.449261993    -0.7524960    0.0134609    -0.0789709   -0.6563739    -0.0954083   -0.6736712    -0.7151667   -0.0648246 
   5.456826568    -0.7552791    0.0175671    -0.0802879   -0.6524962    -0.0985501   -0.6684478    -0.7180076   -0.0613356 
   5.464391144    -0.7568775    0.0205567    -0.0806472   -0.6477405    -0.1007481   -0.6624073    -0.7217325   -0.0573186 
   5.471955720    -0.7587167    0.0218167    -0.0808295   -0.6426119    -0.1013695   -0.6558359    -0.7242864   -0.0559150 
   5.479520295    -0.7605997    0.0231963    -0.0780902   -0.6375567    -0.0992430   -0.6496180    -0.7270999   -0.0547335 
   5.487084871    -0.7622722    0.0243655    -0.0755043   -0.6323947    -0.0944305   -0.6437488    -0.7294433   -0.0554675 
   5.494649446    -0.7643959    0.0266769    -0.0708931   -0.6277911    -0.0887412   -0.6393549    -0.7313921   -0.0572222 
   5.502214022    -0.7673756    0.0288123    -0.0666083   -0.6235547    -0.0818612   -0.6359333    -0.7356169   -0.0574236 
   5.509778598    -0.7698947    0.0314132    -0.0609719   -0.6202837    -0.0748499   -0.6337247    -0.7392551   -0.0566726 
   5.517343173    -0.7735727    0.0350059    -0.0576045   -0.6177338    -0.0693597   -0.6321335    -0.7438445   -0.0522860 
   5.524907749    -0.7761703    0.0400810    -0.0527214   -0.6153582    -0.0623037   -0.6310878    -0.7461522   -0.0465202 
   5.532472325    -0.7790518    0.0462938    -0.0481328   -0.6137088    -0.0581623   -0.6302457    -0.7486869   -0.0394780 
   5.540036900    -0.7816607    0.0521822    -0.0428733   -0.6115528    -0.0510695   -0.6296927    -0.7505921   -0.0301913 
   5.547601476    -0.7827694    0.0588210    -0.0379511   -0.6097758    -0.0456404   -0.6288354    -0.7511423   -0.0208263 
   5.555166052    -0.7851854    0.0646276    -0.0309922   -0.6079206    -0.0402523   -0.6278055    -0.7502107   -0.0096431 
   5.562730627    -0.7830270    0.0716355    -0.0252975   -0.6064399    -0.0346268   -0.6255585    -0.7486589    0.0024355 
   5.570295203    -0.7837606    0.0749284    -0.0198248   -0.6062955    -0.0291613   -0.6236545    -0.7470648    0.0148450 
   5.577859779    -0.7830575    0.0814612    -0.0117849   -0.6072329    -0.0261920   -0.6214693    -0.7452992    0.0271186 
   5.585424354    -0.7816084    0.0863700    -0.0060201   -0.6098645    -0.0206937   -0.6199994    -0.7436647    0.0386203 
   5.592988930    -0.7798821    0.0906567     0.0017430   -0.6125198    -0.0154190   -0.6183767    -0.7418124    0.0498215 
   5.600553506    -0.7787247    0.0951248     0.0085119   -0.6163694    -0.0103536   -0.6169482    -0.7393398    0.0588376 
   5.608118081    -0.7767658    0.0993348     0.0152665   -0.6204027    -0.0036639   -0.6155750    -0.7380768    0.0668460 
   5.615682657    -0.7748216    0.1036968     0.0202614   -0.6258627     0.0017545   -0.6149355    -0.7370493    0.0728722 
   5.623247232    -0.7720327    0.1091293     0.0254986   -0.6313875     0.0064244   -0.6151361    -0.7350574    0.0793019 
   5.630811808    -0.7692750    0.1148492     0.0284798   -0.6385006     0.0136318   -0.6165006    -0.7343743    0.0837293 
   5.638376384    -0.7664539    0.1211265     0.0322617   -0.6459215     0.0175981   -0.6198782    -0.7349400    0.0872885 
   5.645940959    -0.7637577    0.1268572     0.0344058   -0.6534392     0.0213195   -0.6241884    -0.7368821    0.0903268 
   5.653505535    -0.7612057    0.1340029     0.0365400   -0.6606955     0.0254149   -0.6302999    -0.7385723    0.0931996 
   5.661070111    -0.7583219    0.1389892     0.0373597   -0.6672142     0.0278052   -0.6360846    -0.7412893    0.0946366 
   5.668634686    -0.7547157    0.1435756     0.0379084   -0.6735922     0.0309923   -0.6418217    -0.7438403    0.0960355 
   5.676199262    -0.7506526    0.1490412     0.0375121   -0.6798917     0.0323473   -0.6472150    -0.7458054    0.0967766 
   5.683763838    -0.7465630    0.1544234     0.0372003   -0.6864005     0.0325001   -0.6538040    -0.7467124    0.0971775 
   5.691328413    -0.7418104    0.1600108     0.0377870   -0.6935123     0.0319740   -0.6610371    -0.7464789    0.0972915 
   5.698892989    -0.7370967    0.1643492     0.0376683   -0.7010552     0.0321471   -0.6690746    -0.7451182    0.0959465 
   5.706457565    -0.7314970    0.1682858     0.0371520   -0.7076267     0.0316683   -0.6783078    -0.7418104    0.0958660 
   5.714022140    -0.7252074    0.1723600     0.0374996   -0.7143695     0.0310873   -0.6858760    -0.7360681    0.0963605 
   5.721586716    -0.7173156    0.1756054     0.0360136   -0.7213721     0.0316616   -0.6941494    -0.7306644    0.0968929 
   5.729151292    -0.7086158    0.1788711     0.0344177   -0.7276894     0.0292744   -0.7012119    -0.7237581    0.0984187 
   5.736715867    -0.6999248    0.1811082     0.0328274   -0.7355398     0.0281352   -0.7096258    -0.7147537    0.1003174 
   5.744280443    -0.6904955    0.1831667     0.0304754   -0.7441877     0.0269750   -0.7188464    -0.7049095    0.1032033 
   5.751845018    -0.6814620    0.1848233     0.0280611   -0.7541439     0.0249428   -0.7287392    -0.6950180    0.1073292 
   5.759409594    -0.6716430    0.1841692     0.0248821   -0.7627541     0.0241316   -0.7394767    -0.6840788    0.1107512 
   5.766974170    -0.6618376    0.1842008     0.0200435   -0.7716871     0.0221324   -0.7492564    -0.6730128    0.1135390 
   5.774538745    -0.6520615    0.1837657     0.0138671   -0.7798778     0.0190083   -0.7592670    -0.6621176    0.1167385 
   5.782103321    -0.6429979    0.1828108     0.0046870   -0.7874635     0.0124329   -0.7681456    -0.6526538    0.1197571 
   5.789667897    -0.6333858    0.1813907    -0.0046152   -0.7946634     0.0050246   -0.7761797    -0.6438429    0.1213913 
   5.797232472    -0.6226966    0.1804923    -0.0164638   -0.8007765    -0.0027806   -0.7831954    -0.6340749    0.1227611 
   5.804797048    -0.6127832    0.1782330    -0.0269725   -0.8052015    -0.0103671   -0.7894733    -0.6275005    0.1226479 
   5.812361624    -0.5997009    0.1758278    -0.0387089   -0.8077961    -0.0190542   -0.7930899    -0.6195019    0.1205813 
   5.819926199    -0.5844650    0.1693298    -0.0505768   -0.8062899    -0.0280400   -0.7936702    -0.6113495    0.1181567 
   5.827490775    -0.5702460    0.1545047    -0.0614266   -0.7969046    -0.0343377   -0.7849228    -0.6086388    0.1081769 
   5.835055351    -0.5733895    0.1393351    -0.0564736   -0.7913250    -0.0274667   -0.7816446    -0.6135056    0.1047529 
   5.842619926    -0.5741128    0.1390792    -0.0601363   -0.7971747    -0.0254554   -0.7891788    -0.6122891    0.1080610 
   5.850184502    -0.5693480    0.1367500    -0.0676122   -0.8017063    -0.0301116   -0.7966263    -0.6083304    0.1056021 
   5.857749077    -0.5658880    0.1331653    -0.0751278   -0.8037859    -0.0339118   -0.8025208    -0.6050851    0.1018311 
   5.865313653    -0.5635728    0.1297084    -0.0809425   -0.8068989    -0.0392348   -0.8069441    -0.6008455    0.0952840 
   5.872878229    -0.5619012    0.1266546    -0.0893117   -0.8082826    -0.0424915   -0.8116983    -0.5961694    0.0860084 
   5.880442804    -0.5599925    0.1262472    -0.0951154   -0.8095627    -0.0551939   -0.8152199    -0.5932232    0.0761776 
   5.888007380    -0.5574159    0.1244103    -0.1062044   -0.8102247    -0.0627086   -0.8182094    -0.5910593    0.0632771 
   5.895571956    -0.5555420    0.1222982    -0.1169421   -0.8095706    -0.0696404   -0.8201185    -0.5919555    0.0507655 
   5.903136531    -0.5540316    0.1199177    -0.1251598   -0.8099144    -0.0831371   -0.8213041    -0.5949085    0.0391482 
   5.910701107    -0.5536418    0.1161382    -0.1337128   -0.8074014    -0.0950187   -0.8197177    -0.5990572    0.0261801 
   5.918265683    -0.5553963    0.1122544    -0.1419802   -0.8040602    -0.1058358   -0.8173590    -0.6038915    0.0150976 
   5.925830258    -0.5581481    0.1075768    -0.1513324   -0.7999673    -0.1134868   -0.8136409    -0.6081743    0.0055043 
   5.933394834    -0.5604638    0.1033827    -0.1562524   -0.7953938    -0.1275508   -0.8081506    -0.6124737   -0.0010302 
   5.940959410    -0.5639133    0.0988593    -0.1656730   -0.7892497    -0.1332013   -0.8023971    -0.6144471   -0.0065319 
   5.948523985    -0.5678548    0.0941636    -0.1728407   -0.7835464    -0.1430485   -0.7963029    -0.6165465   -0.0110744 
   5.956088561    -0.5727972    0.0894656    -0.1781717   -0.7770821    -0.1517291   -0.7906172    -0.6167935   -0.0150204 
   5.963653137    -0.5788034    0.0866254    -0.1821381   -0.7704120    -0.1600600   -0.7853767    -0.6161051   -0.0158045 
   5.971217712    -0.5854641    0.0842552    -0.1855939   -0.7638028    -0.1670642   -0.7791904    -0.6144323   -0.0156455 
   5.978782288    -0.5928097    0.0832692    -0.1882337   -0.7565675    -0.1741187   -0.7732728    -0.6127110   -0.0145312 
   5.986346863    -0.5999042    0.0824134    -0.1904507   -0.7498128    -0.1793754   -0.7671305    -0.6110275   -0.0144705 
   5.993911439    -0.6066514    0.0836171    -0.1921902   -0.7432668    -0.1843876   -0.7610197    -0.6104273   -0.0140712 
   6.001476015    -0.6126270    0.0850741    -0.1948876   -0.7368776    -0.1890046   -0.7552237    -0.6105616   -0.0137660 
   6.009040590    -0.6188547    0.0868332    -0.1955453   -0.7310388    -0.1951645   -0.7503324    -0.6115856   -0.0136466 
   6.016605166    -0.6245427    0.0883302    -0.1966419   -0.7257079    -0.2003525   -0.7457908    -0.6145781   -0.0127531 
   6.024169742    -0.6299177    0.0896999    -0.1958419   -0.7194763    -0.2056670   -0.7407178    -0.6180051   -0.0110120 
   6.031734317    -0.6354647    0.0907460    -0.1960042   -0.7140002    -0.2092500   -0.7356204    -0.6216781   -0.0094237 
   6.039298893    -0.6402142    0.0902687    -0.1947314   -0.7088472    -0.2118711   -0.7292010    -0.6259182   -0.0080768 
   6.046863469    -0.6455275    0.0899109    -0.1949553   -0.7036930    -0.2118635   -0.7237202    -0.6302828   -0.0090494 
   6.054428044    -0.6502725    0.0896195    -0.1920393   -0.6994786    -0.2162793   -0.7158818    -0.6354759   -0.0108022 
   6.061992620    -0.6550037    0.0897640    -0.1935182   -0.6950422    -0.2140751   -0.7105353    -0.6410799   -0.0135246 
   6.069557196    -0.6601178    0.0892466    -0.1919731   -0.6920207    -0.2135535   -0.7063653    -0.6441846   -0.0155493 
   6.077121771    -0.6641482    0.0903245    -0.1914679   -0.6877973    -0.2115900   -0.7017266    -0.6484236   -0.0172689 
   6.084686347    -0.6677962    0.0912190    -0.1892925   -0.6845640    -0.2095445   -0.6985503    -0.6518431   -0.0184478 
   6.092250923    -0.6712066    0.0943578    -0.1878237   -0.6798634    -0.2059388   -0.6947919    -0.6558174   -0.0175925 
   6.099815498    -0.6747418    0.0974628    -0.1853949   -0.6754401    -0.2029918   -0.6905441    -0.6586413   -0.0154905 
   6.107380074    -0.6782825    0.1026868    -0.1833499   -0.6712521    -0.1990616   -0.6864572    -0.6617497   -0.0114224 
   6.114944649    -0.6819631    0.1082939    -0.1810933   -0.6670473    -0.1954601   -0.6831366    -0.6636459   -0.0046765 
   6.122509225    -0.6858183    0.1133072    -0.1773721   -0.6637726    -0.1913709   -0.6800142    -0.6658704    0.0018817 
   6.130073801    -0.6881503    0.1206951    -0.1734153   -0.6609585    -0.1872959   -0.6769001    -0.6672964    0.0111644 
