! MS46122B
! 1919307/90821646
! 5/18/2022 3:42:30 PM
! C:\USERS\PC_\DESKTOP\CARACTERIZACION\MEDICIONES\BANDA ANCHA\S11_S21_ABS12_502CL.S2P
! CHANNEL.1
! TR.MEASUREMENT
! CORRECTED.DATA
# GHZ S RI R 50.0
! FREQ.GHZ         S11RE         S11IM         S21RE         S21IM         S12RE         S12IM         S22RE         S22IM         
!; PortSelection: Port_12
   4.950000000    -0.8058603    0.0452118    -0.0175020   -0.5816825    -0.0219397   -0.6029107    -0.8158478   -0.0078052 
   4.957564576    -0.8057590    0.0478544    -0.0177016   -0.5801497    -0.0221941   -0.6004822    -0.8133394    0.0026334 
   4.965129151    -0.8091889    0.0479393    -0.0180568   -0.5774849    -0.0219408   -0.5974224    -0.8115153    0.0142702 
   4.972693727    -0.8120325    0.0494054    -0.0164368   -0.5737447    -0.0214426   -0.5943056    -0.8111511    0.0271113 
   4.980258303    -0.8140666    0.0507526    -0.0149723   -0.5702080    -0.0204513   -0.5905457    -0.8097636    0.0396472 
   4.987822878    -0.8150843    0.0538629    -0.0104371   -0.5679383    -0.0189704   -0.5868835    -0.8086150    0.0508930 
   4.995387454    -0.8164439    0.0568431    -0.0063254   -0.5670162    -0.0171374   -0.5845815    -0.8088460    0.0609956 
   5.002952030    -0.8167247    0.0596431    -0.0013604   -0.5682054    -0.0148128   -0.5825827    -0.8084274    0.0682285 
   5.010516605    -0.8155689    0.0623605     0.0042517   -0.5708939    -0.0126633   -0.5811525    -0.8090646    0.0734613 
   5.018081181    -0.8134286    0.0635225     0.0074917   -0.5743489    -0.0105736   -0.5800547    -0.8083532    0.0777215 
   5.025645756    -0.8107632    0.0652290     0.0110576   -0.5782482    -0.0092474   -0.5789655    -0.8065778    0.0803720 
   5.033210332    -0.8074277    0.0674514     0.0118706   -0.5830744    -0.0079040   -0.5782351    -0.8055958    0.0811567 
   5.040774908    -0.8049174    0.0706211     0.0131154   -0.5880060    -0.0072951   -0.5782947    -0.8045581    0.0817299 
   5.048339483    -0.8021052    0.0732043     0.0123513   -0.5931293    -0.0063539   -0.5789575    -0.8024679    0.0815825 
   5.055904059    -0.7999408    0.0763645     0.0128286   -0.5987371    -0.0060887   -0.5798566    -0.8020175    0.0806090 
   5.063468635    -0.7979425    0.0792364     0.0114575   -0.6043323    -0.0058898   -0.5815433    -0.8008264    0.0798465 
   5.071033210    -0.7958544    0.0834214     0.0105206   -0.6089288    -0.0067276   -0.5835108    -0.7993851    0.0795091 
   5.078597786    -0.7938744    0.0867150     0.0076533   -0.6128217    -0.0081243   -0.5858933    -0.7978731    0.0795682 
   5.086162362    -0.7916535    0.0910387     0.0026965   -0.6162956    -0.0106473   -0.5881848    -0.7967007    0.0811678 
   5.093726937    -0.7902634    0.0950944    -0.0007447   -0.6191868    -0.0132289   -0.5902640    -0.7961468    0.0819140 
   5.101291513    -0.7891240    0.0986336    -0.0043401   -0.6213030    -0.0150167   -0.5922664    -0.7949353    0.0822508 
   5.108856089    -0.7892663    0.1021519    -0.0057125   -0.6229688    -0.0161723   -0.5946648    -0.7940273    0.0831220 
   5.116420664    -0.7886926    0.1058526    -0.0071498   -0.6242343    -0.0171349   -0.5968089    -0.7944300    0.0841891 
   5.123985240    -0.7882332    0.1095103    -0.0065537   -0.6256657    -0.0171236   -0.5993978    -0.7937082    0.0842547 
   5.131549815    -0.7861704    0.1128930    -0.0060373   -0.6282569    -0.0173771   -0.6030390    -0.7933520    0.0837939 
   5.139114391    -0.7826796    0.1160344    -0.0047890   -0.6309281    -0.0181802   -0.6077412    -0.7937537    0.0829857 
   5.146678967    -0.7797201    0.1207942    -0.0042570   -0.6360546    -0.0189546   -0.6133115    -0.7934536    0.0809921 
   5.154243542    -0.7743857    0.1250032    -0.0041923   -0.6410857    -0.0201774   -0.6188275    -0.7901598    0.0764604 
   5.161808118    -0.7688043    0.1276095    -0.0039168   -0.6486380    -0.0197665   -0.6247129    -0.7863308    0.0730015 
   5.169372694    -0.7617614    0.1287856    -0.0041600   -0.6558765    -0.0197745   -0.6306289    -0.7807742    0.0698551 
   5.176937269    -0.7539216    0.1300282    -0.0070296   -0.6639583    -0.0194737   -0.6359777    -0.7752280    0.0682227 
   5.184501845    -0.7446783    0.1297045    -0.0103506   -0.6718349    -0.0189194   -0.6417184    -0.7679640    0.0680028 
   5.192066421    -0.7358125    0.1270454    -0.0161333   -0.6794854    -0.0189503   -0.6490306    -0.7624657    0.0689087 
   5.199630996    -0.7292125    0.1245239    -0.0239883   -0.6875950    -0.0202091   -0.6586623    -0.7563219    0.0696333 
   5.207195572    -0.7238246    0.1212513    -0.0326067   -0.6939972    -0.0228389   -0.6679975    -0.7486631    0.0724409 
   5.214760148    -0.7212351    0.1180967    -0.0432057   -0.6993474    -0.0281889   -0.6771430    -0.7392913    0.0761916 
   5.222324723    -0.7187139    0.1153036    -0.0555093   -0.7010323    -0.0350420   -0.6846452    -0.7294075    0.0783574 
   5.229889299    -0.7168508    0.1126998    -0.0662235   -0.7004231    -0.0429654   -0.6903722    -0.7229011    0.0797610 
   5.237453875    -0.7154764    0.1121247    -0.0766580   -0.6972053    -0.0510206   -0.6926195    -0.7178683    0.0797744 
   5.245018450    -0.7146466    0.1125680    -0.0854794   -0.6936403    -0.0593092   -0.6947753    -0.7172818    0.0821507 
   5.252583026    -0.7148342    0.1146484    -0.0929143   -0.6904988    -0.0671492   -0.6944513    -0.7202487    0.0852006 
   5.260147601    -0.7106819    0.1178359    -0.0990733   -0.6865836    -0.0733579   -0.6925248    -0.7235590    0.0885724 
   5.267712177    -0.7085531    0.1198178    -0.1036405   -0.6828623    -0.0785834   -0.6907728    -0.7267527    0.0902813 
   5.275276753    -0.7032620    0.1203587    -0.1065132   -0.6791562    -0.0825080   -0.6877661    -0.7290683    0.0903161 
   5.282841328    -0.6981184    0.1173247    -0.1104998   -0.6745493    -0.0861005   -0.6840147    -0.7316514    0.0879897 
   5.290405904    -0.6945547    0.1116315    -0.1124869   -0.6708940    -0.0882162   -0.6804451    -0.7333990    0.0822893 
   5.297970480    -0.6924185    0.1037535    -0.1163323   -0.6666369    -0.0914975   -0.6755733    -0.7301441    0.0726609 
   5.305535055    -0.6966281    0.0966427    -0.1163308   -0.6599622    -0.0906705   -0.6674757    -0.7278430    0.0503223 
   5.313099631    -0.7024174    0.0959781    -0.1110307   -0.6637408    -0.0842005   -0.6685750    -0.7436899    0.0295498 
   5.320664207    -0.7047230    0.0954658    -0.1140539   -0.6710880    -0.0856404   -0.6747387    -0.7568756    0.0230477 
   5.328228782    -0.7079040    0.0941229    -0.1220742   -0.6758164    -0.0917342   -0.6790301    -0.7622875    0.0167560 
   5.335793358    -0.7090699    0.0926371    -0.1323709   -0.6758852    -0.1008421   -0.6802285    -0.7648107    0.0104928 
   5.343357934    -0.7104554    0.0914746    -0.1432843   -0.6729916    -0.1106485   -0.6792485    -0.7653115    0.0053836 
   5.350922509    -0.7127140    0.0896346    -0.1536235   -0.6675783    -0.1203894   -0.6750458    -0.7639890    0.0041719 
   5.358487085    -0.7149704    0.0892366    -0.1622402   -0.6602611    -0.1317465   -0.6690334    -0.7631038    0.0045554 
   5.366051661    -0.7195254    0.0884659    -0.1685399   -0.6519759    -0.1399478   -0.6626770    -0.7609519    0.0098011 
   5.373616236    -0.7246900    0.0888956    -0.1725658   -0.6439119    -0.1470210   -0.6550067    -0.7590411    0.0153976 
   5.381180812    -0.7293618    0.0904944    -0.1738056   -0.6343663    -0.1523692   -0.6484535    -0.7573863    0.0243002 
   5.388745387    -0.7349639    0.0912325    -0.1747271   -0.6248514    -0.1557346   -0.6414289    -0.7558929    0.0336658 
   5.396309963    -0.7400191    0.0913951    -0.1727114   -0.6154997    -0.1588957   -0.6354616    -0.7547932    0.0442469 
   5.403874539    -0.7453184    0.0920094    -0.1699129   -0.6064488    -0.1610478   -0.6293542    -0.7536958    0.0548722 
   5.411439114    -0.7521062    0.0933679    -0.1647305   -0.5994290    -0.1634360   -0.6238771    -0.7524111    0.0643722 
   5.419003690    -0.7593527    0.0951667    -0.1595503   -0.5947155    -0.1656880   -0.6193818    -0.7520350    0.0719190 
   5.426568266    -0.7660993    0.0977033    -0.1531242   -0.5934694    -0.1677533   -0.6158844    -0.7536738    0.0750290 
   5.434132841    -0.7706330    0.1004922    -0.1492833   -0.5936720    -0.1685196   -0.6124177    -0.7564211    0.0782822 
   5.441697417    -0.7735327    0.1028925    -0.1463680   -0.5947161    -0.1692961   -0.6104797    -0.7618843    0.0796606 
   5.449261993    -0.7749325    0.1045394    -0.1450044   -0.5946013    -0.1703924   -0.6072401    -0.7669035    0.0808142 
   5.456826568    -0.7750434    0.1045299    -0.1455532   -0.5930420    -0.1727465   -0.6033847    -0.7722948    0.0811571 
   5.464391144    -0.7751417    0.1041366    -0.1463941   -0.5912015    -0.1744451   -0.5986136    -0.7759835    0.0808078 
   5.471955720    -0.7760862    0.1026857    -0.1465424   -0.5885333    -0.1732896   -0.5942141    -0.7790397    0.0787450 
   5.479520295    -0.7773510    0.1017012    -0.1447261   -0.5855535    -0.1708296   -0.5903372    -0.7798257    0.0763281 
   5.487084871    -0.7790799    0.1017248    -0.1422647   -0.5827910    -0.1664250   -0.5874847    -0.7799442    0.0732077 
   5.494649446    -0.7804334    0.1024418    -0.1391723   -0.5795659    -0.1616068   -0.5853395    -0.7794968    0.0699288 
   5.502214022    -0.7834302    0.1038538    -0.1352107   -0.5774047    -0.1558446   -0.5840621    -0.7796222    0.0695136 
   5.509778598    -0.7862722    0.1064890    -0.1309005   -0.5752432    -0.1510540   -0.5837116    -0.7803375    0.0706892 
   5.517343173    -0.7903901    0.1104936    -0.1281357   -0.5734317    -0.1458000   -0.5829873    -0.7799006    0.0759842 
   5.524907749    -0.7935855    0.1164089    -0.1240123   -0.5716472    -0.1397607   -0.5830664    -0.7793363    0.0826049 
   5.532472325    -0.7969413    0.1235835    -0.1195926   -0.5704545    -0.1360511   -0.5828501    -0.7785936    0.0912148 
   5.540036900    -0.7998738    0.1308868    -0.1142502   -0.5691585    -0.1298112   -0.5829952    -0.7790117    0.1013813 
   5.547601476    -0.8010229    0.1379152    -0.1088080   -0.5678619    -0.1237592   -0.5832137    -0.7784133    0.1114560 
   5.555166052    -0.8033668    0.1450841    -0.1024492   -0.5675487    -0.1182758   -0.5828860    -0.7777551    0.1222642 
   5.562730627    -0.8005915    0.1521207    -0.0951862   -0.5676193    -0.1116903   -0.5822852    -0.7770927    0.1329759 
   5.570295203    -0.8005052    0.1560435    -0.0891928   -0.5694406    -0.1057387   -0.5821580    -0.7771305    0.1438009 
   5.577859779    -0.7991929    0.1626424    -0.0804809   -0.5730496    -0.1014783   -0.5817664    -0.7774547    0.1534963 
   5.585424354    -0.7968634    0.1672212    -0.0750497   -0.5780854    -0.0956135   -0.5825907    -0.7780739    0.1626804 
   5.592988930    -0.7950906    0.1719274    -0.0676419   -0.5837340    -0.0896338   -0.5838600    -0.7783720    0.1699705 
   5.600553506    -0.7925984    0.1762803    -0.0623358   -0.5904232    -0.0843414   -0.5855298    -0.7784529    0.1756204 
   5.608118081    -0.7898382    0.1813058    -0.0572381   -0.5977846    -0.0784219   -0.5869448    -0.7778526    0.1807956 
   5.615682657    -0.7872518    0.1855617    -0.0546939   -0.6060143    -0.0735501   -0.5893501    -0.7787780    0.1833244 
   5.623247232    -0.7836905    0.1917549    -0.0521782   -0.6143329    -0.0705830   -0.5923982    -0.7759154    0.1871414 
   5.630811808    -0.7802723    0.1982121    -0.0524765   -0.6232691    -0.0656004   -0.5964083    -0.7738742    0.1891976 
   5.638376384    -0.7772593    0.2055376    -0.0530798   -0.6321040    -0.0644050   -0.6017599    -0.7728667    0.1921575 
   5.645940959    -0.7750213    0.2132611    -0.0541551   -0.6405687    -0.0633456   -0.6076229    -0.7711728    0.1947290 
   5.653505535    -0.7719053    0.2214513    -0.0569021   -0.6478002    -0.0625888   -0.6139638    -0.7698497    0.1986549 
   5.661070111    -0.7697969    0.2289114    -0.0586599   -0.6537711    -0.0628527   -0.6199978    -0.7692429    0.2020286 
   5.668634686    -0.7666548    0.2354265    -0.0610472   -0.6590490    -0.0627582   -0.6251913    -0.7690061    0.2047968 
   5.676199262    -0.7626466    0.2430060    -0.0637451   -0.6639268    -0.0639299   -0.6295472    -0.7687231    0.2080096 
   5.683763838    -0.7588331    0.2515684    -0.0667410   -0.6694357    -0.0652432   -0.6349260    -0.7684978    0.2108848 
   5.691328413    -0.7544252    0.2594789    -0.0671683   -0.6750423    -0.0673473   -0.6411268    -0.7677139    0.2131483 
   5.698892989    -0.7500901    0.2668739    -0.0691772   -0.6809611    -0.0689031   -0.6477859    -0.7672595    0.2137817 
   5.706457565    -0.7444175    0.2728463    -0.0695050   -0.6867827    -0.0708278   -0.6559441    -0.7660502    0.2155827 
   5.714022140    -0.7379261    0.2794326    -0.0704428   -0.6931289    -0.0719629   -0.6632962    -0.7629041    0.2162109 
   5.721586716    -0.7294919    0.2840278    -0.0724137   -0.6995856    -0.0728846   -0.6711296    -0.7618344    0.2166188 
   5.729151292    -0.7198922    0.2884073    -0.0744950   -0.7070869    -0.0762023   -0.6787753    -0.7577699    0.2162393 
   5.736715867    -0.7104601    0.2917288    -0.0781879   -0.7159799    -0.0793016   -0.6874389    -0.7525042    0.2166953 
   5.744280443    -0.7000720    0.2934647    -0.0817142   -0.7253971    -0.0828402   -0.6979881    -0.7444533    0.2161623 
   5.751845018    -0.6900524    0.2949896    -0.0877904   -0.7354449    -0.0870875   -0.7085701    -0.7359419    0.2171509 
   5.759409594    -0.6796511    0.2946806    -0.0927710   -0.7449990    -0.0915475   -0.7200599    -0.7253196    0.2171935 
   5.766974170    -0.6689727    0.2932857    -0.1014745   -0.7534185    -0.0965447   -0.7300182    -0.7130223    0.2160518 
   5.774538745    -0.6581590    0.2920458    -0.1112904   -0.7595199    -0.1040588   -0.7392730    -0.7003986    0.2158906 
   5.782103321    -0.6488685    0.2898707    -0.1233170   -0.7653332    -0.1133916   -0.7469778    -0.6877289    0.2162380 
   5.789667897    -0.6396060    0.2878144    -0.1356299   -0.7692833    -0.1246483   -0.7529401    -0.6755011    0.2170580 
   5.797232472    -0.6300301    0.2861133    -0.1484856   -0.7717132    -0.1340568   -0.7582970    -0.6631115    0.2183966 
   5.804797048    -0.6225216    0.2837469    -0.1595099   -0.7731646    -0.1438761   -0.7618931    -0.6534976    0.2201752 
   5.812361624    -0.6132666    0.2818781    -0.1688909   -0.7722310    -0.1509630   -0.7636489    -0.6439987    0.2226456 
   5.819926199    -0.6055101    0.2787209    -0.1790289   -0.7696865    -0.1582369   -0.7644861    -0.6353009    0.2257181 
   5.827490775    -0.5971587    0.2756320    -0.1871310   -0.7674206    -0.1627005   -0.7639451    -0.6289631    0.2278632 
   5.835055351    -0.5883220    0.2710067    -0.1952377   -0.7631714    -0.1682537   -0.7635928    -0.6224894    0.2302883 
   5.842619926    -0.5822807    0.2664721    -0.2004345   -0.7601975    -0.1720947   -0.7634789    -0.6184243    0.2315059 
   5.850184502    -0.5777791    0.2618315    -0.2077103   -0.7585467    -0.1764254   -0.7656283    -0.6168402    0.2308362 
   5.857749077    -0.5750063    0.2577117    -0.2124805   -0.7580787    -0.1801562   -0.7679378    -0.6164138    0.2279783 
   5.865313653    -0.5730544    0.2543261    -0.2195257   -0.7573449    -0.1838618   -0.7704923    -0.6167356    0.2228700 
   5.872878229    -0.5704959    0.2504468    -0.2256553   -0.7572880    -0.1866693   -0.7742665    -0.6167114    0.2133610 
   5.880442804    -0.5666476    0.2484810    -0.2305521   -0.7566521    -0.1993731   -0.7755120    -0.6185766    0.2034149 
   5.888007380    -0.5622529    0.2444727    -0.2411187   -0.7549183    -0.2056466   -0.7774184    -0.6216431    0.1901315 
   5.895571956    -0.5582543    0.2389406    -0.2502390   -0.7533805    -0.2144615   -0.7775610    -0.6258618    0.1776275 
   5.903136531    -0.5553430    0.2331094    -0.2585248   -0.7517920    -0.2272929   -0.7758293    -0.6315102    0.1664840 
   5.910701107    -0.5539055    0.2262058    -0.2658315   -0.7479903    -0.2385706   -0.7718610    -0.6363928    0.1558925 
   5.918265683    -0.5549610    0.2192001    -0.2739655   -0.7436863    -0.2486175   -0.7666771    -0.6396840    0.1463474 
   5.925830258    -0.5573862    0.2124220    -0.2829609   -0.7374078    -0.2549826   -0.7613425    -0.6419313    0.1401700 
   5.933394834    -0.5600361    0.2068219    -0.2883760   -0.7319137    -0.2684800   -0.7520237    -0.6413880    0.1368813 
   5.940959410    -0.5640563    0.2012814    -0.2961308   -0.7237711    -0.2735774   -0.7445080    -0.6393815    0.1349602 
   5.948523985    -0.5688081    0.1971787    -0.3019897   -0.7157899    -0.2812091   -0.7357628    -0.6358037    0.1347152 
   5.956088561    -0.5746609    0.1927791    -0.3052628   -0.7071132    -0.2863374   -0.7283524    -0.6312603    0.1344317 
   5.963653137    -0.5816261    0.1907943    -0.3078006   -0.6990427    -0.2930330   -0.7204617    -0.6263181    0.1380430 
   5.971217712    -0.5887977    0.1899955    -0.3077083   -0.6914855    -0.2987389   -0.7121592    -0.6215228    0.1414102 
   5.978782288    -0.5960719    0.1899121    -0.3087415   -0.6836984    -0.3022730   -0.7044286    -0.6178069    0.1454540 
   5.986346863    -0.6024648    0.1901712    -0.3081634   -0.6767399    -0.3057371   -0.6969182    -0.6157694    0.1483011 
   5.993911439    -0.6082551    0.1908646    -0.3068202   -0.6707681    -0.3073963   -0.6902815    -0.6160944    0.1503334 
   6.001476015    -0.6126490    0.1916007    -0.3057925   -0.6657740    -0.3111323   -0.6837986    -0.6176662    0.1531280 
   6.009040590    -0.6170220    0.1918836    -0.3037577   -0.6607531    -0.3153165   -0.6784332    -0.6206741    0.1536452 
   6.016605166    -0.6206037    0.1909841    -0.3024322   -0.6576924    -0.3178321   -0.6736550    -0.6252142    0.1552717 
   6.024169742    -0.6239370    0.1901822    -0.3006207   -0.6537842    -0.3210751   -0.6687017    -0.6295277    0.1563552 
   6.031734317    -0.6279637    0.1883109    -0.2987979   -0.6504751    -0.3224651   -0.6644682    -0.6338477    0.1566337 
   6.039298893    -0.6304672    0.1854545    -0.2983398   -0.6477939    -0.3231806   -0.6592778    -0.6384951    0.1564420 
   6.046863469    -0.6346646    0.1823641    -0.2968687   -0.6449099    -0.3227399   -0.6550390    -0.6421837    0.1529744 
   6.054428044    -0.6373008    0.1797956    -0.2950664   -0.6428860    -0.3253551   -0.6491668    -0.6468122    0.1494192 
   6.061992620    -0.6416083    0.1785657    -0.2963417   -0.6402731    -0.3236237   -0.6455058    -0.6503269    0.1441698 
   6.069557196    -0.6450461    0.1769874    -0.2966935   -0.6382261    -0.3230859   -0.6433431    -0.6517986    0.1404992 
   6.077121771    -0.6491487    0.1774600    -0.2958150   -0.6351776    -0.3220780   -0.6397506    -0.6522743    0.1379339 
   6.084686347    -0.6526710    0.1782299    -0.2958164   -0.6323740    -0.3202969   -0.6378648    -0.6539285    0.1358595 
   6.092250923    -0.6562480    0.1818751    -0.2934694   -0.6283646    -0.3175024   -0.6350260    -0.6536921    0.1361997 
   6.099815498    -0.6600748    0.1855002    -0.2924171   -0.6242012    -0.3143053   -0.6312581    -0.6546076    0.1383034 
   6.107380074    -0.6638818    0.1917825    -0.2893744   -0.6204934    -0.3108399   -0.6278589    -0.6539665    0.1417982 
   6.114944649    -0.6672153    0.1983576    -0.2861941   -0.6164785    -0.3069943   -0.6249704    -0.6537994    0.1482106 
   6.122509225    -0.6704785    0.2044256    -0.2822458   -0.6136868    -0.3019868   -0.6229973    -0.6542526    0.1553738 
   6.130073801    -0.6719893    0.2131485    -0.2771282   -0.6118978    -0.2966760   -0.6210329    -0.6544881    0.1646271 
