! MS46122B
! 1919307/90821646
! 5/20/2022 12:35:52 PM
! C:\USERS\PC_\DESKTOP\CARACTERIZACION\MEDICIONES\BANCHA ESTRECHA\55_6GHZ\S11_S21_ABS44_502CL.S2P
! CHANNEL.1
! TR.MEASUREMENT
! CORRECTED.DATA
# GHZ S RI R 50.0
! FREQ.GHZ         S11RE         S11IM         S21RE         S21IM         S12RE         S12IM         S22RE         S22IM         
!; PortSelection: Port_12
   5.500000000    -0.6513007   -0.1557732     0.1284377   -0.7648965     0.1117796   -0.7753487    -0.5612181   -0.1934429 
   5.502500000    -0.6504522   -0.1540744     0.1298088   -0.7652564     0.1125380   -0.7717049    -0.5639816   -0.1931069 
   5.505000000    -0.6525980   -0.1531486     0.1311821   -0.7632689     0.1144402   -0.7683675    -0.5677210   -0.1924951 
   5.507500000    -0.6549804   -0.1523684     0.1339970   -0.7610460     0.1167094   -0.7661198    -0.5719041   -0.1925905 
   5.510000000    -0.6569770   -0.1514442     0.1365639   -0.7590035     0.1190569   -0.7632445    -0.5759026   -0.1931346 
   5.512500000    -0.6597018   -0.1507652     0.1385964   -0.7572529     0.1212370   -0.7605957    -0.5798164   -0.1931101 
   5.515000000    -0.6615258   -0.1500636     0.1415223   -0.7552260     0.1233357   -0.7581283    -0.5835835   -0.1930753 
   5.517500000    -0.6628290   -0.1494856     0.1438143   -0.7534105     0.1252714   -0.7560669    -0.5872517   -0.1935881 
   5.520000000    -0.6640168   -0.1486125     0.1457229   -0.7522271     0.1271106   -0.7535244    -0.5916308   -0.1934658 
   5.522500000    -0.6659431   -0.1472178     0.1481137   -0.7507952     0.1298142   -0.7519243    -0.5948889   -0.1930845 
   5.525000000    -0.6661740   -0.1456480     0.1509261   -0.7490159     0.1325996   -0.7501205    -0.5986909   -0.1934057 
   5.527500000    -0.6665998   -0.1446706     0.1530127   -0.7477564     0.1350825   -0.7478117    -0.6014147   -0.1940155 
   5.530000000    -0.6669309   -0.1434829     0.1557378   -0.7464231     0.1375800   -0.7462510    -0.6039855   -0.1945626 
   5.532500000    -0.6667439   -0.1422639     0.1584016   -0.7452897     0.1398900   -0.7445532    -0.6072017   -0.1941606 
   5.535000000    -0.6664346   -0.1409243     0.1595680   -0.7443787     0.1427385   -0.7428618    -0.6105024   -0.1943639 
   5.537500000    -0.6668441   -0.1391111     0.1625480   -0.7429438     0.1445533   -0.7411878    -0.6126547   -0.1940874 
   5.540000000    -0.6661478   -0.1374291     0.1649792   -0.7428082     0.1475216   -0.7395316    -0.6150143   -0.1935700 
   5.542500000    -0.6652892   -0.1353059     0.1673937   -0.7413725     0.1501413   -0.7380492    -0.6169408   -0.1936827 
   5.545000000    -0.6641444   -0.1340296     0.1695086   -0.7399346     0.1526273   -0.7370209    -0.6187623   -0.1932068 
   5.547500000    -0.6628047   -0.1323169     0.1706512   -0.7391087     0.1544369   -0.7358828    -0.6208586   -0.1924928 
   5.550000000    -0.6612238   -0.1304653     0.1725231   -0.7387967     0.1566844   -0.7342888    -0.6224757   -0.1915540 
   5.552500000    -0.6608859   -0.1281990     0.1744000   -0.7372338     0.1585026   -0.7331494    -0.6235924   -0.1903424 
   5.555000000    -0.6608925   -0.1264047     0.1767358   -0.7361559     0.1604105   -0.7318070    -0.6242256   -0.1888877 
   5.557500000    -0.6599539   -0.1237039     0.1783242   -0.7346276     0.1627532   -0.7303496    -0.6243513   -0.1867260 
   5.560000000    -0.6573700   -0.1212200     0.1798370   -0.7331405     0.1641964   -0.7292507    -0.6247815   -0.1847247 
   5.562500000    -0.6546146   -0.1181353     0.1803513   -0.7319720     0.1657560   -0.7277973    -0.6261342   -0.1821904 
   5.565000000    -0.6539810   -0.1153222     0.1817913   -0.7305280     0.1669215   -0.7264621    -0.6263697   -0.1796997 
   5.567500000    -0.6538132   -0.1140485     0.1830867   -0.7293840     0.1683714   -0.7249244    -0.6269711   -0.1766954 
   5.570000000    -0.6529276   -0.1117278     0.1847608   -0.7281718     0.1698126   -0.7238198    -0.6265918   -0.1736902 
   5.572500000    -0.6515601   -0.1086503     0.1855661   -0.7265850     0.1711846   -0.7221336    -0.6266922   -0.1707102 
   5.575000000    -0.6511163   -0.1046762     0.1867618   -0.7259592     0.1721471   -0.7210879    -0.6268075   -0.1675040 
   5.577500000    -0.6504621   -0.1016079     0.1872985   -0.7241697     0.1729663   -0.7201025    -0.6265401   -0.1640192 
   5.580000000    -0.6494809   -0.0984556     0.1880967   -0.7233326     0.1735819   -0.7189573    -0.6265997   -0.1602262 
   5.582500000    -0.6485214   -0.0950792     0.1895241   -0.7221709     0.1745278   -0.7179657    -0.6265772   -0.1569034 
   5.585000000    -0.6479864   -0.0913918     0.1903819   -0.7211480     0.1758106   -0.7166032    -0.6265376   -0.1529997 
   5.587500000    -0.6478627   -0.0875232     0.1920228   -0.7204869     0.1768776   -0.7158701    -0.6260201   -0.1497776 
   5.590000000    -0.6477657   -0.0839600     0.1921924   -0.7194746     0.1778093   -0.7146641    -0.6257411   -0.1449266 
   5.592500000    -0.6478087   -0.0805611     0.1936260   -0.7182513     0.1785011   -0.7134354    -0.6248401   -0.1415584 
   5.595000000    -0.6478853   -0.0771347     0.1948190   -0.7174267     0.1798180   -0.7119749    -0.6242625   -0.1377107 
   5.597500000    -0.6481408   -0.0735794     0.1959905   -0.7162473     0.1805946   -0.7107622    -0.6237764   -0.1346671 
   5.600000000    -0.6486186   -0.0702396     0.1978383   -0.7148755     0.1820825   -0.7094684    -0.6236448   -0.1312558 
   5.602500000    -0.6496229   -0.0664651     0.1979860   -0.7141438     0.1833643   -0.7079884    -0.6231470   -0.1272052 
   5.605000000    -0.6502597   -0.0632710     0.1994452   -0.7135419     0.1843988   -0.7066545    -0.6230662   -0.1239296 
   5.607500000    -0.6508827   -0.0599330     0.2003301   -0.7127604     0.1851715   -0.7053713    -0.6230538   -0.1208832 
   5.610000000    -0.6516956   -0.0568852     0.2017043   -0.7117131     0.1859720   -0.7036638    -0.6225354   -0.1178499 
   5.612500000    -0.6525959   -0.0537770     0.2024743   -0.7107348     0.1875838   -0.7021543    -0.6231375   -0.1153286 
   5.615000000    -0.6539075   -0.0506953     0.2029771   -0.7102864     0.1884025   -0.7010673    -0.6233029   -0.1130169 
   5.617500000    -0.6543874   -0.0475463     0.2033555   -0.7095493     0.1893077   -0.7001812    -0.6238229   -0.1107800 
   5.620000000    -0.6554742   -0.0450467     0.2045136   -0.7091762     0.1899271   -0.6988851    -0.6243537   -0.1084905 
   5.622500000    -0.6563672   -0.0420293     0.2048642   -0.7088513     0.1910492   -0.6980244    -0.6246116   -0.1066083 
   5.625000000    -0.6572266   -0.0393802     0.2058056   -0.7085976     0.1916357   -0.6967606    -0.6247848   -0.1044457 
   5.627500000    -0.6580299   -0.0369130     0.2076057   -0.7079183     0.1930279   -0.6958935    -0.6254615   -0.1035720 
   5.630000000    -0.6585850   -0.0346643     0.2079670   -0.7085943     0.1946599   -0.6952936    -0.6258902   -0.1026594 
   5.632500000    -0.6589560   -0.0326785     0.2080355   -0.7089941     0.1953833   -0.6948516    -0.6266840   -0.1018807 
   5.635000000    -0.6592298   -0.0305095     0.2093092   -0.7090191     0.1968331   -0.6942447    -0.6276042   -0.1002911 
   5.637500000    -0.6594247   -0.0284726     0.2100904   -0.7097324     0.1973416   -0.6939391    -0.6277845   -0.0998950 
   5.640000000    -0.6597672   -0.0265641     0.2114650   -0.7098687     0.1989232   -0.6934840    -0.6288861   -0.0997473 
   5.642500000    -0.6595582   -0.0252855     0.2125961   -0.7104957     0.2003091   -0.6937389    -0.6301065   -0.1003477 
   5.645000000    -0.6591799   -0.0236564     0.2130429   -0.7115443     0.2015055   -0.6944167    -0.6315044   -0.1010814 
   5.647500000    -0.6587852   -0.0223473     0.2138928   -0.7124966     0.2030104   -0.6951526    -0.6328728   -0.1015583 
   5.650000000    -0.6577830   -0.0210648     0.2149263   -0.7132072     0.2043136   -0.6957796    -0.6343163   -0.1020008 
   5.652500000    -0.6572564   -0.0194635     0.2157746   -0.7141947     0.2055368   -0.6963911    -0.6352360   -0.1031741 
   5.655000000    -0.6563199   -0.0187070     0.2174876   -0.7154042     0.2068651   -0.6973349    -0.6363846   -0.1049147 
   5.657500000    -0.6552978   -0.0178178     0.2188176   -0.7159889     0.2089656   -0.6977334    -0.6368102   -0.1065169 
   5.660000000    -0.6532169   -0.0172343     0.2185991   -0.7178442     0.2104778   -0.6987928    -0.6379882   -0.1075402 
   5.662500000    -0.6512391   -0.0167672     0.2199297   -0.7190168     0.2121220   -0.6995574    -0.6382102   -0.1095269 
   5.665000000    -0.6491022   -0.0165774     0.2210851   -0.7203574     0.2136942   -0.7002160    -0.6375126   -0.1108255 
   5.667500000    -0.6477943   -0.0159623     0.2220923   -0.7223557     0.2153104   -0.7011427    -0.6374569   -0.1123403 
   5.670000000    -0.6452898   -0.0152014     0.2226731   -0.7247250     0.2172192   -0.7017965    -0.6376069   -0.1148026 
   5.672500000    -0.6429750   -0.0148734     0.2238599   -0.7267058     0.2184822   -0.7031209    -0.6375855   -0.1165519 
   5.675000000    -0.6397670   -0.0140897     0.2244194   -0.7290018     0.2205769   -0.7046037    -0.6368476   -0.1181255 
   5.677500000    -0.6365469   -0.0135857     0.2249575   -0.7315411     0.2219169   -0.7064587    -0.6366541   -0.1193734 
   5.680000000    -0.6332053   -0.0127621     0.2262525   -0.7339047     0.2234148   -0.7079831    -0.6357348   -0.1213227 
   5.682500000    -0.6305122   -0.0115823     0.2264419   -0.7370397     0.2243509   -0.7101609    -0.6348726   -0.1231867 
   5.685000000    -0.6266019   -0.0102671     0.2274165   -0.7396282     0.2262176   -0.7121280    -0.6341906   -0.1249345 
   5.687500000    -0.6227623   -0.0085193     0.2276985   -0.7431129     0.2280418   -0.7142722    -0.6320943   -0.1263703 
   5.690000000    -0.6187550   -0.0074074     0.2282017   -0.7460122     0.2293148   -0.7164782    -0.6294566   -0.1272388 
   5.692500000    -0.6147925   -0.0061223     0.2290884   -0.7500210     0.2308967   -0.7190546    -0.6275934   -0.1279723 
   5.695000000    -0.6106747   -0.0050019     0.2298122   -0.7532640     0.2324424   -0.7220424    -0.6248205   -0.1292708 
   5.697500000    -0.6069068   -0.0034875     0.2308607   -0.7562008     0.2339237   -0.7252007    -0.6225538   -0.1297557 
   5.700000000    -0.6031708   -0.0022382     0.2311991   -0.7593423     0.2351764   -0.7283084    -0.6194894   -0.1303292 
   5.702500000    -0.5990232   -0.0012609     0.2314480   -0.7622578     0.2369980   -0.7316036    -0.6163366   -0.1306165 
   5.705000000    -0.5946435    0.0008932     0.2309349   -0.7662264     0.2387969   -0.7354694    -0.6131591   -0.1299513 
   5.707500000    -0.5904037    0.0027379     0.2319116   -0.7688485     0.2400071   -0.7390578    -0.6087952   -0.1293888 
   5.710000000    -0.5861167    0.0043960     0.2320921   -0.7716255     0.2413455   -0.7421147    -0.6049289   -0.1281307 
   5.712500000    -0.5815362    0.0066470     0.2324359   -0.7738439     0.2425454   -0.7452704    -0.6013179   -0.1268495 
   5.715000000    -0.5771205    0.0091777     0.2324751   -0.7761398     0.2442888   -0.7487018    -0.5978612   -0.1249608 
   5.717500000    -0.5732209    0.0112864     0.2320003   -0.7796391     0.2447544   -0.7522128    -0.5944077   -0.1237119 
   5.720000000    -0.5687988    0.0133370     0.2316296   -0.7806779     0.2463388   -0.7552757    -0.5905675   -0.1205756 
   5.722500000    -0.5648867    0.0156382     0.2315614   -0.7835652     0.2467883   -0.7582121    -0.5865452   -0.1174638 
   5.725000000    -0.5606939    0.0182578     0.2312213   -0.7841966     0.2478572   -0.7608781    -0.5831781   -0.1145324 
   5.727500000    -0.5571170    0.0206270     0.2310011   -0.7858441     0.2478395   -0.7639126    -0.5789518   -0.1111219 
   5.730000000    -0.5538574    0.0229819     0.2304256   -0.7885023     0.2485037   -0.7660962    -0.5746536   -0.1080380 
   5.732500000    -0.5506811    0.0257620     0.2309297   -0.7904155     0.2485062   -0.7692301    -0.5712791   -0.1036847 
   5.735000000    -0.5484277    0.0285914     0.2300883   -0.7922175     0.2482615   -0.7721483    -0.5673957   -0.0999240 
   5.737500000    -0.5458227    0.0308185     0.2303534   -0.7936786     0.2488772   -0.7748076    -0.5626953   -0.0964425 
   5.740000000    -0.5435083    0.0332786     0.2307682   -0.7953672     0.2489634   -0.7775089    -0.5582440   -0.0922961 
   5.742500000    -0.5415863    0.0358364     0.2313368   -0.7979068     0.2482995   -0.7803039    -0.5536485   -0.0877433 
   5.745000000    -0.5397145    0.0385289     0.2325951   -0.7996406     0.2484326   -0.7830446    -0.5492722   -0.0836494 
   5.747500000    -0.5382211    0.0408295     0.2324449   -0.8017956     0.2482358   -0.7854800    -0.5459301   -0.0794725 
   5.750000000    -0.5371417    0.0438325     0.2329416   -0.8035435     0.2481475   -0.7881468    -0.5421605   -0.0745374 
   5.752500000    -0.5356505    0.0457005     0.2340688   -0.8056389     0.2480562   -0.7906466    -0.5381293   -0.0707640 
   5.755000000    -0.5345975    0.0477130     0.2353020   -0.8080407     0.2479061   -0.7931262    -0.5342814   -0.0672696 
   5.757500000    -0.5334654    0.0494172     0.2363007   -0.8106188     0.2490507   -0.7953278    -0.5304000   -0.0630735 
   5.760000000    -0.5329092    0.0515279     0.2370238   -0.8126870     0.2494467   -0.7981118    -0.5280422   -0.0593193 
   5.762500000    -0.5318674    0.0532395     0.2374984   -0.8148145     0.2501064   -0.8005241    -0.5248747   -0.0561091 
   5.765000000    -0.5313771    0.0548302     0.2384909   -0.8170490     0.2505165   -0.8030073    -0.5216265   -0.0533018 
   5.767500000    -0.5307341    0.0560588     0.2392279   -0.8199176     0.2515504   -0.8048548    -0.5193465   -0.0502880 
   5.770000000    -0.5307409    0.0575327     0.2392697   -0.8224683     0.2515914   -0.8074930    -0.5166619   -0.0475579 
   5.772500000    -0.5302198    0.0583564     0.2395657   -0.8249440     0.2519500   -0.8098714    -0.5139667   -0.0449789 
   5.775000000    -0.5295567    0.0591514     0.2391130   -0.8270442     0.2519821   -0.8115453    -0.5116178   -0.0428860 
   5.777500000    -0.5289816    0.0599307     0.2393873   -0.8291119     0.2519184   -0.8143419    -0.5102901   -0.0405645 
   5.780000000    -0.5286968    0.0606444     0.2385087   -0.8316038     0.2515680   -0.8164834    -0.5091811   -0.0387965 
   5.782500000    -0.5286597    0.0609039     0.2379582   -0.8347939     0.2507591   -0.8184444    -0.5078259   -0.0379137 
   5.785000000    -0.5282327    0.0609395     0.2368433   -0.8374249     0.2501866   -0.8204771    -0.5065745   -0.0370282 
   5.787500000    -0.5274616    0.0607977     0.2351540   -0.8395834     0.2503514   -0.8226699    -0.5055316   -0.0364869 
   5.790000000    -0.5265348    0.0599281     0.2348128   -0.8418590     0.2497375   -0.8245742    -0.5043657   -0.0364019 
   5.792500000    -0.5255333    0.0590965     0.2335808   -0.8440874     0.2486903   -0.8269706    -0.5034487   -0.0361220 
   5.795000000    -0.5246995    0.0586883     0.2330279   -0.8462788     0.2479191   -0.8291548    -0.5026439   -0.0361236 
   5.797500000    -0.5234163    0.0583424     0.2314956   -0.8499328     0.2464807   -0.8313457    -0.5024415   -0.0370085 
   5.800000000    -0.5217797    0.0566289     0.2297124   -0.8514518     0.2458226   -0.8331740    -0.5017583   -0.0380225 
   5.802500000    -0.5202019    0.0551302     0.2288098   -0.8534840     0.2455517   -0.8347260    -0.5014737   -0.0395213 
   5.805000000    -0.5183041    0.0531142     0.2280767   -0.8555512     0.2450733   -0.8364952    -0.5007555   -0.0410712 
   5.807500000    -0.5156890    0.0514392     0.2270558   -0.8571991     0.2442661   -0.8382325    -0.5008598   -0.0427583 
   5.810000000    -0.5131304    0.0500125     0.2255258   -0.8583784     0.2440052   -0.8397798    -0.4999660   -0.0445963 
   5.812500000    -0.5098911    0.0485865     0.2245785   -0.8606371     0.2437581   -0.8412095    -0.4987459   -0.0470655 
   5.815000000    -0.5067928    0.0468429     0.2237824   -0.8617460     0.2435543   -0.8424428    -0.4976655   -0.0482923 
   5.817500000    -0.5036612    0.0441306     0.2216177   -0.8619719     0.2432472   -0.8431746    -0.4961049   -0.0497011 
   5.820000000    -0.4998949    0.0413984     0.2199275   -0.8631437     0.2425994   -0.8439687    -0.4950341   -0.0513622 
   5.822500000    -0.4958473    0.0391373     0.2191674   -0.8634418     0.2421229   -0.8449805    -0.4942299   -0.0538984 
   5.825000000    -0.4913073    0.0369679     0.2175545   -0.8636117     0.2414839   -0.8458192    -0.4939747   -0.0560795 
   5.827500000    -0.4873265    0.0344652     0.2156130   -0.8653116     0.2400400   -0.8467671    -0.4927951   -0.0588320 
   5.830000000    -0.4825912    0.0323949     0.2146660   -0.8648791     0.2407503   -0.8470689    -0.4910344   -0.0599810 
   5.832500000    -0.4778366    0.0295098     0.2116985   -0.8647622     0.2391447   -0.8480179    -0.4892028   -0.0619968 
   5.835000000    -0.4731348    0.0264849     0.2110800   -0.8642424     0.2378735   -0.8492585    -0.4871814   -0.0638367 
   5.837500000    -0.4688234    0.0232313     0.2088357   -0.8642681     0.2377824   -0.8497486    -0.4851634   -0.0651100 
   5.840000000    -0.4643322    0.0201536     0.2079687   -0.8645296     0.2374894   -0.8502025    -0.4826744   -0.0662689 
   5.842500000    -0.4600996    0.0175089     0.2061201   -0.8646547     0.2355449   -0.8518552    -0.4805641   -0.0678722 
   5.845000000    -0.4557247    0.0145801     0.2051444   -0.8643022     0.2351679   -0.8526964    -0.4782192   -0.0684878 
   5.847500000    -0.4522750    0.0115458     0.2025261   -0.8648708     0.2341946   -0.8549015    -0.4760338   -0.0695465 
   5.850000000    -0.4482883    0.0085665     0.2021341   -0.8643835     0.2355767   -0.8552591    -0.4726469   -0.0705203 
   5.852500000    -0.4449502    0.0057961     0.2015098   -0.8651106     0.2340446   -0.8573706    -0.4696891   -0.0711748 
   5.855000000    -0.4417925    0.0032040     0.2006493   -0.8658419     0.2347270   -0.8584556    -0.4661012   -0.0717908 
   5.857500000    -0.4392840    0.0003135     0.2004873   -0.8660852     0.2313134   -0.8607329    -0.4631727   -0.0712861 
   5.860000000    -0.4365909   -0.0019805     0.1988432   -0.8675024     0.2310868   -0.8622314    -0.4594971   -0.0717399 
   5.862500000    -0.4342913   -0.0041951     0.1977436   -0.8678564     0.2305119   -0.8644158    -0.4557737   -0.0716353 
   5.865000000    -0.4326349   -0.0063386     0.1983362   -0.8691770     0.2299074   -0.8662680    -0.4504898   -0.0720292 
   5.867500000    -0.4311682   -0.0083738     0.1966262   -0.8704500     0.2293821   -0.8679845    -0.4456409   -0.0721318 
   5.870000000    -0.4296302   -0.0106417     0.1977021   -0.8712486     0.2303376   -0.8694686    -0.4406848   -0.0729661 
   5.872500000    -0.4286612   -0.0119725     0.1957559   -0.8727800     0.2281087   -0.8720977    -0.4370643   -0.0721429 
   5.875000000    -0.4279895   -0.0131556     0.1967410   -0.8736394     0.2269724   -0.8740892    -0.4328435   -0.0725408 
   5.877500000    -0.4277624   -0.0141733     0.1943863   -0.8756526     0.2258334   -0.8766804    -0.4291162   -0.0720392 
   5.880000000    -0.4278477   -0.0143668     0.1937372   -0.8769150     0.2237583   -0.8787229    -0.4254874   -0.0724212 
   5.882500000    -0.4277973   -0.0148290     0.1906859   -0.8783514     0.2221539   -0.8812863    -0.4217995   -0.0725279 
   5.885000000    -0.4281254   -0.0153946     0.1880643   -0.8802276     0.2202834   -0.8843888    -0.4184559   -0.0726034 
   5.887500000    -0.4288879   -0.0160541     0.1861232   -0.8813835     0.2176941   -0.8872352    -0.4154464   -0.0733815 
