! MS46122B
! 1919307/90821646
! 7/29/2022 12:37:15 PM
! C:\USERS\PC_\DESKTOP\MEDICIONES\BANCHA ESTRECHA\55_6GHZ\S11_S21_ABS44_1002CL.S2P
! CHANNEL.1
! TR.MEASUREMENT
! CORRECTED.DATA
# GHZ S RI R 50.0
! FREQ.GHZ         S11RE         S11IM         S21RE         S21IM         S12RE         S12IM         S22RE         S22IM         
!; PortSelection: Port_12
   5.500000000    -0.8055426    0.0182520    -0.0540891   -0.5965058    -0.0481843   -0.5965538    -0.7323331   -0.0522178 
   5.502500000    -0.8043181    0.0195432    -0.0544664   -0.5973883    -0.0472795   -0.5950752    -0.7333679   -0.0519358 
   5.505000000    -0.8049583    0.0211292    -0.0527981   -0.5967953    -0.0453972   -0.5935770    -0.7345178   -0.0508702 
   5.507500000    -0.8054189    0.0224366    -0.0511992   -0.5957315    -0.0440067   -0.5925757    -0.7361676   -0.0498057 
   5.510000000    -0.8055124    0.0238291    -0.0494773   -0.5949101    -0.0423949   -0.5914713    -0.7375909   -0.0488091 
   5.512500000    -0.8061802    0.0250012    -0.0478323   -0.5941820    -0.0413297   -0.5904101    -0.7396856   -0.0473993 
   5.515000000    -0.8068876    0.0263080    -0.0468257   -0.5933494    -0.0400165   -0.5894834    -0.7417229   -0.0447648 
   5.517500000    -0.8070822    0.0278243    -0.0461772   -0.5926685    -0.0384846   -0.5885728    -0.7437617   -0.0433420 
   5.520000000    -0.8077156    0.0296216    -0.0443288   -0.5918826    -0.0372205   -0.5882189    -0.7460185   -0.0409687 
   5.522500000    -0.8075597    0.0313038    -0.0424173   -0.5916246    -0.0349468   -0.5879123    -0.7479831   -0.0392595 
   5.525000000    -0.8078824    0.0333178    -0.0413477   -0.5911071    -0.0346659   -0.5872481    -0.7500492   -0.0361307 
   5.527500000    -0.8079038    0.0347609    -0.0402644   -0.5904841    -0.0315840   -0.5867686    -0.7515870   -0.0338249 
   5.530000000    -0.8080612    0.0367656    -0.0389843   -0.5898584    -0.0310872   -0.5868189    -0.7537013   -0.0309572 
   5.532500000    -0.8082212    0.0384755    -0.0378031   -0.5899374    -0.0296001   -0.5859848    -0.7554541   -0.0283301 
   5.535000000    -0.8080715    0.0400432    -0.0362645   -0.5893238    -0.0279784   -0.5857570    -0.7574629   -0.0252564 
   5.537500000    -0.8081679    0.0419372    -0.0344037   -0.5888712    -0.0263081   -0.5854264    -0.7591934   -0.0224771 
   5.540000000    -0.8083478    0.0438568    -0.0327598   -0.5888220    -0.0239743   -0.5851277    -0.7613371   -0.0194846 
   5.542500000    -0.8080658    0.0455436    -0.0310090   -0.5886288    -0.0223894   -0.5849876    -0.7629045   -0.0168585 
   5.545000000    -0.8076799    0.0466580    -0.0304658   -0.5884609    -0.0205047   -0.5850870    -0.7649295   -0.0142433 
   5.547500000    -0.8070869    0.0481320    -0.0289849   -0.5882069    -0.0189178   -0.5852196    -0.7662262   -0.0115788 
   5.550000000    -0.8063040    0.0497629    -0.0272567   -0.5879129    -0.0172502   -0.5850040    -0.7672148   -0.0090465 
   5.552500000    -0.8066001    0.0504933    -0.0258899   -0.5877554    -0.0156406   -0.5849585    -0.7681212   -0.0054616 
   5.555000000    -0.8074345    0.0518737    -0.0237633   -0.5874215    -0.0136141   -0.5848868    -0.7693650   -0.0030157 
   5.557500000    -0.8076606    0.0528527    -0.0228807   -0.5872806    -0.0120958   -0.5850858    -0.7696487   -0.0001038 
   5.560000000    -0.8062600    0.0541744    -0.0216806   -0.5868552    -0.0105909   -0.5850669    -0.7707269    0.0028091 
   5.562500000    -0.8041426    0.0555283    -0.0202353   -0.5866646    -0.0092196   -0.5849110    -0.7723691    0.0053792 
   5.565000000    -0.8045151    0.0571731    -0.0191750   -0.5865158    -0.0075060   -0.5851792    -0.7732483    0.0077238 
   5.567500000    -0.8049194    0.0565103    -0.0178096   -0.5865499    -0.0057003   -0.5848777    -0.7738614    0.0101741 
   5.570000000    -0.8042968    0.0562408    -0.0167135   -0.5866506    -0.0044324   -0.5853265    -0.7746206    0.0130032 
   5.572500000    -0.8038368    0.0577061    -0.0154055   -0.5865372    -0.0030844   -0.5857522    -0.7757377    0.0153492 
   5.575000000    -0.8038641    0.0587175    -0.0136296   -0.5866944    -0.0015961   -0.5857852    -0.7759503    0.0173718 
   5.577500000    -0.8038407    0.0597642    -0.0124829   -0.5867246    -0.0005790   -0.5862660    -0.7770502    0.0194915 
   5.580000000    -0.8035922    0.0604393    -0.0112981   -0.5873847     0.0007244   -0.5865785    -0.7777274    0.0215292 
   5.582500000    -0.8028662    0.0608832    -0.0097364   -0.5875446     0.0020366   -0.5873247    -0.7780406    0.0233371 
   5.585000000    -0.8028639    0.0614799    -0.0091332   -0.5882424     0.0036483   -0.5879490    -0.7787103    0.0250488 
   5.587500000    -0.8024684    0.0623989    -0.0073360   -0.5886701     0.0047348   -0.5885556    -0.7793417    0.0264428 
   5.590000000    -0.8021992    0.0628611    -0.0052952   -0.5891195     0.0060515   -0.5891410    -0.7795539    0.0281957 
   5.592500000    -0.8018098    0.0636039    -0.0041574   -0.5894486     0.0079224   -0.5896378    -0.7794864    0.0297629 
   5.595000000    -0.8019233    0.0640386    -0.0018839   -0.5899428     0.0097695   -0.5901521    -0.7794480    0.0312110 
   5.597500000    -0.8012919    0.0651610    -0.0003008   -0.5903923     0.0109739   -0.5904971    -0.7797458    0.0325760 
   5.600000000    -0.8011467    0.0656171     0.0005025   -0.5907899     0.0129972   -0.5917113    -0.7791547    0.0332084 
   5.602500000    -0.8009201    0.0661601     0.0024452   -0.5913456     0.0140595   -0.5918840    -0.7792321    0.0343161 
   5.605000000    -0.8004038    0.0664909     0.0045767   -0.5918703     0.0157890   -0.5925679    -0.7796692    0.0359080 
   5.607500000    -0.7997150    0.0675136     0.0059778   -0.5921940     0.0172176   -0.5933075    -0.7796755    0.0362686 
   5.610000000    -0.7994888    0.0687279     0.0076147   -0.5929444     0.0187256   -0.5938045    -0.7793133    0.0377213 
   5.612500000    -0.7990270    0.0696334     0.0091946   -0.5935782     0.0204826   -0.5943632    -0.7795371    0.0383315 
   5.615000000    -0.7992101    0.0702531     0.0098534   -0.5948420     0.0214849   -0.5951138    -0.7797237    0.0388505 
   5.617500000    -0.7982171    0.0717407     0.0115430   -0.5954400     0.0226325   -0.5959929    -0.7799644    0.0401269 
   5.620000000    -0.7970796    0.0729766     0.0124965   -0.5960874     0.0238140   -0.5968179    -0.7793683    0.0415158 
   5.622500000    -0.7969431    0.0745814     0.0135491   -0.5971497     0.0260729   -0.5974828    -0.7781992    0.0434349 
   5.625000000    -0.7961521    0.0763707     0.0164023   -0.5981880     0.0259222   -0.5985258    -0.7779273    0.0446466 
   5.627500000    -0.7954354    0.0775010     0.0168779   -0.5991648     0.0277372   -0.5990415    -0.7774590    0.0453174 
   5.630000000    -0.7948091    0.0788574     0.0180195   -0.6009085     0.0291468   -0.6003825    -0.7778830    0.0472549 
   5.632500000    -0.7936282    0.0808823     0.0191754   -0.6020518     0.0300281   -0.6014169    -0.7774081    0.0487788 
   5.635000000    -0.7925717    0.0831594     0.0209433   -0.6032605     0.0315435   -0.6028292    -0.7769077    0.0506188 
   5.637500000    -0.7921067    0.0853532     0.0220645   -0.6047241     0.0326424   -0.6046350    -0.7770513    0.0521208 
   5.640000000    -0.7912941    0.0874808     0.0239086   -0.6064470     0.0338563   -0.6058115    -0.7769877    0.0537414 
   5.642500000    -0.7905920    0.0891385     0.0241842   -0.6080817     0.0351750   -0.6070076    -0.7776245    0.0557381 
   5.645000000    -0.7895055    0.0913002     0.0257600   -0.6094967     0.0360395   -0.6088651    -0.7777627    0.0573568 
   5.647500000    -0.7888101    0.0935117     0.0272403   -0.6112373     0.0369846   -0.6104046    -0.7774293    0.0595119 
   5.650000000    -0.7881706    0.0960399     0.0282887   -0.6127170     0.0382350   -0.6125426    -0.7768856    0.0619446 
   5.652500000    -0.7870046    0.0990792     0.0299103   -0.6143484     0.0396502   -0.6146293    -0.7770983    0.0644460 
   5.655000000    -0.7861837    0.1008042     0.0306976   -0.6160013     0.0407181   -0.6163085    -0.7779238    0.0663787 
   5.657500000    -0.7852296    0.1026861     0.0316267   -0.6180523     0.0423641   -0.6180285    -0.7783747    0.0684825 
   5.660000000    -0.7838681    0.1042344     0.0327964   -0.6195705     0.0429942   -0.6198298    -0.7786447    0.0707454 
   5.662500000    -0.7830614    0.1067433     0.0340954   -0.6211137     0.0435864   -0.6220586    -0.7791151    0.0731225 
   5.665000000    -0.7817326    0.1084857     0.0351832   -0.6227057     0.0450119   -0.6238446    -0.7795130    0.0746781 
   5.667500000    -0.7802048    0.1102160     0.0359050   -0.6247637     0.0461484   -0.6257771    -0.7805171    0.0770930 
   5.670000000    -0.7788763    0.1116823     0.0363603   -0.6270036     0.0475163   -0.6274777    -0.7808676    0.0786875 
   5.672500000    -0.7776774    0.1132647     0.0372879   -0.6286860     0.0484564   -0.6295509    -0.7812030    0.0807346 
   5.675000000    -0.7757842    0.1150228     0.0375665   -0.6311322     0.0483919   -0.6314880    -0.7814772    0.0832499 
   5.677500000    -0.7744848    0.1167809     0.0379065   -0.6329231     0.0488883   -0.6335738    -0.7817345    0.0857045 
   5.680000000    -0.7730676    0.1188705     0.0386399   -0.6349693     0.0489546   -0.6357610    -0.7820089    0.0875371 
   5.682500000    -0.7715381    0.1204999     0.0388244   -0.6373907     0.0491051   -0.6380625    -0.7821413    0.0900750 
   5.685000000    -0.7696382    0.1229986     0.0378058   -0.6395554     0.0498078   -0.6402411    -0.7829557    0.0914745 
   5.687500000    -0.7679423    0.1245749     0.0384841   -0.6419203     0.0499869   -0.6425062    -0.7829074    0.0932456 
   5.690000000    -0.7664489    0.1261672     0.0386929   -0.6443165     0.0497972   -0.6450239    -0.7818134    0.0955039 
   5.692500000    -0.7646822    0.1273301     0.0392842   -0.6464009     0.0489263   -0.6471300    -0.7819651    0.0976844 
   5.695000000    -0.7632984    0.1286940     0.0396727   -0.6488702     0.0490905   -0.6495731    -0.7815104    0.0988404 
   5.697500000    -0.7618111    0.1295360     0.0400279   -0.6510182     0.0491553   -0.6523550    -0.7813487    0.0999194 
   5.700000000    -0.7604870    0.1300406     0.0390362   -0.6535390     0.0488640   -0.6547996    -0.7804790    0.1019739 
   5.702500000    -0.7587625    0.1305814     0.0394069   -0.6556670     0.0488083   -0.6571733    -0.7802750    0.1035089 
   5.705000000    -0.7568917    0.1314988     0.0393464   -0.6576607     0.0481937   -0.6602246    -0.7789299    0.1053306 
   5.707500000    -0.7548870    0.1318072     0.0386999   -0.6595303     0.0474099   -0.6625850    -0.7774655    0.1065053 
   5.710000000    -0.7535624    0.1322726     0.0392393   -0.6613702     0.0469839   -0.6644940    -0.7760034    0.1079476 
   5.712500000    -0.7519821    0.1326901     0.0389789   -0.6632734     0.0470758   -0.6666669    -0.7742091    0.1093717 
   5.715000000    -0.7501481    0.1330231     0.0380790   -0.6652825     0.0465476   -0.6688437    -0.7728753    0.1111000 
   5.717500000    -0.7480349    0.1336344     0.0378950   -0.6670365     0.0459879   -0.6710919    -0.7711347    0.1123216 
   5.720000000    -0.7460947    0.1336969     0.0370968   -0.6692229     0.0467574   -0.6733184    -0.7693906    0.1136241 
   5.722500000    -0.7441227    0.1333141     0.0378826   -0.6708416     0.0445005   -0.6748680    -0.7682036    0.1145515 
   5.725000000    -0.7415290    0.1331734     0.0369144   -0.6720468     0.0444349   -0.6761254    -0.7665357    0.1156463 
   5.727500000    -0.7393059    0.1332861     0.0361254   -0.6733764     0.0436267   -0.6775976    -0.7637916    0.1168011 
   5.730000000    -0.7375927    0.1334980     0.0347447   -0.6758186     0.0434919   -0.6791074    -0.7618221    0.1170358 
   5.732500000    -0.7353538    0.1331741     0.0347461   -0.6777657     0.0426898   -0.6811922    -0.7590935    0.1177394 
   5.735000000    -0.7334614    0.1334346     0.0338427   -0.6798732     0.0414721   -0.6831709    -0.7563271    0.1184355 
   5.737500000    -0.7315260    0.1330041     0.0335295   -0.6814612     0.0407639   -0.6850548    -0.7535862    0.1187850 
   5.740000000    -0.7297571    0.1331535     0.0326687   -0.6837174     0.0397972   -0.6867505    -0.7506774    0.1194328 
   5.742500000    -0.7280017    0.1331212     0.0318399   -0.6856576     0.0392972   -0.6883644    -0.7473737    0.1194956 
   5.745000000    -0.7261382    0.1327449     0.0317117   -0.6879886     0.0377957   -0.6905849    -0.7438691    0.1199218 
   5.747500000    -0.7243414    0.1328201     0.0309537   -0.6899149     0.0367958   -0.6924734    -0.7415127    0.1201946 
   5.750000000    -0.7224767    0.1329181     0.0309105   -0.6919147     0.0362954   -0.6942855    -0.7384797    0.1215303 
   5.752500000    -0.7207597    0.1333993     0.0300841   -0.6946439     0.0352819   -0.6963022    -0.7350847    0.1212135 
   5.755000000    -0.7186606    0.1331726     0.0291905   -0.6962454     0.0341574   -0.6980917    -0.7317687    0.1211334 
   5.757500000    -0.7165861    0.1326600     0.0287371   -0.6983517     0.0346046   -0.7000803    -0.7287746    0.1207392 
   5.760000000    -0.7146124    0.1326459     0.0287989   -0.7003242     0.0336798   -0.7026082    -0.7260768    0.1216669 
   5.762500000    -0.7127973    0.1326890     0.0284803   -0.7024066     0.0334172   -0.7047319    -0.7233211    0.1211077 
   5.765000000    -0.7109869    0.1331897     0.0276989   -0.7047096     0.0327752   -0.7066942    -0.7202540    0.1207770 
   5.767500000    -0.7086084    0.1331810     0.0258885   -0.7066680     0.0324736   -0.7084506    -0.7173977    0.1203472 
   5.770000000    -0.7068279    0.1336835     0.0263133   -0.7086511     0.0307677   -0.7109006    -0.7148173    0.1195074 
   5.772500000    -0.7048764    0.1334845     0.0237184   -0.7107440     0.0322553   -0.7123240    -0.7123303    0.1194250 
   5.775000000    -0.7024033    0.1344307     0.0231187   -0.7126445     0.0299843   -0.7146209    -0.7097186    0.1196272 
   5.777500000    -0.7007884    0.1351667     0.0225154   -0.7141453     0.0285246   -0.7168805    -0.7078516    0.1196744 
   5.780000000    -0.6987929    0.1357504     0.0200239   -0.7161626     0.0266869   -0.7189472    -0.7059337    0.1193894 
   5.782500000    -0.6972261    0.1362241     0.0182343   -0.7188923     0.0250353   -0.7207611    -0.7041698    0.1190487 
   5.785000000    -0.6954266    0.1366664     0.0165507   -0.7212661     0.0237416   -0.7229627    -0.7026454    0.1186535 
   5.787500000    -0.6935353    0.1372368     0.0149121   -0.7234671     0.0216004   -0.7252786    -0.7011108    0.1183103 
   5.790000000    -0.6917679    0.1378258     0.0129886   -0.7248515     0.0197705   -0.7276269    -0.6992985    0.1172744 
   5.792500000    -0.6890611    0.1385031     0.0103934   -0.7272559     0.0170916   -0.7297593    -0.6971159    0.1172711 
   5.795000000    -0.6870313    0.1398882     0.0084907   -0.7293130     0.0151106   -0.7318722    -0.6953360    0.1165649 
   5.797500000    -0.6847538    0.1410910     0.0060066   -0.7313715     0.0126709   -0.7338513    -0.6930733    0.1164740 
   5.800000000    -0.6822361    0.1414615     0.0032176   -0.7331726     0.0098147   -0.7362276    -0.6915914    0.1159159 
   5.802500000    -0.6802957    0.1422955     0.0014679   -0.7354144     0.0080565   -0.7378937    -0.6900412    0.1153393 
   5.805000000    -0.6781534    0.1425120    -0.0010239   -0.7371677     0.0062833   -0.7396243    -0.6883526    0.1145856 
   5.807500000    -0.6758357    0.1434792    -0.0027970   -0.7387485     0.0023395   -0.7409217    -0.6861285    0.1131883 
   5.810000000    -0.6732002    0.1437820    -0.0064596   -0.7401965     0.0007591   -0.7421343    -0.6840960    0.1129652 
   5.812500000    -0.6703429    0.1450842    -0.0081296   -0.7410818    -0.0014966   -0.7433068    -0.6818466    0.1116461 
   5.815000000    -0.6674364    0.1456298    -0.0112453   -0.7419092    -0.0046276   -0.7442313    -0.6795803    0.1117561 
   5.817500000    -0.6646535    0.1454005    -0.0137182   -0.7425784    -0.0070215   -0.7452444    -0.6766422    0.1106140 
   5.820000000    -0.6622862    0.1454594    -0.0152011   -0.7432398    -0.0101132   -0.7459313    -0.6743369    0.1105909 
   5.822500000    -0.6589596    0.1457540    -0.0172857   -0.7441623    -0.0137453   -0.7454900    -0.6720188    0.1098576 
   5.825000000    -0.6567129    0.1458280    -0.0220131   -0.7445040    -0.0127243   -0.7456225    -0.6695094    0.1073358 
   5.827500000    -0.6538780    0.1456988    -0.0237255   -0.7442873    -0.0185161   -0.7453701    -0.6671424    0.1067830 
   5.830000000    -0.6504984    0.1457016    -0.0256153   -0.7443500    -0.0207819   -0.7450323    -0.6631987    0.1061740 
   5.832500000    -0.6473182    0.1450811    -0.0279258   -0.7440285    -0.0238617   -0.7447482    -0.6596154    0.1048403 
   5.835000000    -0.6442616    0.1443672    -0.0304846   -0.7430811    -0.0256342   -0.7440680    -0.6556638    0.1033584 
   5.837500000    -0.6414793    0.1436282    -0.0337215   -0.7427727    -0.0278763   -0.7430317    -0.6526999    0.1022907 
   5.840000000    -0.6392161    0.1427929    -0.0352056   -0.7423160    -0.0297711   -0.7420330    -0.6484120    0.1004042 
   5.842500000    -0.6368750    0.1423964    -0.0370199   -0.7414493    -0.0317967   -0.7406664    -0.6438755    0.0983496 
   5.845000000    -0.6347681    0.1413699    -0.0382589   -0.7409014    -0.0333443   -0.7402213    -0.6391789    0.0949850 
   5.847500000    -0.6325917    0.1402869    -0.0390375   -0.7404740    -0.0336078   -0.7395224    -0.6348343    0.0908856 
   5.850000000    -0.6304035    0.1391716    -0.0398973   -0.7408304    -0.0341934   -0.7395266    -0.6314368    0.0851805 
   5.852500000    -0.6281857    0.1385226    -0.0395240   -0.7415798    -0.0338654   -0.7397283    -0.6291539    0.0796492 
   5.855000000    -0.6262318    0.1376703    -0.0399957   -0.7424726    -0.0341807   -0.7410531    -0.6286013    0.0751766 
   5.857500000    -0.6240415    0.1359658    -0.0413933   -0.7439806    -0.0348860   -0.7424052    -0.6285721    0.0709965 
   5.860000000    -0.6220015    0.1340188    -0.0420569   -0.7459251    -0.0360242   -0.7438933    -0.6289589    0.0672449 
   5.862500000    -0.6203481    0.1325068    -0.0445616   -0.7480485    -0.0376651   -0.7458743    -0.6289976    0.0646450 
   5.865000000    -0.6188864    0.1303492    -0.0455592   -0.7497215    -0.0381941   -0.7470479    -0.6282089    0.0624410 
   5.867500000    -0.6177226    0.1281083    -0.0475492   -0.7509099    -0.0402351   -0.7487072    -0.6270597    0.0597255 
   5.870000000    -0.6166857    0.1260986    -0.0496944   -0.7517149    -0.0427516   -0.7502029    -0.6263677    0.0577789 
   5.872500000    -0.6157109    0.1238177    -0.0508319   -0.7535468    -0.0435766   -0.7512028    -0.6250647    0.0560195 
   5.875000000    -0.6150188    0.1220180    -0.0532086   -0.7540256    -0.0452031   -0.7516958    -0.6244438    0.0549871 
   5.877500000    -0.6143960    0.1207168    -0.0553031   -0.7554153    -0.0479152   -0.7533935    -0.6231797    0.0534300 
   5.880000000    -0.6139908    0.1200906    -0.0571996   -0.7564062    -0.0518809   -0.7540780    -0.6221653    0.0528931 
   5.882500000    -0.6137493    0.1184989    -0.0615622   -0.7566230    -0.0520464   -0.7554386    -0.6208115    0.0510081 
   5.885000000    -0.6132905    0.1168141    -0.0620631   -0.7576804    -0.0571976   -0.7561188    -0.6193741    0.0494056 
   5.887500000    -0.6133680    0.1155023    -0.0668537   -0.7588817    -0.0575163   -0.7573960    -0.6177214    0.0474929 
   5.890000000    -0.6137151    0.1147786    -0.0676308   -0.7601663    -0.0636096   -0.7579741    -0.6167377    0.0469359 
