! MS46122B
! 1919307/90821646
! 5/20/2022 12:04:11 PM
! C:\USERS\PC_\DESKTOP\CARACTERIZACION\MEDICIONES\BANCHA ESTRECHA\S11_S21_ABS44_502CL.S2P
! CHANNEL.1
! TR.MEASUREMENT
! CORRECTED.DATA
# GHZ S RI R 50.0
! FREQ.GHZ         S11RE         S11IM         S21RE         S21IM         S12RE         S12IM         S22RE         S22IM         
!; PortSelection: Port_12
   5.000000000    -0.5695943   -0.1511693     0.2792771   -0.7021410     0.2623177   -0.6986553    -0.5635631   -0.2136685 
   5.002500000    -0.5689692   -0.1552252     0.2745674   -0.7022654     0.2629344   -0.6978664    -0.5650184   -0.2127981 
   5.005000000    -0.5683728   -0.1558882     0.2749201   -0.7025076     0.2639100   -0.6973007    -0.5661770   -0.2116715 
   5.007500000    -0.5683470   -0.1563674     0.2755327   -0.7023497     0.2652046   -0.6968352    -0.5668858   -0.2111457 
   5.010000000    -0.5682255   -0.1568856     0.2763840   -0.7029538     0.2664596   -0.6959906    -0.5670612   -0.2110057 
   5.012500000    -0.5682934   -0.1568340     0.2763331   -0.7025142     0.2677171   -0.6952983    -0.5671549   -0.2097156 
   5.015000000    -0.5684204   -0.1575625     0.2772277   -0.7022852     0.2690027   -0.6945308    -0.5675734   -0.2088824 
   5.017500000    -0.5684086   -0.1582058     0.2776515   -0.7020813     0.2696601   -0.6939862    -0.5675814   -0.2081267 
   5.020000000    -0.5686926   -0.1588099     0.2780620   -0.7012625     0.2708759   -0.6932344    -0.5674723   -0.2072411 
   5.022500000    -0.5688614   -0.1592268     0.2788209   -0.7019935     0.2721719   -0.6926103    -0.5674934   -0.2059916 
   5.025000000    -0.5691646   -0.1594570     0.2786117   -0.7013260     0.2734999   -0.6922385    -0.5676342   -0.2055051 
   5.027500000    -0.5696248   -0.1593535     0.2794027   -0.7011269     0.2746385   -0.6914294    -0.5676614   -0.2043440 
   5.030000000    -0.5698957   -0.1593608     0.2798364   -0.7008145     0.2761319   -0.6907408    -0.5674912   -0.2039685 
   5.032500000    -0.5698780   -0.1595748     0.2806147   -0.7005910     0.2772681   -0.6904156    -0.5676760   -0.2032033 
   5.035000000    -0.5700727   -0.1590687     0.2812036   -0.7004088     0.2787384   -0.6900332    -0.5675526   -0.2023143 
   5.037500000    -0.5708623   -0.1589970     0.2811985   -0.7002276     0.2801062   -0.6898693    -0.5680332   -0.2012713 
   5.040000000    -0.5714337   -0.1586121     0.2814231   -0.7006541     0.2813665   -0.6900997    -0.5682645   -0.2006271 
   5.042500000    -0.5723098   -0.1585147     0.2819732   -0.7004180     0.2828240   -0.6897383    -0.5682025   -0.1994088 
   5.045000000    -0.5735090   -0.1579398     0.2821648   -0.7003899     0.2841669   -0.6895859    -0.5685831   -0.1987483 
   5.047500000    -0.5740060   -0.1576890     0.2824280   -0.7007465     0.2853084   -0.6900318    -0.5696967   -0.1981716 
   5.050000000    -0.5743791   -0.1572966     0.2831118   -0.7008022     0.2867852   -0.6897774    -0.5697789   -0.1973409 
   5.052500000    -0.5746732   -0.1566450     0.2833523   -0.7014126     0.2879163   -0.6900105    -0.5704288   -0.1964741 
   5.055000000    -0.5753670   -0.1552679     0.2842924   -0.7013158     0.2891712   -0.6904895    -0.5707344   -0.1957989 
   5.057500000    -0.5764116   -0.1546397     0.2849450   -0.7024910     0.2906111   -0.6906258    -0.5704904   -0.1949534 
   5.060000000    -0.5767164   -0.1539135     0.2861039   -0.7022354     0.2921017   -0.6912183    -0.5711259   -0.1944302 
   5.062500000    -0.5770347   -0.1530620     0.2868921   -0.7027377     0.2929433   -0.6916649    -0.5718597   -0.1930581 
   5.065000000    -0.5774295   -0.1516941     0.2868171   -0.7028046     0.2946518   -0.6923038    -0.5723037   -0.1924966 
   5.067500000    -0.5780490   -0.1501190     0.2873906   -0.7036142     0.2956723   -0.6925532    -0.5729509   -0.1912566 
   5.070000000    -0.5781976   -0.1488128     0.2880572   -0.7038862     0.2964560   -0.6930376    -0.5729039   -0.1904927 
   5.072500000    -0.5781431   -0.1473422     0.2893968   -0.7038070     0.2976792   -0.6933411    -0.5734224   -0.1889971 
   5.075000000    -0.5781645   -0.1460984     0.2898906   -0.7039847     0.2988484   -0.6941233    -0.5737326   -0.1880687 
   5.077500000    -0.5785103   -0.1444783     0.2905256   -0.7036761     0.2997336   -0.6947331    -0.5741395   -0.1866935 
   5.080000000    -0.5783476   -0.1429379     0.2908815   -0.7049397     0.3004709   -0.6950498    -0.5743753   -0.1856926 
   5.082500000    -0.5780574   -0.1413076     0.2902935   -0.7046657     0.3008875   -0.6956097    -0.5750595   -0.1838912 
   5.085000000    -0.5779061   -0.1389391     0.2909632   -0.7049598     0.3015925   -0.6960335    -0.5759338   -0.1825304 
   5.087500000    -0.5772658   -0.1373037     0.2912404   -0.7052006     0.3019474   -0.6968039    -0.5763260   -0.1811561 
   5.090000000    -0.5768474   -0.1356677     0.2921632   -0.7052357     0.3024738   -0.6975635    -0.5768577   -0.1800376 
   5.092500000    -0.5768222   -0.1340177     0.2923287   -0.7062877     0.3031718   -0.6981866    -0.5774030   -0.1784458 
   5.095000000    -0.5762787   -0.1323904     0.2925162   -0.7062368     0.3039775   -0.6987553    -0.5775333   -0.1776933 
   5.097500000    -0.5758064   -0.1303013     0.2929183   -0.7068896     0.3044118   -0.6997595    -0.5777028   -0.1762045 
   5.100000000    -0.5749265   -0.1288133     0.2937541   -0.7072669     0.3055133   -0.7003617    -0.5778698   -0.1753676 
   5.102500000    -0.5739044   -0.1275826     0.2952976   -0.7078340     0.3064140   -0.7010589    -0.5780714   -0.1737581 
   5.105000000    -0.5733013   -0.1263134     0.2964991   -0.7094738     0.3075316   -0.7022656    -0.5780991   -0.1730675 
   5.107500000    -0.5721250   -0.1248970     0.2971811   -0.7098119     0.3086041   -0.7031227    -0.5781516   -0.1720565 
   5.110000000    -0.5711177   -0.1235661     0.2983977   -0.7106072     0.3096670   -0.7040771    -0.5782254   -0.1713828 
   5.112500000    -0.5701526   -0.1223905     0.2999701   -0.7116081     0.3108070   -0.7047372    -0.5786163   -0.1703250 
   5.115000000    -0.5686620   -0.1218937     0.3007406   -0.7130561     0.3117685   -0.7059805    -0.5786843   -0.1691306 
   5.117500000    -0.5680079   -0.1208539     0.3019492   -0.7140063     0.3132336   -0.7064108    -0.5791900   -0.1677215 
   5.120000000    -0.5663550   -0.1192084     0.3029931   -0.7154525     0.3141780   -0.7078586    -0.5785862   -0.1664211 
   5.122500000    -0.5651529   -0.1184642     0.3049662   -0.7169212     0.3147370   -0.7087754    -0.5781054   -0.1652267 
   5.125000000    -0.5634134   -0.1178921     0.3059048   -0.7179664     0.3150666   -0.7099726    -0.5777344   -0.1639168 
   5.127500000    -0.5613790   -0.1174040     0.3070030   -0.7192204     0.3156306   -0.7113045    -0.5767431   -0.1630764 
   5.130000000    -0.5593963   -0.1173349     0.3078968   -0.7197824     0.3159916   -0.7126948    -0.5761127   -0.1621653 
   5.132500000    -0.5581955   -0.1169543     0.3080465   -0.7224498     0.3162349   -0.7144969    -0.5755155   -0.1607501 
   5.135000000    -0.5561799   -0.1164397     0.3090633   -0.7239627     0.3169116   -0.7160285    -0.5759251   -0.1598396 
   5.137500000    -0.5545550   -0.1157128     0.3101134   -0.7259153     0.3174392   -0.7173373    -0.5751889   -0.1592181 
   5.140000000    -0.5528641   -0.1155717     0.3109022   -0.7280082     0.3174888   -0.7194909    -0.5739964   -0.1580958 
   5.142500000    -0.5512031   -0.1156576     0.3112776   -0.7298133     0.3179826   -0.7213411    -0.5737826   -0.1568022 
   5.145000000    -0.5495259   -0.1155495     0.3119035   -0.7318568     0.3179722   -0.7229846    -0.5726042   -0.1563956 
   5.147500000    -0.5475132   -0.1153637     0.3109795   -0.7348578     0.3180054   -0.7248338    -0.5713066   -0.1566541 
   5.150000000    -0.5452366   -0.1151458     0.3109646   -0.7371520     0.3181993   -0.7265175    -0.5700399   -0.1562039 
   5.152500000    -0.5437550   -0.1151810     0.3116869   -0.7392187     0.3181357   -0.7285770    -0.5687445   -0.1569036 
   5.155000000    -0.5421234   -0.1153504     0.3112804   -0.7419707     0.3183093   -0.7306790    -0.5676616   -0.1571210 
   5.157500000    -0.5407429   -0.1160862     0.3120155   -0.7443017     0.3185773   -0.7329606    -0.5662234   -0.1574406 
   5.160000000    -0.5392392   -0.1171629     0.3119144   -0.7469612     0.3189873   -0.7348630    -0.5643387   -0.1574154 
   5.162500000    -0.5374833   -0.1182860     0.3114521   -0.7497611     0.3188732   -0.7363724    -0.5623116   -0.1578006 
   5.165000000    -0.5357103   -0.1194985     0.3105902   -0.7521946     0.3191217   -0.7383431    -0.5599730   -0.1579476 
   5.167500000    -0.5339298   -0.1204362     0.3098642   -0.7545254     0.3195122   -0.7398659    -0.5579026   -0.1578840 
   5.170000000    -0.5329295   -0.1211867     0.3091597   -0.7567426     0.3192104   -0.7421458    -0.5559891   -0.1579809 
   5.172500000    -0.5312973   -0.1222223     0.3088246   -0.7596105     0.3187635   -0.7438294    -0.5536973   -0.1582768 
   5.175000000    -0.5296983   -0.1232694     0.3079944   -0.7609846     0.3187771   -0.7455558    -0.5518587   -0.1577943 
   5.177500000    -0.5284104   -0.1244652     0.3062842   -0.7629669     0.3186874   -0.7475207    -0.5502956   -0.1576372 
   5.180000000    -0.5272583   -0.1253310     0.3051859   -0.7652406     0.3178110   -0.7495958    -0.5483883   -0.1578583 
   5.182500000    -0.5259758   -0.1264749     0.3037685   -0.7668989     0.3173018   -0.7513142    -0.5467957   -0.1574114 
   5.185000000    -0.5254299   -0.1277408     0.3025023   -0.7682545     0.3165480   -0.7531148    -0.5446371   -0.1573343 
   5.187500000    -0.5245090   -0.1288103     0.3011073   -0.7694557     0.3157074   -0.7549066    -0.5430022   -0.1581060 
   5.190000000    -0.5235120   -0.1297911     0.2990294   -0.7705430     0.3144118   -0.7565660    -0.5414277   -0.1578119 
   5.192500000    -0.5227632   -0.1309654     0.2982177   -0.7713618     0.3129366   -0.7580184    -0.5396345   -0.1575342 
   5.195000000    -0.5220585   -0.1314128     0.2964809   -0.7710592     0.3120236   -0.7596661    -0.5371362   -0.1574444 
   5.197500000    -0.5216297   -0.1323593     0.2957636   -0.7713416     0.3110229   -0.7618016    -0.5353532   -0.1575190 
   5.200000000    -0.5211773   -0.1328126     0.2948470   -0.7724509     0.3099808   -0.7633536    -0.5330529   -0.1579958 
   5.202500000    -0.5208096   -0.1325366     0.2940889   -0.7732149     0.3091547   -0.7647874    -0.5304011   -0.1580180 
   5.205000000    -0.5203637   -0.1327980     0.2937860   -0.7731706     0.3084154   -0.7660623    -0.5279910   -0.1587024 
   5.207500000    -0.5196485   -0.1327501     0.2934851   -0.7736050     0.3074968   -0.7673327    -0.5253996   -0.1589664 
   5.210000000    -0.5189595   -0.1328536     0.2934276   -0.7741704     0.3069184   -0.7688932    -0.5226974   -0.1598987 
   5.212500000    -0.5185438   -0.1333315     0.2935399   -0.7752132     0.3069077   -0.7704099    -0.5194816   -0.1608101 
   5.215000000    -0.5184012   -0.1337158     0.2939601   -0.7766352     0.3068213   -0.7725828    -0.5168647   -0.1623819 
   5.217500000    -0.5176326   -0.1341947     0.2941353   -0.7783011     0.3065569   -0.7745150    -0.5140565   -0.1635695 
   5.220000000    -0.5164890   -0.1343060     0.2938009   -0.7792836     0.3063127   -0.7761796    -0.5110936   -0.1653685 
   5.222500000    -0.5156911   -0.1347839     0.2942857   -0.7810135     0.3067050   -0.7777932    -0.5092354   -0.1667545 
   5.225000000    -0.5148750   -0.1351404     0.2942830   -0.7834690     0.3062727   -0.7801361    -0.5070657   -0.1680441 
   5.227500000    -0.5143707   -0.1355550     0.2954260   -0.7850757     0.3062623   -0.7829660    -0.5052360   -0.1699529 
   5.230000000    -0.5136936   -0.1354790     0.2951236   -0.7873870     0.3060676   -0.7850826    -0.5031025   -0.1715610 
   5.232500000    -0.5120099   -0.1357007     0.2946798   -0.7889339     0.3054672   -0.7877921    -0.5014730   -0.1734395 
   5.235000000    -0.5110537   -0.1357930     0.2942550   -0.7911172     0.3046132   -0.7901933    -0.4998185   -0.1755852 
   5.237500000    -0.5107369   -0.1357171     0.2935767   -0.7935336     0.3029008   -0.7928779    -0.4985685   -0.1769100 
   5.240000000    -0.5113308   -0.1354841     0.2928050   -0.7968551     0.3021794   -0.7959350    -0.4977585   -0.1777011 
   5.242500000    -0.5099078   -0.1350867     0.2910129   -0.7996149     0.3004600   -0.7993030    -0.4967440   -0.1782703 
   5.245000000    -0.5080283   -0.1339377     0.2900171   -0.8021006     0.2981528   -0.8027204    -0.4958215   -0.1787833 
   5.247500000    -0.5055224   -0.1336644     0.2885167   -0.8047115     0.2959048   -0.8055145    -0.4950850   -0.1793388 
   5.250000000    -0.5045621   -0.1335310     0.2868732   -0.8067639     0.2933381   -0.8084937    -0.4946071   -0.1798703 
   5.252500000    -0.5043438   -0.1332075     0.2842165   -0.8087971     0.2906806   -0.8115686    -0.4945353   -0.1805824 
   5.255000000    -0.5025028   -0.1335590     0.2811227   -0.8115885     0.2875964   -0.8138967    -0.4935851   -0.1814372 
   5.257500000    -0.4996502   -0.1336811     0.2789475   -0.8138803     0.2848080   -0.8158473    -0.4926052   -0.1818772 
   5.260000000    -0.4971514   -0.1333708     0.2767637   -0.8161878     0.2813803   -0.8181673    -0.4916828   -0.1816853 
   5.262500000    -0.4950929   -0.1331947     0.2736436   -0.8173044     0.2777815   -0.8197730    -0.4896410   -0.1813715 
   5.265000000    -0.4935490   -0.1336472     0.2712708   -0.8188361     0.2748749   -0.8216583    -0.4879203   -0.1817925 
   5.267500000    -0.4920287   -0.1345682     0.2692745   -0.8197695     0.2723311   -0.8227215    -0.4872116   -0.1826320 
   5.270000000    -0.4901170   -0.1357640     0.2664648   -0.8216642     0.2690399   -0.8237095    -0.4860902   -0.1834456 
   5.272500000    -0.4875365   -0.1373377     0.2636990   -0.8223833     0.2667773   -0.8246619    -0.4840981   -0.1844732 
   5.275000000    -0.4850643   -0.1388346     0.2612239   -0.8227455     0.2632750   -0.8247739    -0.4815433   -0.1839401 
   5.277500000    -0.4828436   -0.1396185     0.2592523   -0.8230162     0.2607114   -0.8243500    -0.4790799   -0.1842034 
   5.280000000    -0.4809514   -0.1416587     0.2567420   -0.8230416     0.2580019   -0.8241953    -0.4774925   -0.1851191 
   5.282500000    -0.4797575   -0.1440580     0.2547238   -0.8226510     0.2558617   -0.8244808    -0.4762390   -0.1866719 
   5.285000000    -0.4787608   -0.1466543     0.2534751   -0.8224404     0.2542025   -0.8241079    -0.4751380   -0.1882741 
   5.287500000    -0.4778605   -0.1496248     0.2504162   -0.8227531     0.2521832   -0.8233693    -0.4739156   -0.1894641 
   5.290000000    -0.4762326   -0.1524988     0.2494928   -0.8229961     0.2503777   -0.8226228    -0.4719579   -0.1910248 
   5.292500000    -0.4751263   -0.1551330     0.2482324   -0.8223837     0.2488748   -0.8220540    -0.4699419   -0.1922766 
   5.295000000    -0.4739386   -0.1582111     0.2474248   -0.8221151     0.2479336   -0.8212849    -0.4682853   -0.1934608 
   5.297500000    -0.4732671   -0.1609913     0.2462972   -0.8211648     0.2467036   -0.8207216    -0.4673051   -0.1948269 
   5.300000000    -0.4728077   -0.1642591     0.2447935   -0.8222792     0.2453052   -0.8206618    -0.4666153   -0.1960119 
   5.302500000    -0.4726380   -0.1666414     0.2436076   -0.8218428     0.2448337   -0.8201772    -0.4655262   -0.1974124 
   5.305000000    -0.4728968   -0.1692790     0.2420274   -0.8216183     0.2443410   -0.8195349    -0.4643307   -0.1986892 
   5.307500000    -0.4733564   -0.1720156     0.2417340   -0.8217275     0.2437352   -0.8200849    -0.4626642   -0.1999471 
   5.310000000    -0.4736804   -0.1747876     0.2412491   -0.8229345     0.2440111   -0.8203962    -0.4618597   -0.2014551 
   5.312500000    -0.4741915   -0.1776388     0.2400797   -0.8236190     0.2438556   -0.8212330    -0.4606792   -0.2030298 
   5.315000000    -0.4752894   -0.1807985     0.2399364   -0.8250290     0.2436976   -0.8218969    -0.4603218   -0.2046054 
   5.317500000    -0.4759083   -0.1834811     0.2389208   -0.8259717     0.2432942   -0.8230144    -0.4602798   -0.2070243 
   5.320000000    -0.4773903   -0.1863916     0.2380124   -0.8273800     0.2429181   -0.8246378    -0.4602138   -0.2095583 
   5.322500000    -0.4786828   -0.1892543     0.2372165   -0.8297992     0.2430675   -0.8257906    -0.4597258   -0.2114847 
   5.325000000    -0.4812495   -0.1918975     0.2361938   -0.8317400     0.2427917   -0.8277298    -0.4594639   -0.2135278 
   5.327500000    -0.4837462   -0.1942655     0.2349883   -0.8340129     0.2421455   -0.8301820    -0.4595629   -0.2156229 
   5.330000000    -0.4862022   -0.1965051     0.2329235   -0.8356223     0.2413240   -0.8321086    -0.4598874   -0.2176976 
   5.332500000    -0.4884556   -0.1987730     0.2311648   -0.8370756     0.2399825   -0.8348221    -0.4605693   -0.2195711 
   5.335000000    -0.4908393   -0.2006785     0.2293297   -0.8390005     0.2387680   -0.8372011    -0.4617332   -0.2215549 
   5.337500000    -0.4935069   -0.2017670     0.2261197   -0.8412213     0.2371032   -0.8396552    -0.4626348   -0.2232056 
   5.340000000    -0.4967699   -0.2020816     0.2226275   -0.8426795     0.2352778   -0.8420755    -0.4632601   -0.2244913 
   5.342500000    -0.4995152   -0.2024383     0.2195901   -0.8434348     0.2323930   -0.8442997    -0.4641772   -0.2256546 
   5.345000000    -0.5021971   -0.2026035     0.2160609   -0.8448024     0.2294142   -0.8467295    -0.4650501   -0.2265873 
   5.347500000    -0.5048493   -0.2023572     0.2118261   -0.8463129     0.2264247   -0.8490506    -0.4657270   -0.2267919 
   5.350000000    -0.5074685   -0.2020961     0.2078820   -0.8465624     0.2229238   -0.8508354    -0.4665911   -0.2280888 
   5.352500000    -0.5093879   -0.2015833     0.2030958   -0.8471984     0.2182411   -0.8528682    -0.4673850   -0.2289790 
   5.355000000    -0.5107885   -0.2005924     0.1982560   -0.8458591     0.2130694   -0.8548796    -0.4683044   -0.2304053 
   5.357500000    -0.5117084   -0.2001123     0.1931735   -0.8455775     0.2074596   -0.8555344    -0.4692343   -0.2312427 
   5.360000000    -0.5137098   -0.1995096     0.1891143   -0.8443024     0.2023822   -0.8557722    -0.4705945   -0.2320938 
   5.362500000    -0.5145824   -0.1997588     0.1842954   -0.8433515     0.1974005   -0.8550842    -0.4715592   -0.2332356 
   5.365000000    -0.5154954   -0.2001200     0.1794988   -0.8421336     0.1914980   -0.8547776    -0.4726653   -0.2343851 
   5.367500000    -0.5169207   -0.2008558     0.1761425   -0.8401572     0.1872103   -0.8540483    -0.4755960   -0.2363185 
   5.370000000    -0.5186076   -0.2006750     0.1732839   -0.8384634     0.1823376   -0.8529784    -0.4775423   -0.2377613 
   5.372500000    -0.5198785   -0.2008031     0.1699955   -0.8360161     0.1772098   -0.8512746    -0.4796255   -0.2395186 
   5.375000000    -0.5213230   -0.2007656     0.1674161   -0.8333870     0.1724261   -0.8488346    -0.4821423   -0.2407300 
   5.377500000    -0.5229039   -0.2007630     0.1643294   -0.8308946     0.1687835   -0.8459979    -0.4845482   -0.2414674 
   5.380000000    -0.5246384   -0.2007667     0.1616758   -0.8280960     0.1650296   -0.8434698    -0.4882801   -0.2420513 
   5.382500000    -0.5262172   -0.2006217     0.1606406   -0.8258666     0.1621652   -0.8410894    -0.4914672   -0.2430420 
   5.385000000    -0.5283726   -0.2004997     0.1589280   -0.8235823     0.1592384   -0.8379922    -0.4942714   -0.2425412 
   5.387500000    -0.5309387   -0.2001814     0.1573744   -0.8200020     0.1562243   -0.8347914    -0.4972350   -0.2430079 
