! MS46122B
! 1919307/90821646
! 7/29/2022 12:58:50 PM
! C:\USERS\PC_\DESKTOP\MEDICIONES\BANCHA ESTRECHA\55_6GHZ\S11_S21_ABS10_1002CL.S2P
! CHANNEL.1
! TR.MEASUREMENT
! CORRECTED.DATA
# GHZ S RI R 50.0
! FREQ.GHZ         S11RE         S11IM         S21RE         S21IM         S12RE         S12IM         S22RE         S22IM         
!; PortSelection: Port_12
   5.500000000    -0.8098852    0.2591110    -0.2002911   -0.4511345    -0.1964545   -0.4524100    -0.7444718    0.2470912 
   5.502500000    -0.8094198    0.2594297    -0.2016517   -0.4519013    -0.1952321   -0.4522930    -0.7455323    0.2471011 
   5.505000000    -0.8100515    0.2602271    -0.2006089   -0.4523151    -0.1938771   -0.4518445    -0.7471411    0.2478402 
   5.507500000    -0.8105687    0.2606656    -0.1994151   -0.4523754    -0.1927654   -0.4521495    -0.7493162    0.2488823 
   5.510000000    -0.8114229    0.2615061    -0.1981025   -0.4528735    -0.1918425   -0.4526666    -0.7505285    0.2502809 
   5.512500000    -0.8121464    0.2627895    -0.1969562   -0.4533748    -0.1904233   -0.4531188    -0.7521591    0.2512147 
   5.515000000    -0.8127629    0.2636726    -0.1962375   -0.4542021    -0.1890021   -0.4536097    -0.7538847    0.2541743 
   5.517500000    -0.8132097    0.2644651    -0.1951582   -0.4545791    -0.1880096   -0.4539935    -0.7556964    0.2564766 
   5.520000000    -0.8137042    0.2662651    -0.1938328   -0.4550018    -0.1870415   -0.4547681    -0.7579713    0.2591257 
   5.522500000    -0.8143435    0.2673079    -0.1930155   -0.4556089    -0.1862081   -0.4556449    -0.7599589    0.2605992 
   5.525000000    -0.8141766    0.2690641    -0.1917964   -0.4565086    -0.1852832   -0.4560356    -0.7612346    0.2642121 
   5.527500000    -0.8151191    0.2700434    -0.1916089   -0.4567772    -0.1836835   -0.4571730    -0.7628045    0.2663725 
   5.530000000    -0.8149140    0.2718279    -0.1905758   -0.4578531    -0.1832058   -0.4579532    -0.7642934    0.2695222 
   5.532500000    -0.8152053    0.2733453    -0.1894549   -0.4588143    -0.1818947   -0.4585597    -0.7660183    0.2729507 
   5.535000000    -0.8154033    0.2745005    -0.1882354   -0.4595543    -0.1808364   -0.4596021    -0.7674209    0.2759454 
   5.537500000    -0.8157442    0.2760140    -0.1872673   -0.4598510    -0.1796937   -0.4604298    -0.7687209    0.2792174 
   5.540000000    -0.8162132    0.2777453    -0.1865313   -0.4609272    -0.1788033   -0.4615096    -0.7709178    0.2826420 
   5.542500000    -0.8165755    0.2788860    -0.1857709   -0.4620439    -0.1777276   -0.4625485    -0.7722920    0.2856083 
   5.545000000    -0.8164236    0.2798257    -0.1846209   -0.4629430    -0.1763210   -0.4637659    -0.7735753    0.2886809 
   5.547500000    -0.8159966    0.2810156    -0.1837152   -0.4635689    -0.1752190   -0.4648280    -0.7747778    0.2920657 
   5.550000000    -0.8154825    0.2824334    -0.1826502   -0.4645078    -0.1740844   -0.4657463    -0.7757431    0.2945369 
   5.552500000    -0.8162842    0.2827770    -0.1822353   -0.4651315    -0.1735611   -0.4667755    -0.7757953    0.2980837 
   5.555000000    -0.8173996    0.2840101    -0.1814609   -0.4659945    -0.1726543   -0.4678004    -0.7765277    0.3013284 
   5.557500000    -0.8179799    0.2844877    -0.1805694   -0.4668524    -0.1715403   -0.4688680    -0.7772686    0.3036386 
   5.560000000    -0.8166951    0.2857363    -0.1797043   -0.4674695    -0.1707137   -0.4703634    -0.7778165    0.3063682 
   5.562500000    -0.8151056    0.2867506    -0.1789104   -0.4684518    -0.1698400   -0.4713644    -0.7792135    0.3101041 
   5.565000000    -0.8153798    0.2883892    -0.1786766   -0.4688988    -0.1693498   -0.4724446    -0.7798663    0.3126041 
   5.567500000    -0.8162135    0.2876094    -0.1785011   -0.4702271    -0.1687205   -0.4734862    -0.7799193    0.3151074 
   5.570000000    -0.8160666    0.2871101    -0.1773541   -0.4713143    -0.1677464   -0.4749115    -0.7803174    0.3177352 
   5.572500000    -0.8159463    0.2883490    -0.1766285   -0.4722707    -0.1673861   -0.4762156    -0.7808223    0.3206522 
   5.575000000    -0.8159050    0.2896612    -0.1763032   -0.4734654    -0.1666629   -0.4772182    -0.7809718    0.3230853 
   5.577500000    -0.8162964    0.2907841    -0.1753230   -0.4744211    -0.1664879   -0.4784336    -0.7813178    0.3251681 
   5.580000000    -0.8163103    0.2915640    -0.1755084   -0.4759848    -0.1662638   -0.4796171    -0.7817439    0.3278331 
   5.582500000    -0.8157770    0.2923400    -0.1746710   -0.4770330    -0.1657667   -0.4814076    -0.7817208    0.3301180 
   5.585000000    -0.8161950    0.2927714    -0.1738119   -0.4785194    -0.1648833   -0.4829591    -0.7825159    0.3322982 
   5.587500000    -0.8167546    0.2935612    -0.1729661   -0.4798501    -0.1644758   -0.4842032    -0.7828145    0.3338108 
   5.590000000    -0.8170250    0.2946675    -0.1717434   -0.4813502    -0.1639034   -0.4855832    -0.7826694    0.3363609 
   5.592500000    -0.8170878    0.2954489    -0.1716913   -0.4822428    -0.1633011   -0.4872218    -0.7824944    0.3377317 
   5.595000000    -0.8168420    0.2965409    -0.1710503   -0.4837891    -0.1627254   -0.4886919    -0.7824693    0.3401884 
   5.597500000    -0.8170654    0.2972959    -0.1702543   -0.4852494    -0.1623453   -0.4898067    -0.7825699    0.3421558 
   5.600000000    -0.8174745    0.2975823    -0.1692548   -0.4865277    -0.1611450   -0.4917852    -0.7827218    0.3428907 
   5.602500000    -0.8174531    0.2984792    -0.1683591   -0.4879675    -0.1605913   -0.4931119    -0.7824861    0.3447067 
   5.605000000    -0.8177658    0.2995346    -0.1673962   -0.4894715    -0.1597588   -0.4946986    -0.7820417    0.3463809 
   5.607500000    -0.8176659    0.3010267    -0.1671944   -0.4906175    -0.1594028   -0.4962521    -0.7824495    0.3475123 
   5.610000000    -0.8177659    0.3019440    -0.1671063   -0.4923965    -0.1594575   -0.4977444    -0.7827367    0.3491237 
   5.612500000    -0.8177016    0.3028064    -0.1663943   -0.4941513    -0.1586705   -0.4993934    -0.7832172    0.3501408 
   5.615000000    -0.8175691    0.3039543    -0.1660750   -0.4959163    -0.1582467   -0.5009451    -0.7831796    0.3517951 
   5.617500000    -0.8170782    0.3060822    -0.1652732   -0.4976802    -0.1578498   -0.5024109    -0.7826228    0.3528761 
   5.620000000    -0.8165027    0.3079043    -0.1655221   -0.4987151    -0.1576913   -0.5040191    -0.7819673    0.3548523 
   5.622500000    -0.8164262    0.3098882    -0.1657358   -0.5005124    -0.1564302   -0.5059190    -0.7818233    0.3569325 
   5.625000000    -0.8158641    0.3114251    -0.1647905   -0.5031475    -0.1583383   -0.5073262    -0.7815344    0.3586467 
   5.627500000    -0.8148248    0.3129517    -0.1646391   -0.5049952    -0.1574261   -0.5092889    -0.7811393    0.3602313 
   5.630000000    -0.8148818    0.3154700    -0.1643938   -0.5072027    -0.1570324   -0.5112420    -0.7803008    0.3621953 
   5.632500000    -0.8135312    0.3183740    -0.1642504   -0.5091745    -0.1570063   -0.5131497    -0.7805507    0.3643181 
   5.635000000    -0.8127005    0.3207574    -0.1642547   -0.5108271    -0.1566934   -0.5152830    -0.7801600    0.3669268 
   5.637500000    -0.8121130    0.3230089    -0.1650727   -0.5132973    -0.1570726   -0.5173438    -0.7802646    0.3688918 
   5.640000000    -0.8113500    0.3254770    -0.1645000   -0.5159550    -0.1577614   -0.5194503    -0.7799300    0.3716525 
   5.642500000    -0.8111077    0.3286177    -0.1644941   -0.5180352    -0.1576682   -0.5218099    -0.7801002    0.3738920 
   5.645000000    -0.8102741    0.3311994    -0.1641601   -0.5203121    -0.1579963   -0.5241201    -0.7798040    0.3771073 
   5.647500000    -0.8096930    0.3343758    -0.1648009   -0.5222161    -0.1579395   -0.5264814    -0.7798531    0.3793023 
   5.650000000    -0.8082674    0.3372837    -0.1650350   -0.5242601    -0.1580845   -0.5289158    -0.7796007    0.3827590 
   5.652500000    -0.8075370    0.3402047    -0.1657257   -0.5270253    -0.1584332   -0.5314022    -0.7793773    0.3861222 
   5.655000000    -0.8072032    0.3426260    -0.1657125   -0.5295534    -0.1593738   -0.5337753    -0.7796816    0.3887239 
   5.657500000    -0.8062556    0.3456629    -0.1658850   -0.5318861    -0.1593634   -0.5361831    -0.7797174    0.3916833 
   5.660000000    -0.8052138    0.3474562    -0.1661004   -0.5340462    -0.1598095   -0.5385759    -0.7800931    0.3952724 
   5.662500000    -0.8037761    0.3503107    -0.1668644   -0.5355942    -0.1605571   -0.5406812    -0.7802119    0.3982797 
   5.665000000    -0.8023557    0.3526015    -0.1676534   -0.5378209    -0.1608440   -0.5430020    -0.7806731    0.4008838 
   5.667500000    -0.8007252    0.3545123    -0.1690404   -0.5404729    -0.1617469   -0.5453901    -0.7813066    0.4045226 
   5.670000000    -0.7997892    0.3568349    -0.1690081   -0.5432706    -0.1620048   -0.5477259    -0.7817444    0.4067569 
   5.672500000    -0.7984040    0.3589292    -0.1709331   -0.5453215    -0.1628651   -0.5500226    -0.7819296    0.4101289 
   5.675000000    -0.7966711    0.3612115    -0.1711759   -0.5480615    -0.1645984   -0.5525811    -0.7818594    0.4127390 
   5.677500000    -0.7947637    0.3635921    -0.1730225   -0.5495164    -0.1654871   -0.5547159    -0.7818776    0.4164144 
   5.680000000    -0.7932235    0.3661228    -0.1747546   -0.5521581    -0.1670202   -0.5565625    -0.7818373    0.4191781 
   5.682500000    -0.7913657    0.3682082    -0.1758552   -0.5546804    -0.1689908   -0.5589069    -0.7814661    0.4224363 
   5.685000000    -0.7892745    0.3710217    -0.1770965   -0.5567432    -0.1705211   -0.5612496    -0.7818009    0.4250430 
   5.687500000    -0.7871886    0.3734111    -0.1782204   -0.5591931    -0.1721463   -0.5640483    -0.7813178    0.4276648 
   5.690000000    -0.7856724    0.3758039    -0.1798877   -0.5616433    -0.1736982   -0.5661568    -0.7801098    0.4298625 
   5.692500000    -0.7833872    0.3775707    -0.1810752   -0.5636899    -0.1756045   -0.5681345    -0.7787766    0.4330305 
   5.695000000    -0.7816702    0.3794208    -0.1829773   -0.5661629    -0.1771421   -0.5703886    -0.7783640    0.4354836 
   5.697500000    -0.7803298    0.3812581    -0.1841618   -0.5682238    -0.1794188   -0.5726916    -0.7775971    0.4377012 
   5.700000000    -0.7787088    0.3824240    -0.1856064   -0.5702853    -0.1816952   -0.5749228    -0.7760107    0.4402683 
   5.702500000    -0.7768288    0.3833442    -0.1871360   -0.5723848    -0.1834260   -0.5772459    -0.7749910    0.4429043 
   5.705000000    -0.7749191    0.3846918    -0.1887002   -0.5741139    -0.1854046   -0.5793854    -0.7729213    0.4452209 
   5.707500000    -0.7726598    0.3860814    -0.1909719   -0.5757093    -0.1874834   -0.5813355    -0.7710086    0.4477035 
   5.710000000    -0.7706854    0.3870364    -0.1923240   -0.5774338    -0.1891598   -0.5828122    -0.7686353    0.4492041 
   5.712500000    -0.7683905    0.3884295    -0.1940148   -0.5790741    -0.1912039   -0.5848431    -0.7662287    0.4517476 
   5.715000000    -0.7661920    0.3893817    -0.1957686   -0.5806133    -0.1936121   -0.5860100    -0.7642415    0.4536940 
   5.717500000    -0.7638674    0.3899902    -0.1973734   -0.5823469    -0.1956043   -0.5877855    -0.7623512    0.4556698 
   5.720000000    -0.7612275    0.3906230    -0.1995208   -0.5836629    -0.1962805   -0.5898780    -0.7596409    0.4576952 
   5.722500000    -0.7587380    0.3913921    -0.2008550   -0.5853458    -0.1994810   -0.5904220    -0.7575836    0.4593526 
   5.725000000    -0.7561172    0.3919396    -0.2030797   -0.5864890    -0.2006652   -0.5921077    -0.7549572    0.4600996 
   5.727500000    -0.7533366    0.3922641    -0.2047784   -0.5882913    -0.2030290   -0.5931643    -0.7515043    0.4606834 
   5.730000000    -0.7510177    0.3928241    -0.2070279   -0.5896309    -0.2050302   -0.5941800    -0.7490340    0.4623649 
   5.732500000    -0.7482758    0.3931073    -0.2088881   -0.5913695    -0.2073434   -0.5956147    -0.7460421    0.4631792 
   5.735000000    -0.7458660    0.3945209    -0.2118576   -0.5928520    -0.2096859   -0.5969825    -0.7430131    0.4641225 
   5.737500000    -0.7434638    0.3948239    -0.2137492   -0.5951323    -0.2116419   -0.5987999    -0.7398538    0.4643340 
   5.740000000    -0.7409105    0.3952742    -0.2155919   -0.5971065    -0.2140922   -0.6003019    -0.7361323    0.4653198 
   5.742500000    -0.7385981    0.3957383    -0.2176439   -0.5988525    -0.2162971   -0.6017595    -0.7326400    0.4655267 
   5.745000000    -0.7360269    0.3965590    -0.2195322   -0.6005197    -0.2192079   -0.6027430    -0.7285364    0.4657456 
   5.747500000    -0.7336580    0.3975100    -0.2225210   -0.6016955    -0.2210385   -0.6043669    -0.7256417    0.4667130 
   5.750000000    -0.7312575    0.3981984    -0.2245163   -0.6042340    -0.2230508   -0.6061062    -0.7221522    0.4671914 
   5.752500000    -0.7289367    0.3988456    -0.2268852   -0.6060505    -0.2255345   -0.6075802    -0.7184309    0.4676495 
   5.755000000    -0.7263678    0.3989235    -0.2285054   -0.6071290    -0.2276649   -0.6088603    -0.7148879    0.4674500 
   5.757500000    -0.7237784    0.3997886    -0.2309239   -0.6086603    -0.2292231   -0.6104842    -0.7118360    0.4673753 
   5.760000000    -0.7212374    0.4002807    -0.2330874   -0.6100695    -0.2316090   -0.6121651    -0.7090769    0.4676302 
   5.762500000    -0.7193816    0.4010523    -0.2352057   -0.6118103    -0.2336474   -0.6139408    -0.7061202    0.4676028 
   5.765000000    -0.7167177    0.4016320    -0.2377421   -0.6132637    -0.2362673   -0.6152322    -0.7030591    0.4676115 
   5.767500000    -0.7137861    0.4019302    -0.2404273   -0.6143157    -0.2379854   -0.6165998    -0.7000780    0.4670640 
   5.770000000    -0.7116361    0.4032928    -0.2418027   -0.6159845    -0.2418991   -0.6174953    -0.6974486    0.4664110 
   5.772500000    -0.7086201    0.4041775    -0.2470634   -0.6162792    -0.2421828   -0.6190946    -0.6947646    0.4657155 
   5.775000000    -0.7050940    0.4053840    -0.2490773   -0.6177188    -0.2457887   -0.6200513    -0.6925600    0.4655093 
   5.777500000    -0.7022396    0.4060651    -0.2510746   -0.6187800    -0.2489994   -0.6209878    -0.6897141    0.4656134 
   5.780000000    -0.6996986    0.4072082    -0.2550212   -0.6195329    -0.2526805   -0.6223140    -0.6874580    0.4651726 
   5.782500000    -0.6969996    0.4088077    -0.2574682   -0.6206975    -0.2565121   -0.6225451    -0.6855469    0.4650919 
   5.785000000    -0.6943268    0.4099771    -0.2609429   -0.6216235    -0.2594658   -0.6234021    -0.6834558    0.4644299 
   5.787500000    -0.6914823    0.4114397    -0.2649829   -0.6224363    -0.2621114   -0.6244384    -0.6816434    0.4635535 
   5.790000000    -0.6886213    0.4122472    -0.2683114   -0.6230582    -0.2657140   -0.6253795    -0.6792952    0.4633177 
   5.792500000    -0.6847878    0.4134665    -0.2714248   -0.6236886    -0.2688051   -0.6259722    -0.6771988    0.4623793 
   5.795000000    -0.6820147    0.4152021    -0.2743194   -0.6246014    -0.2725152   -0.6266942    -0.6752440    0.4624798 
   5.797500000    -0.6788353    0.4167210    -0.2779233   -0.6248618    -0.2760856   -0.6269414    -0.6732520    0.4613688 
   5.800000000    -0.6753914    0.4179359    -0.2809944   -0.6249974    -0.2802598   -0.6270802    -0.6711693    0.4608583 
   5.802500000    -0.6722855    0.4188971    -0.2855443   -0.6253507    -0.2826556   -0.6271977    -0.6693336    0.4602458 
   5.805000000    -0.6691467    0.4201483    -0.2884501   -0.6256053    -0.2857874   -0.6273075    -0.6682062    0.4600001 
   5.807500000    -0.6657628    0.4211681    -0.2912277   -0.6254739    -0.2892504   -0.6267570    -0.6658292    0.4585261 
   5.810000000    -0.6620100    0.4220196    -0.2947276   -0.6250522    -0.2913678   -0.6265851    -0.6639484    0.4574733 
   5.812500000    -0.6582734    0.4231297    -0.2970071   -0.6247460    -0.2952102   -0.6257856    -0.6621457    0.4567659 
   5.815000000    -0.6544493    0.4240512    -0.2995808   -0.6238705    -0.2986610   -0.6247915    -0.6598169    0.4558529 
   5.817500000    -0.6508927    0.4239905    -0.3034987   -0.6226239    -0.3011532   -0.6242022    -0.6577895    0.4541520 
   5.820000000    -0.6470174    0.4239370    -0.3058326   -0.6220555    -0.3037274   -0.6231350    -0.6552239    0.4536857 
   5.822500000    -0.6429914    0.4241675    -0.3075798   -0.6216027    -0.3077526   -0.6210920    -0.6535521    0.4524540 
   5.825000000    -0.6390610    0.4236272    -0.3113251   -0.6198611    -0.3070178   -0.6210084    -0.6515576    0.4505136 
   5.827500000    -0.6350451    0.4234834    -0.3130803   -0.6192164    -0.3112312   -0.6188841    -0.6493138    0.4487820 
   5.830000000    -0.6303046    0.4229718    -0.3153672   -0.6178058    -0.3135279   -0.6174849    -0.6464078    0.4474798 
   5.832500000    -0.6257408    0.4224639    -0.3189170   -0.6163046    -0.3163051   -0.6155592    -0.6434982    0.4458607 
   5.835000000    -0.6215102    0.4218066    -0.3216100   -0.6152997    -0.3181359   -0.6143295    -0.6403624    0.4440455 
   5.837500000    -0.6178854    0.4204077    -0.3235560   -0.6145083    -0.3200245   -0.6127846    -0.6377251    0.4422913 
   5.840000000    -0.6143297    0.4186540    -0.3256100   -0.6136246    -0.3219444   -0.6119269    -0.6353910    0.4401305 
   5.842500000    -0.6109067    0.4173008    -0.3270317   -0.6130405    -0.3243597   -0.6105099    -0.6325389    0.4382589 
   5.845000000    -0.6076628    0.4156355    -0.3306436   -0.6116151    -0.3262997   -0.6095193    -0.6298680    0.4372539 
   5.847500000    -0.6047091    0.4145156    -0.3321563   -0.6111483    -0.3276880   -0.6087588    -0.6276482    0.4349459 
   5.850000000    -0.6018758    0.4126674    -0.3349518   -0.6103210    -0.3304095   -0.6077675    -0.6254795    0.4331145 
   5.852500000    -0.5995612    0.4106983    -0.3362038   -0.6099626    -0.3309791   -0.6075259    -0.6235371    0.4310957 
   5.855000000    -0.5974546    0.4088287    -0.3390713   -0.6099135    -0.3338861   -0.6068017    -0.6215179    0.4298667 
   5.857500000    -0.5953706    0.4071103    -0.3409055   -0.6094037    -0.3347744   -0.6066313    -0.6196016    0.4286546 
   5.860000000    -0.5935302    0.4057675    -0.3437168   -0.6080285    -0.3365442   -0.6059772    -0.6177412    0.4271907 
   5.862500000    -0.5919800    0.4039444    -0.3456929   -0.6075498    -0.3389523   -0.6057950    -0.6153489    0.4260439 
   5.865000000    -0.5907272    0.4019201    -0.3471863   -0.6070802    -0.3399633   -0.6056736    -0.6123292    0.4243061 
   5.867500000    -0.5897613    0.3999419    -0.3498774   -0.6068538    -0.3421329   -0.6051404    -0.6095814    0.4224482 
   5.870000000    -0.5882529    0.3986105    -0.3519753   -0.6056606    -0.3452828   -0.6044343    -0.6072327    0.4205194 
   5.872500000    -0.5873860    0.3963878    -0.3537961   -0.6050774    -0.3463110   -0.6040897    -0.6050843    0.4183597 
   5.875000000    -0.5861091    0.3952776    -0.3567030   -0.6041477    -0.3482160   -0.6030539    -0.6025288    0.4176377 
   5.877500000    -0.5850235    0.3938403    -0.3587698   -0.6032783    -0.3523872   -0.6019903    -0.6000140    0.4158818 
   5.880000000    -0.5837940    0.3931769    -0.3614776   -0.6031613    -0.3549978   -0.6008973    -0.5970283    0.4151985 
   5.882500000    -0.5823165    0.3921055    -0.3660777   -0.6006495    -0.3572360   -0.6003694    -0.5941539    0.4131235 
   5.885000000    -0.5816234    0.3906576    -0.3675855   -0.6003303    -0.3597270   -0.5993839    -0.5924661    0.4111135 
   5.887500000    -0.5812103    0.3892595    -0.3709946   -0.5989069    -0.3625602   -0.5981879    -0.5893574    0.4082814 
   5.890000000    -0.5806676    0.3880831    -0.3725702   -0.5981938    -0.3654006   -0.5964206    -0.5874704    0.4068129 
