! MS46122B
! 1919307/90821646
! 5/18/2022 3:36:46 PM
! C:\USERS\PC_\DESKTOP\CARACTERIZACION\MEDICIONES\S11_S21_ABS12_1002CL.S2P
! CHANNEL.1
! TR.MEASUREMENT
! CORRECTED.DATA
# GHZ S RI R 50.0
! FREQ.GHZ         S11RE         S11IM         S21RE         S21IM         S12RE         S12IM         S22RE         S22IM         
!; PortSelection: Port_12
   4.950000000    -0.8328190    0.2486172    -0.1351275   -0.4689991    -0.1488613   -0.4825984    -0.8364476    0.2358384 
   4.957564576    -0.8316239    0.2504350    -0.1356864   -0.4685372    -0.1484291   -0.4817422    -0.8303142    0.2449725 
   4.965129151    -0.8354569    0.2522801    -0.1354651   -0.4672507    -0.1482717   -0.4798600    -0.8273185    0.2562508 
   4.972693727    -0.8379655    0.2549309    -0.1337634   -0.4645875    -0.1471449   -0.4777021    -0.8254252    0.2676221 
   4.980258303    -0.8390533    0.2578457    -0.1310434   -0.4632641    -0.1448342   -0.4759219    -0.8227406    0.2769639 
   4.987822878    -0.8390970    0.2608299    -0.1272683   -0.4634925    -0.1423313   -0.4739875    -0.8204470    0.2854885 
   4.995387454    -0.8391737    0.2641675    -0.1224425   -0.4656825    -0.1392261   -0.4738818    -0.8195381    0.2918866 
   5.002952030    -0.8388701    0.2662466    -0.1189025   -0.4698472    -0.1367602   -0.4738207    -0.8196988    0.2958446 
   5.010516605    -0.8378858    0.2679957    -0.1157718   -0.4745852    -0.1337852   -0.4748035    -0.8196735    0.2976893 
   5.018081181    -0.8360699    0.2682660    -0.1141322   -0.4803406    -0.1318600   -0.4757678    -0.8184774    0.2983207 
   5.025645756    -0.8341285    0.2689972    -0.1137239   -0.4857315    -0.1301438   -0.4773001    -0.8161485    0.2976389 
   5.033210332    -0.8309233    0.2716353    -0.1148240   -0.4920612    -0.1290814   -0.4787835    -0.8140680    0.2966381 
   5.040774908    -0.8282050    0.2747807    -0.1169164   -0.4977931    -0.1289300   -0.4807778    -0.8114822    0.2959384 
   5.048339483    -0.8266013    0.2777672    -0.1197304   -0.5042322    -0.1292473   -0.4831806    -0.8085793    0.2958919 
   5.055904059    -0.8246673    0.2822168    -0.1226020   -0.5096256    -0.1297507   -0.4858743    -0.8061928    0.2967228 
   5.063468635    -0.8225573    0.2858599    -0.1268988   -0.5156142    -0.1315225   -0.4881171    -0.8038534    0.2982368 
   5.071033210    -0.8203153    0.2911541    -0.1317382   -0.5196933    -0.1338267   -0.4905367    -0.8019764    0.3012227 
   5.078597786    -0.8180084    0.2965288    -0.1364674   -0.5226448    -0.1372339   -0.4925285    -0.8003748    0.3046751 
   5.086162362    -0.8146506    0.3021725    -0.1434755   -0.5243435    -0.1411761   -0.4943075    -0.7989348    0.3095419 
   5.093726937    -0.8123117    0.3085340    -0.1495678   -0.5254046    -0.1449192   -0.4954735    -0.7988393    0.3139537 
   5.101291513    -0.8104776    0.3143698    -0.1535887   -0.5259389    -0.1476668   -0.4970218    -0.7997831    0.3171470 
   5.108856089    -0.8093169    0.3204460    -0.1570332   -0.5265838    -0.1499267   -0.4987158    -0.8014090    0.3207292 
   5.116420664    -0.8071572    0.3261718    -0.1578700   -0.5271540    -0.1525723   -0.5002456    -0.8048326    0.3227177 
   5.123985240    -0.8044847    0.3310380    -0.1585341   -0.5294070    -0.1538946   -0.5028923    -0.8083124    0.3242111 
   5.131549815    -0.7998222    0.3361029    -0.1593662   -0.5316979    -0.1568793   -0.5066131    -0.8125132    0.3245137 
   5.139114391    -0.7950745    0.3403690    -0.1599282   -0.5367812    -0.1594675   -0.5111217    -0.8164888    0.3232757 
   5.146678967    -0.7890834    0.3457598    -0.1615389   -0.5418052    -0.1631155   -0.5168026    -0.8184887    0.3206209 
   5.154243542    -0.7814152    0.3488640    -0.1635365   -0.5480018    -0.1665110   -0.5226124    -0.8176662    0.3148700 
   5.161808118    -0.7737342    0.3513916    -0.1669025   -0.5558534    -0.1696585   -0.5289093    -0.8154603    0.3106063 
   5.169372694    -0.7648955    0.3521055    -0.1725921   -0.5630689    -0.1731580   -0.5345214    -0.8100963    0.3074501 
   5.176937269    -0.7552451    0.3513648    -0.1788541   -0.5707245    -0.1764225   -0.5405871    -0.8035378    0.3057796 
   5.184501845    -0.7449309    0.3494854    -0.1872423   -0.5768875    -0.1804594   -0.5471423    -0.7942724    0.3063605 
   5.192066421    -0.7360388    0.3461722    -0.1983925   -0.5817612    -0.1856853   -0.5545189    -0.7847694    0.3094395 
   5.199630996    -0.7300395    0.3431153    -0.2100954   -0.5852965    -0.1926612   -0.5628024    -0.7733471    0.3124801 
   5.207195572    -0.7249837    0.3413760    -0.2229422   -0.5865288    -0.2002969   -0.5697457    -0.7605265    0.3173236 
   5.214760148    -0.7224476    0.3412830    -0.2356410   -0.5847886    -0.2101494   -0.5748527    -0.7459480    0.3214894 
   5.222324723    -0.7177629    0.3406347    -0.2462985   -0.5802702    -0.2198663   -0.5784382    -0.7339853    0.3247858 
   5.229889299    -0.7139577    0.3409973    -0.2554869   -0.5742323    -0.2302525   -0.5801966    -0.7256656    0.3289520 
   5.237453875    -0.7092077    0.3420249    -0.2621014   -0.5667006    -0.2386233   -0.5788776    -0.7200273    0.3327648 
   5.245018450    -0.7055965    0.3451032    -0.2677929   -0.5614958    -0.2473657   -0.5775437    -0.7182418    0.3392564 
   5.252583026    -0.7014847    0.3482921    -0.2723036   -0.5551947    -0.2538897   -0.5745940    -0.7199148    0.3474285 
   5.260147601    -0.6944388    0.3510991    -0.2747559   -0.5508379    -0.2591075   -0.5711444    -0.7215170    0.3541235 
   5.267712177    -0.6895012    0.3539395    -0.2764656   -0.5461499    -0.2622727   -0.5679108    -0.7241588    0.3585602 
   5.275276753    -0.6820458    0.3530928    -0.2768340   -0.5418206    -0.2641522   -0.5641789    -0.7263033    0.3598065 
   5.282841328    -0.6755264    0.3501720    -0.2767734   -0.5383973    -0.2645552   -0.5611512    -0.7297903    0.3566636 
   5.290405904    -0.6709207    0.3436282    -0.2764914   -0.5364085    -0.2639080   -0.5594572    -0.7329445    0.3497372 
   5.297970480    -0.6668592    0.3370897    -0.2768570   -0.5367088    -0.2638660   -0.5585207    -0.7374003    0.3408397 
   5.305535055    -0.6659279    0.3322519    -0.2800961   -0.5381510    -0.2656349   -0.5592463    -0.7408727    0.3304201 
   5.313099631    -0.6673627    0.3283035    -0.2857655   -0.5406995    -0.2690073   -0.5605793    -0.7436199    0.3215199 
   5.320664207    -0.6682161    0.3256393    -0.2920094   -0.5415168    -0.2742001   -0.5610493    -0.7456686    0.3129970 
   5.328228782    -0.6693854    0.3240855    -0.3008991   -0.5400856    -0.2816383   -0.5602012    -0.7444087    0.3046671 
   5.335793358    -0.6684480    0.3200389    -0.3093058   -0.5346353    -0.2901512   -0.5560235    -0.7427030    0.2976643 
   5.343357934    -0.6685708    0.3178187    -0.3156479   -0.5284123    -0.2976404   -0.5500486    -0.7385947    0.2940658 
   5.350922509    -0.6699710    0.3135608    -0.3226639   -0.5197898    -0.3034516   -0.5412659    -0.7318572    0.2932967 
   5.358487085    -0.6713258    0.3136268    -0.3260380   -0.5112509    -0.3096120   -0.5316910    -0.7239962    0.2965396 
   5.366051661    -0.6744992    0.3126141    -0.3276977   -0.5025437    -0.3129109   -0.5228048    -0.7147591    0.3022011 
   5.373616236    -0.6788388    0.3139154    -0.3275506   -0.4940975    -0.3153796   -0.5133968    -0.7051345    0.3092089 
   5.381180812    -0.6827133    0.3155122    -0.3247058   -0.4849350    -0.3154280   -0.5061567    -0.6974585    0.3173348 
   5.388745387    -0.6869093    0.3172255    -0.3206258   -0.4777024    -0.3150287   -0.4989641    -0.6906546    0.3259751 
   5.396309963    -0.6905465    0.3174631    -0.3148224   -0.4708746    -0.3140559   -0.4936459    -0.6855516    0.3344915 
   5.403874539    -0.6937931    0.3187885    -0.3075444   -0.4664727    -0.3126288   -0.4885930    -0.6811941    0.3422374 
   5.411439114    -0.6987339    0.3202404    -0.2994353   -0.4650829    -0.3122067   -0.4847069    -0.6787685    0.3461003 
   5.419003690    -0.7031862    0.3221917    -0.2929829   -0.4655690    -0.3116255   -0.4821557    -0.6780592    0.3489684 
   5.426568266    -0.7076293    0.3239994    -0.2881437   -0.4695677    -0.3115692   -0.4805568    -0.6813601    0.3489327 
   5.434132841    -0.7098240    0.3249012    -0.2850904   -0.4740222    -0.3123997   -0.4796863    -0.6856404    0.3488734 
   5.441697417    -0.7106967    0.3241613    -0.2841527   -0.4780982    -0.3134372   -0.4781894    -0.6909478    0.3490890 
   5.449261993    -0.7117007    0.3213165    -0.2854692   -0.4802140    -0.3144192   -0.4755540    -0.6959599    0.3480791 
   5.456826568    -0.7123734    0.3186165    -0.2863715   -0.4812940    -0.3157814   -0.4724519    -0.6992636    0.3453958 
   5.464391144    -0.7139601    0.3149008    -0.2882548   -0.4809236    -0.3147871   -0.4694394    -0.7014046    0.3420892 
   5.471955720    -0.7166976    0.3133304    -0.2881588   -0.4803846    -0.3132722   -0.4681732    -0.7018120    0.3370878 
   5.479520295    -0.7197161    0.3117374    -0.2870801   -0.4803290    -0.3097082   -0.4681716    -0.7028410    0.3322686 
   5.487084871    -0.7218196    0.3123938    -0.2846716   -0.4797117    -0.3070574   -0.4690812    -0.7010517    0.3271211 
   5.494649446    -0.7247940    0.3132386    -0.2830730   -0.4797330    -0.3029897   -0.4709528    -0.7005786    0.3229519 
   5.502214022    -0.7273872    0.3160827    -0.2795786   -0.4802198    -0.2996732   -0.4731049    -0.6995025    0.3219060 
   5.509778598    -0.7313204    0.3196668    -0.2772315   -0.4808324    -0.2970417   -0.4764527    -0.7002180    0.3230024 
   5.517343173    -0.7346221    0.3256956    -0.2747068   -0.4821699    -0.2937580   -0.4791154    -0.6988511    0.3289257 
   5.524907749    -0.7379154    0.3334376    -0.2730023   -0.4831158    -0.2906951   -0.4828020    -0.6987621    0.3351763 
   5.532472325    -0.7395633    0.3428120    -0.2684341   -0.4854795    -0.2885174   -0.4855066    -0.6980480    0.3444757 
   5.540036900    -0.7421752    0.3514452    -0.2650298   -0.4874245    -0.2844447   -0.4893830    -0.6993212    0.3542165 
   5.547601476    -0.7417815    0.3599262    -0.2597643   -0.4904491    -0.2799014   -0.4933516    -0.6998487    0.3640482 
   5.555166052    -0.7427348    0.3671533    -0.2552848   -0.4941703    -0.2762306   -0.4972817    -0.7006677    0.3733388 
   5.562730627    -0.7386835    0.3750429    -0.2514181   -0.4990905    -0.2717674   -0.5015072    -0.7008327    0.3829297 
   5.570295203    -0.7374558    0.3786430    -0.2476518   -0.5055842    -0.2674510   -0.5056037    -0.7009899    0.3917716 
   5.577859779    -0.7346163    0.3863064    -0.2438467   -0.5144240    -0.2657103   -0.5094633    -0.7008941    0.3995452 
   5.585424354    -0.7319077    0.3907056    -0.2419911   -0.5235662    -0.2614614   -0.5150520    -0.7005083    0.4066382 
   5.592988930    -0.7292409    0.3963255    -0.2407963   -0.5333913    -0.2588909   -0.5208225    -0.6993216    0.4130142 
   5.600553506    -0.7260614    0.4006874    -0.2401745   -0.5437934    -0.2558713   -0.5267776    -0.6979625    0.4176655 
   5.608118081    -0.7228816    0.4057057    -0.2428068   -0.5540305    -0.2537799   -0.5326694    -0.6956736    0.4216948 
   5.615682657    -0.7185869    0.4110282    -0.2459155   -0.5647908    -0.2521889   -0.5391550    -0.6933799    0.4247856 
   5.623247232    -0.7135705    0.4174151    -0.2511668   -0.5745807    -0.2531610   -0.5453085    -0.6884165    0.4287025 
   5.630811808    -0.7085806    0.4241612    -0.2592024   -0.5840101    -0.2530836   -0.5531501    -0.6841030    0.4334238 
   5.638376384    -0.7028976    0.4320870    -0.2663485   -0.5929651    -0.2573178   -0.5601878    -0.6790276    0.4394013 
   5.645940959    -0.6980188    0.4419831    -0.2742274   -0.6000362    -0.2610124   -0.5681777    -0.6750517    0.4458061 
   5.653505535    -0.6936154    0.4510956    -0.2828621   -0.6058046    -0.2665801   -0.5752501    -0.6705988    0.4549886 
   5.661070111    -0.6882338    0.4603790    -0.2908381   -0.6099746    -0.2713777   -0.5810061    -0.6680995    0.4633233 
   5.668634686    -0.6826665    0.4683947    -0.2979760   -0.6138957    -0.2768454   -0.5860910    -0.6671732    0.4714297 
   5.676199262    -0.6756389    0.4773489    -0.3053682   -0.6177256    -0.2833533   -0.5900782    -0.6666770    0.4790178 
   5.683763838    -0.6671761    0.4868898    -0.3131615   -0.6217295    -0.2904493   -0.5943156    -0.6665588    0.4868043 
   5.691328413    -0.6583155    0.4969300    -0.3196498   -0.6263992    -0.2971452   -0.5995848    -0.6666942    0.4926368 
   5.698892989    -0.6489195    0.5048504    -0.3257060   -0.6312686    -0.3050801   -0.6050149    -0.6678013    0.4979955 
   5.706457565    -0.6377606    0.5115390    -0.3329613   -0.6358939    -0.3122817   -0.6118985    -0.6674135    0.5018026 
   5.714022140    -0.6255367    0.5164992    -0.3392756   -0.6420955    -0.3203289   -0.6172011    -0.6657194    0.5038008 
   5.721586716    -0.6118616    0.5198148    -0.3486902   -0.6469340    -0.3279405   -0.6241142    -0.6643335    0.5055396 
   5.729151292    -0.5968374    0.5209382    -0.3570674   -0.6527876    -0.3389119   -0.6289532    -0.6601261    0.5048057 
   5.736715867    -0.5826358    0.5209363    -0.3687319   -0.6589294    -0.3497385   -0.6359113    -0.6519282    0.5034483 
   5.744280443    -0.5679492    0.5192655    -0.3812860   -0.6647326    -0.3624562   -0.6431839    -0.6408991    0.5012939 
   5.751845018    -0.5544797    0.5164289    -0.3945328   -0.6701289    -0.3754085   -0.6498450    -0.6269277    0.4999105 
   5.759409594    -0.5418514    0.5116138    -0.4093660   -0.6731608    -0.3886594   -0.6556803    -0.6112223    0.4954460 
   5.766974170    -0.5292965    0.5064854    -0.4235421   -0.6738853    -0.4023979   -0.6597064    -0.5940446    0.4905375 
   5.774538745    -0.5178246    0.5005290    -0.4392397   -0.6719663    -0.4172677   -0.6621498    -0.5766833    0.4850741 
   5.782103321    -0.5072403    0.4956320    -0.4542081   -0.6674551    -0.4331877   -0.6621969    -0.5584894    0.4824234 
   5.789667897    -0.4976197    0.4898117    -0.4690741   -0.6630611    -0.4488418   -0.6611016    -0.5419769    0.4795880 
   5.797232472    -0.4885811    0.4863987    -0.4826851   -0.6556187    -0.4627326   -0.6591660    -0.5255297    0.4792424 
   5.804797048    -0.4809699    0.4828279    -0.4942140   -0.6491247    -0.4752467   -0.6559288    -0.5112478    0.4810356 
   5.812361624    -0.4730679    0.4796320    -0.5015790   -0.6410726    -0.4857468   -0.6513487    -0.4984682    0.4823983 
   5.819926199    -0.4652536    0.4763639    -0.5098426   -0.6317648    -0.4948016   -0.6460835    -0.4852879    0.4861667 
   5.827490775    -0.4579466    0.4730169    -0.5155730   -0.6241760    -0.5012918   -0.6401211    -0.4748175    0.4884330 
   5.835055351    -0.4493663    0.4700263    -0.5206678   -0.6147794    -0.5088844   -0.6339677    -0.4649736    0.4894165 
   5.842619926    -0.4417925    0.4664576    -0.5245792   -0.6094517    -0.5125944   -0.6299214    -0.4577693    0.4893957 
   5.850184502    -0.4347679    0.4640142    -0.5305823   -0.6034218    -0.5185471   -0.6267452    -0.4535309    0.4875826 
   5.857749077    -0.4289563    0.4606625    -0.5347790   -0.5991235    -0.5217986   -0.6264464    -0.4528044    0.4842711 
   5.865313653    -0.4223467    0.4568625    -0.5406718   -0.5947852    -0.5266827   -0.6257818    -0.4532029    0.4788084 
   5.872878229    -0.4164856    0.4511581    -0.5461823   -0.5878243    -0.5316081   -0.6261163    -0.4545297    0.4699702 
   5.880442804    -0.4085841    0.4452349    -0.5507408   -0.5838155    -0.5444992   -0.6196529    -0.4567473    0.4610537 
   5.888007380    -0.4026855    0.4354953    -0.5574539   -0.5780607    -0.5520614   -0.6161429    -0.4603240    0.4496972 
   5.895571956    -0.3990860    0.4259990    -0.5657542   -0.5714893    -0.5597045   -0.6103066    -0.4629747    0.4411034 
   5.903136531    -0.3972690    0.4159973    -0.5702492   -0.5653965    -0.5683519   -0.6029360    -0.4654622    0.4334602 
   5.910701107    -0.3979784    0.4071390    -0.5763549   -0.5575256    -0.5750853   -0.5924468    -0.4644266    0.4261076 
   5.918265683    -0.4018650    0.3988189    -0.5803354   -0.5495502    -0.5803027   -0.5829782    -0.4620906    0.4209717 
   5.925830258    -0.4060210    0.3935038    -0.5856186   -0.5385404    -0.5829914   -0.5740688    -0.4580404    0.4161345 
   5.933394834    -0.4102443    0.3888731    -0.5862613   -0.5312216    -0.5882668   -0.5595356    -0.4507708    0.4141165 
   5.940959410    -0.4144182    0.3862184    -0.5887630   -0.5200117    -0.5890090   -0.5493205    -0.4415867    0.4121798 
   5.948523985    -0.4192497    0.3849671    -0.5880014   -0.5114642    -0.5898064   -0.5390167    -0.4329011    0.4099211 
   5.956088561    -0.4238174    0.3852074    -0.5860320   -0.5042846    -0.5908930   -0.5283819    -0.4238617    0.4088338 
   5.963653137    -0.4280312    0.3865133    -0.5832543   -0.4961742    -0.5910652   -0.5189068    -0.4162380    0.4093059 
   5.971217712    -0.4308284    0.3892212    -0.5792110   -0.4921246    -0.5895156   -0.5109750    -0.4099565    0.4101242 
   5.978782288    -0.4332795    0.3912349    -0.5765613   -0.4860108    -0.5886862   -0.5026608    -0.4056172    0.4120910 
   5.986346863    -0.4349520    0.3925061    -0.5720990   -0.4835688    -0.5868762   -0.4966592    -0.4047356    0.4128157 
   5.993911439    -0.4353380    0.3935773    -0.5695660   -0.4810030    -0.5851186   -0.4912872    -0.4049276    0.4142334 
   6.001476015    -0.4355953    0.3927130    -0.5658843   -0.4799300    -0.5850812   -0.4848450    -0.4071420    0.4149033 
   6.009040590    -0.4358402    0.3917548    -0.5643408   -0.4803878    -0.5860128   -0.4795730    -0.4082952    0.4150002 
   6.016605166    -0.4365781    0.3885038    -0.5626691   -0.4804088    -0.5854250   -0.4761463    -0.4116225    0.4147715 
   6.024169742    -0.4377241    0.3854394    -0.5614362   -0.4801948    -0.5859160   -0.4717517    -0.4131327    0.4124414 
   6.031734317    -0.4394515    0.3807656    -0.5614842   -0.4801304    -0.5848987   -0.4693019    -0.4149115    0.4092162 
   6.039298893    -0.4415854    0.3763538    -0.5613773   -0.4806702    -0.5849601   -0.4658797    -0.4171871    0.4040550 
   6.046863469    -0.4444805    0.3709481    -0.5626523   -0.4798176    -0.5832559   -0.4656739    -0.4180292    0.3972229 
   6.054428044    -0.4463212    0.3677616    -0.5622414   -0.4809321    -0.5857865   -0.4607955    -0.4201664    0.3896784 
   6.061992620    -0.4498468    0.3648783    -0.5655648   -0.4787475    -0.5851301   -0.4612781    -0.4207897    0.3827986 
   6.069557196    -0.4527347    0.3638718    -0.5666918   -0.4783867    -0.5863699   -0.4608532    -0.4193145    0.3761519 
   6.077121771    -0.4566510    0.3643003    -0.5673996   -0.4763468    -0.5858611   -0.4597501    -0.4185589    0.3720530 
   6.084686347    -0.4589422    0.3668905    -0.5674008   -0.4760210    -0.5860485   -0.4602796    -0.4173762    0.3693690 
   6.092250923    -0.4607704    0.3710014    -0.5673431   -0.4737034    -0.5848587   -0.4595846    -0.4153970    0.3695128 
   6.099815498    -0.4616476    0.3768954    -0.5661716   -0.4725342    -0.5838886   -0.4594623    -0.4129324    0.3709269 
   6.107380074    -0.4617292    0.3837872    -0.5651286   -0.4715213    -0.5822356   -0.4591164    -0.4105009    0.3748708 
   6.114944649    -0.4606536    0.3924512    -0.5638810   -0.4714482    -0.5806207   -0.4603537    -0.4070601    0.3808118 
   6.122509225    -0.4588869    0.4007368    -0.5611269   -0.4731431    -0.5783284   -0.4630341    -0.4054597    0.3880892 
   6.130073801    -0.4554626    0.4102324    -0.5590324   -0.4757049    -0.5764366   -0.4653021    -0.4034937    0.3964527 
