! MS46122B
! 1919307/90821646
! 7/29/2022 2:24:56 PM
! C:\USERS\PC_\DESKTOP\MEDICIONES\BANCHA ESTRECHA\65_7GHZ\S11_S21_ABS3_502CL.S2P
! CHANNEL.1
! TR.MEASUREMENT
! CORRECTED.DATA
# GHZ S RI R 50.0
! FREQ.GHZ         S11RE         S11IM         S21RE         S21IM         S12RE         S12IM         S22RE         S22IM         
!; PortSelection: Port_12
   6.500000000    -0.3730161   -0.0135171     0.2670437   -0.8848155     0.2690722   -0.8797498    -0.3771065   -0.0671193 
   6.502500000    -0.3700842   -0.0207322     0.2618044   -0.8862383     0.2687130   -0.8799219    -0.3764969   -0.0690057 
   6.505000000    -0.3700028   -0.0224590     0.2608104   -0.8859685     0.2683204   -0.8800313    -0.3759286   -0.0698557 
   6.507500000    -0.3700324   -0.0241921     0.2602399   -0.8869812     0.2681434   -0.8798870    -0.3758296   -0.0709657 
   6.510000000    -0.3702086   -0.0256057     0.2583954   -0.8866125     0.2675196   -0.8798248    -0.3750419   -0.0725685 
   6.512500000    -0.3703529   -0.0269821     0.2585686   -0.8862285     0.2665612   -0.8798672    -0.3742934   -0.0740178 
   6.515000000    -0.3703926   -0.0281189     0.2582956   -0.8863512     0.2661759   -0.8796312    -0.3734896   -0.0752394 
   6.517500000    -0.3704513   -0.0293716     0.2580701   -0.8866831     0.2661739   -0.8803142    -0.3724840   -0.0765054 
   6.520000000    -0.3706904   -0.0307694     0.2570013   -0.8872403     0.2654243   -0.8807234    -0.3714768   -0.0777051 
   6.522500000    -0.3707533   -0.0320570     0.2573293   -0.8870815     0.2655000   -0.8806489    -0.3704936   -0.0782056 
   6.525000000    -0.3709026   -0.0333222     0.2559155   -0.8870461     0.2648765   -0.8811287    -0.3698264   -0.0794966 
   6.527500000    -0.3708528   -0.0346200     0.2550260   -0.8870133     0.2644339   -0.8809044    -0.3688567   -0.0809958 
   6.530000000    -0.3707074   -0.0357477     0.2552314   -0.8870832     0.2649964   -0.8812761    -0.3680396   -0.0824068 
   6.532500000    -0.3711280   -0.0368011     0.2551511   -0.8884447     0.2637427   -0.8819053    -0.3674435   -0.0837490 
   6.535000000    -0.3711761   -0.0382929     0.2545497   -0.8896172     0.2636736   -0.8825078    -0.3666574   -0.0850864 
   6.537500000    -0.3711448   -0.0397445     0.2536586   -0.8896623     0.2632152   -0.8833275    -0.3656682   -0.0854147 
   6.540000000    -0.3708548   -0.0410052     0.2529759   -0.8896388     0.2630385   -0.8838164    -0.3647094   -0.0864362 
   6.542500000    -0.3705114   -0.0419761     0.2523502   -0.8901639     0.2623809   -0.8846790    -0.3638692   -0.0871999 
   6.545000000    -0.3702756   -0.0432245     0.2516554   -0.8915712     0.2620432   -0.8851007    -0.3629799   -0.0880482 
   6.547500000    -0.3702174   -0.0446676     0.2510648   -0.8925064     0.2614948   -0.8858999    -0.3621983   -0.0888556 
   6.550000000    -0.3702377   -0.0461087     0.2510080   -0.8934550     0.2606570   -0.8867075    -0.3614293   -0.0893431 
   6.552500000    -0.3702040   -0.0472498     0.2495318   -0.8944299     0.2599823   -0.8874700    -0.3608880   -0.0892818 
   6.555000000    -0.3698303   -0.0485547     0.2482464   -0.8939542     0.2592925   -0.8881018    -0.3601336   -0.0896039 
   6.557500000    -0.3696035   -0.0499620     0.2475140   -0.8944235     0.2580756   -0.8888912    -0.3594462   -0.0898848 
   6.560000000    -0.3694886   -0.0514666     0.2463701   -0.8958006     0.2571988   -0.8898039    -0.3586801   -0.0900337 
   6.562500000    -0.3693983   -0.0528643     0.2453375   -0.8968047     0.2564186   -0.8906611    -0.3581442   -0.0895817 
   6.565000000    -0.3690612   -0.0541071     0.2443499   -0.8974159     0.2556639   -0.8913341    -0.3576065   -0.0897597 
   6.567500000    -0.3687286   -0.0550487     0.2429800   -0.8977720     0.2542097   -0.8920624    -0.3572663   -0.0897939 
   6.570000000    -0.3686637   -0.0558804     0.2419167   -0.8981091     0.2530058   -0.8924773    -0.3571663   -0.0897784 
   6.572500000    -0.3685549   -0.0575127     0.2408653   -0.8981473     0.2514842   -0.8937262    -0.3567316   -0.0903935 
   6.575000000    -0.3685466   -0.0593634     0.2399303   -0.8988807     0.2503578   -0.8943808    -0.3557802   -0.0911715 
   6.577500000    -0.3682603   -0.0608815     0.2389906   -0.8992035     0.2494470   -0.8954359    -0.3553973   -0.0915205 
   6.580000000    -0.3680060   -0.0615783     0.2366575   -0.8991292     0.2481818   -0.8959364    -0.3550915   -0.0918966 
   6.582500000    -0.3678818   -0.0627115     0.2355112   -0.8989875     0.2464281   -0.8962634    -0.3550676   -0.0915792 
   6.585000000    -0.3678876   -0.0640307     0.2344207   -0.8994380     0.2451566   -0.8962795    -0.3552086   -0.0910530 
   6.587500000    -0.3676702   -0.0655489     0.2335982   -0.8994792     0.2441861   -0.8971502    -0.3546114   -0.0912784 
   6.590000000    -0.3676673   -0.0666544     0.2320936   -0.9001815     0.2428647   -0.8976104    -0.3550107   -0.0915300 
   6.592500000    -0.3683168   -0.0679616     0.2316329   -0.9000393     0.2418254   -0.8981701    -0.3546892   -0.0920632 
   6.595000000    -0.3684805   -0.0694675     0.2298438   -0.8997283     0.2406458   -0.8979778    -0.3547857   -0.0920765 
   6.597500000    -0.3684445   -0.0707068     0.2289003   -0.8995785     0.2389385   -0.8978575    -0.3551823   -0.0911348 
   6.600000000    -0.3686197   -0.0721000     0.2277453   -0.8995143     0.2379182   -0.8977383    -0.3552481   -0.0910960 
   6.602500000    -0.3693268   -0.0731818     0.2270562   -0.8997681     0.2369305   -0.8976375    -0.3556699   -0.0912232 
   6.605000000    -0.3694886   -0.0746848     0.2260155   -0.9006221     0.2356772   -0.8976915    -0.3559148   -0.0919390 
   6.607500000    -0.3698607   -0.0759535     0.2239988   -0.8998378     0.2345232   -0.8981291    -0.3565298   -0.0920456 
   6.610000000    -0.3701755   -0.0772859     0.2237141   -0.8994852     0.2330359   -0.8977919    -0.3567115   -0.0929211 
   6.612500000    -0.3707632   -0.0788398     0.2227741   -0.8993993     0.2317485   -0.8973503    -0.3568527   -0.0935705 
   6.615000000    -0.3713724   -0.0801450     0.2224990   -0.8992859     0.2308971   -0.8973059    -0.3574823   -0.0942724 
   6.617500000    -0.3722998   -0.0809720     0.2211721   -0.9000944     0.2297146   -0.8974484    -0.3577793   -0.0953039 
   6.620000000    -0.3728566   -0.0822861     0.2206023   -0.9006530     0.2285539   -0.8974136    -0.3579286   -0.0953643 
   6.622500000    -0.3736457   -0.0835280     0.2189173   -0.8996890     0.2275838   -0.8977886    -0.3588497   -0.0963608 
   6.625000000    -0.3743548   -0.0850786     0.2183453   -0.8994824     0.2274104   -0.8978550    -0.3593038   -0.0977163 
   6.627500000    -0.3750536   -0.0863131     0.2185373   -0.8989850     0.2257504   -0.8974822    -0.3596701   -0.0991038 
   6.630000000    -0.3758368   -0.0870817     0.2174225   -0.8998451     0.2251009   -0.8975812    -0.3600721   -0.1007409 
   6.632500000    -0.3765869   -0.0879685     0.2168095   -0.8998471     0.2247048   -0.8974152    -0.3603981   -0.1021438 
   6.635000000    -0.3778667   -0.0886833     0.2161921   -0.8994924     0.2236068   -0.8979837    -0.3607730   -0.1036136 
   6.637500000    -0.3787053   -0.0896901     0.2152540   -0.8997316     0.2230275   -0.8982831    -0.3610824   -0.1052963 
   6.640000000    -0.3794071   -0.0907930     0.2140604   -0.8985949     0.2223990   -0.8979473    -0.3612618   -0.1065698 
   6.642500000    -0.3800834   -0.0917951     0.2137695   -0.8984348     0.2215111   -0.8981336    -0.3616277   -0.1083693 
   6.645000000    -0.3807868   -0.0924199     0.2125675   -0.8990576     0.2207724   -0.8977805    -0.3625527   -0.1101980 
   6.647500000    -0.3814901   -0.0930821     0.2115110   -0.8991363     0.2201900   -0.8979783    -0.3627937   -0.1122247 
   6.650000000    -0.3822379   -0.0933122     0.2106312   -0.8987586     0.2197471   -0.8980029    -0.3627716   -0.1140997 
   6.652500000    -0.3828958   -0.0939675     0.2088712   -0.8983192     0.2184711   -0.8982117    -0.3626275   -0.1159874 
   6.655000000    -0.3837626   -0.0943572     0.2088140   -0.8978143     0.2172411   -0.8979347    -0.3627099   -0.1177943 
   6.657500000    -0.3842974   -0.0947905     0.2078394   -0.8983141     0.2164350   -0.8975691    -0.3629432   -0.1194581 
   6.660000000    -0.3846439   -0.0952428     0.2068574   -0.8983735     0.2158210   -0.8973129    -0.3628114   -0.1214052 
   6.662500000    -0.3846802   -0.0955327     0.2064796   -0.8983055     0.2154331   -0.8969600    -0.3630956   -0.1230746 
   6.665000000    -0.3848560   -0.0952648     0.2050516   -0.8979983     0.2143215   -0.8973479    -0.3630867   -0.1250989 
   6.667500000    -0.3849807   -0.0953971     0.2046707   -0.8967392     0.2135811   -0.8969843    -0.3624736   -0.1269132 
   6.670000000    -0.3850777   -0.0955203     0.2038047   -0.8963563     0.2127911   -0.8966623    -0.3621745   -0.1278156 
   6.672500000    -0.3858028   -0.0952083     0.2037610   -0.8964474     0.2113729   -0.8964688    -0.3619089   -0.1291206 
   6.675000000    -0.3858935   -0.0947877     0.2027760   -0.8966374     0.2108353   -0.8962320    -0.3618116   -0.1306306 
   6.677500000    -0.3860607   -0.0941225     0.2026790   -0.8960690     0.2103646   -0.8957885    -0.3616209   -0.1318566 
   6.680000000    -0.3859904   -0.0936921     0.2013401   -0.8958529     0.2098112   -0.8963363    -0.3621707   -0.1320657 
   6.682500000    -0.3859952   -0.0932945     0.2010731   -0.8950065     0.2089071   -0.8957937    -0.3617815   -0.1331921 
   6.685000000    -0.3858570   -0.0927638     0.2011343   -0.8941560     0.2078500   -0.8956939    -0.3616291   -0.1338753 
   6.687500000    -0.3864387   -0.0914005     0.2007921   -0.8942410     0.2071726   -0.8952196    -0.3612552   -0.1341817 
   6.690000000    -0.3866631   -0.0906334     0.2000948   -0.8948690     0.2064764   -0.8952447    -0.3610676   -0.1335720 
   6.692500000    -0.3867872   -0.0895675     0.1992532   -0.8939644     0.2062372   -0.8948157    -0.3615554   -0.1337848 
   6.695000000    -0.3866331   -0.0883515     0.1989690   -0.8929695     0.2060958   -0.8943791    -0.3617535   -0.1340187 
   6.697500000    -0.3865772   -0.0870269     0.1986597   -0.8922815     0.2052264   -0.8940856    -0.3616485   -0.1340657 
   6.700000000    -0.3873062   -0.0860057     0.1979863   -0.8918700     0.2038327   -0.8939492    -0.3610035   -0.1328179 
   6.702500000    -0.3878112   -0.0848361     0.1978061   -0.8912654     0.2029810   -0.8935313    -0.3616866   -0.1314683 
   6.705000000    -0.3881475   -0.0836314     0.1974297   -0.8920931     0.2028883   -0.8928891    -0.3614335   -0.1306230 
   6.707500000    -0.3885146   -0.0816536     0.1960031   -0.8909034     0.2024460   -0.8924272    -0.3610515   -0.1295406 
   6.710000000    -0.3891026   -0.0800991     0.1963040   -0.8895854     0.2017498   -0.8916059    -0.3602758   -0.1276185 
   6.712500000    -0.3896922   -0.0776400     0.1960972   -0.8884527     0.2019146   -0.8909572    -0.3591662   -0.1261599 
   6.715000000    -0.3894511   -0.0753555     0.1972370   -0.8893259     0.2026394   -0.8898613    -0.3574950   -0.1257937 
   6.717500000    -0.3892625   -0.0737539     0.1971446   -0.8892934     0.2030055   -0.8903407    -0.3566267   -0.1255635 
   6.720000000    -0.3888383   -0.0719506     0.1979656   -0.8900449     0.2032512   -0.8907747    -0.3567658   -0.1258111 
   6.722500000    -0.3888903   -0.0713114     0.1968964   -0.8910667     0.2031417   -0.8913574    -0.3575338   -0.1258220 
   6.725000000    -0.3891454   -0.0703869     0.1965337   -0.8912258     0.2026060   -0.8917794    -0.3582613   -0.1252104 
   6.727500000    -0.3895976   -0.0696715     0.1959599   -0.8912938     0.2015404   -0.8926348    -0.3596539   -0.1236862 
   6.730000000    -0.3901129   -0.0689842     0.1956930   -0.8917335     0.2011555   -0.8923240    -0.3602085   -0.1224696 
   6.732500000    -0.3908203   -0.0679586     0.1945360   -0.8921950     0.2001529   -0.8924516    -0.3609080   -0.1212146 
   6.735000000    -0.3913622   -0.0672648     0.1942683   -0.8920602     0.1994171   -0.8921738    -0.3610745   -0.1195919 
   6.737500000    -0.3919388   -0.0665371     0.1928229   -0.8916923     0.1986487   -0.8917314    -0.3617073   -0.1185601 
   6.740000000    -0.3925441   -0.0659076     0.1926473   -0.8920319     0.1977409   -0.8921026    -0.3619293   -0.1177643 
   6.742500000    -0.3933692   -0.0652595     0.1922449   -0.8914423     0.1972599   -0.8920542    -0.3624205   -0.1170056 
   6.745000000    -0.3942675   -0.0647297     0.1910293   -0.8923320     0.1958833   -0.8921063    -0.3637033   -0.1159832 
   6.747500000    -0.3953389   -0.0640208     0.1912770   -0.8916388     0.1954660   -0.8918018    -0.3639786   -0.1155801 
   6.750000000    -0.3959599   -0.0636477     0.1896527   -0.8912861     0.1952942   -0.8916432    -0.3642338   -0.1150443 
   6.752500000    -0.3965447   -0.0634617     0.1895962   -0.8904144     0.1947050   -0.8907121    -0.3641801   -0.1149100 
   6.755000000    -0.3971226   -0.0633150     0.1890956   -0.8898911     0.1939404   -0.8912779    -0.3640711   -0.1147679 
   6.757500000    -0.3977146   -0.0633424     0.1889409   -0.8905042     0.1935776   -0.8905907    -0.3640575   -0.1141288 
   6.760000000    -0.3982069   -0.0628925     0.1883282   -0.8900245     0.1926025   -0.8898192    -0.3639316   -0.1144065 
   6.762500000    -0.3986025   -0.0628652     0.1877787   -0.8894552     0.1923608   -0.8895199    -0.3648435   -0.1147631 
   6.765000000    -0.3997249   -0.0625773     0.1877449   -0.8884425     0.1924377   -0.8888403    -0.3647933   -0.1156633 
   6.767500000    -0.4000329   -0.0626652     0.1872248   -0.8879961     0.1925044   -0.8883210    -0.3647348   -0.1166451 
   6.770000000    -0.4000813   -0.0630921     0.1877567   -0.8872655     0.1919179   -0.8881361    -0.3646197   -0.1175190 
   6.772500000    -0.3999883   -0.0638623     0.1872900   -0.8878922     0.1910601   -0.8878983    -0.3639761   -0.1185000 
   6.775000000    -0.4001384   -0.0643485     0.1878377   -0.8879153     0.1911999   -0.8871098    -0.3638104   -0.1190157 
   6.777500000    -0.4000849   -0.0645677     0.1872566   -0.8864989     0.1917613   -0.8866720    -0.3639514   -0.1204222 
   6.780000000    -0.4000669   -0.0652889     0.1875806   -0.8861558     0.1917304   -0.8860406    -0.3639041   -0.1223225 
   6.782500000    -0.4004309   -0.0657325     0.1884358   -0.8857211     0.1916915   -0.8854175    -0.3632495   -0.1240608 
   6.785000000    -0.4004428   -0.0662358     0.1886998   -0.8854388     0.1923485   -0.8855007    -0.3625368   -0.1259816 
   6.787500000    -0.4003004   -0.0670235     0.1895540   -0.8853600     0.1924876   -0.8853903    -0.3620911   -0.1271413 
   6.790000000    -0.4002168   -0.0678234     0.1899680   -0.8857802     0.1926628   -0.8854449    -0.3615229   -0.1292221 
   6.792500000    -0.3998694   -0.0675816     0.1897850   -0.8863497     0.1929270   -0.8856475    -0.3614913   -0.1311654 
   6.795000000    -0.3999223   -0.0678980     0.1906788   -0.8861059     0.1933706   -0.8855080    -0.3613402   -0.1331608 
   6.797500000    -0.4003461   -0.0680473     0.1914890   -0.8864067     0.1943469   -0.8853927    -0.3611919   -0.1353655 
   6.800000000    -0.4005943   -0.0681064     0.1924655   -0.8864294     0.1948560   -0.8858243    -0.3609605   -0.1364918 
   6.802500000    -0.4005691   -0.0679713     0.1930740   -0.8862172     0.1955042   -0.8864406    -0.3607910   -0.1385001 
   6.805000000    -0.4004025   -0.0678088     0.1932008   -0.8871255     0.1957376   -0.8874649    -0.3605759   -0.1400852 
   6.807500000    -0.4002771   -0.0666445     0.1928578   -0.8884072     0.1954463   -0.8879460    -0.3611401   -0.1409313 
   6.810000000    -0.4003899   -0.0657975     0.1935139   -0.8894162     0.1954814   -0.8886431    -0.3608440   -0.1410473 
   6.812500000    -0.4009685   -0.0645736     0.1939752   -0.8901101     0.1954564   -0.8896679    -0.3609703   -0.1419420 
   6.815000000    -0.4013403   -0.0636221     0.1942488   -0.8907755     0.1961250   -0.8899744    -0.3607971   -0.1425621 
   6.817500000    -0.4007323   -0.0625632     0.1949243   -0.8914786     0.1958876   -0.8911670    -0.3615136   -0.1424742 
   6.820000000    -0.3998207   -0.0606458     0.1939906   -0.8928410     0.1954509   -0.8924870    -0.3611990   -0.1425144 
   6.822500000    -0.3995456   -0.0589373     0.1931645   -0.8942363     0.1950824   -0.8935696    -0.3607080   -0.1420790 
   6.825000000    -0.3997473   -0.0570884     0.1925064   -0.8953410     0.1949803   -0.8950508    -0.3602826   -0.1418483 
   6.827500000    -0.3998677   -0.0555099     0.1928795   -0.8965403     0.1946435   -0.8961769    -0.3598659   -0.1416600 
   6.830000000    -0.3989902   -0.0530526     0.1927015   -0.8966087     0.1942456   -0.8966699    -0.3596936   -0.1402889 
   6.832500000    -0.3976190   -0.0512749     0.1923227   -0.8978501     0.1942391   -0.8970328    -0.3585426   -0.1391593 
   6.835000000    -0.3968495   -0.0493523     0.1916350   -0.8993906     0.1931113   -0.8989171    -0.3579776   -0.1384568 
   6.837500000    -0.3963773   -0.0470629     0.1898796   -0.9004582     0.1913745   -0.8994982    -0.3575102   -0.1375099 
   6.840000000    -0.3952920   -0.0445968     0.1887844   -0.9006254     0.1904965   -0.9000787    -0.3569628   -0.1363566 
   6.842500000    -0.3941658   -0.0429429     0.1876050   -0.9013473     0.1896382   -0.9006945    -0.3562106   -0.1354172 
   6.845000000    -0.3934827   -0.0411295     0.1866940   -0.9023246     0.1882582   -0.9006960    -0.3556670   -0.1334671 
   6.847500000    -0.3925762   -0.0392465     0.1855481   -0.9025337     0.1869868   -0.9018362    -0.3554753   -0.1324475 
   6.850000000    -0.3913969   -0.0374081     0.1855061   -0.9026186     0.1861751   -0.9020337    -0.3550116   -0.1312643 
   6.852500000    -0.3908163   -0.0358939     0.1834822   -0.9027497     0.1845834   -0.9020605    -0.3550680   -0.1298740 
   6.855000000    -0.3896129   -0.0343952     0.1817470   -0.9026957     0.1835923   -0.9020879    -0.3548295   -0.1287389 
   6.857500000    -0.3884045   -0.0334478     0.1808557   -0.9029864     0.1828778   -0.9019678    -0.3542322   -0.1277365 
   6.860000000    -0.3875405   -0.0322520     0.1798102   -0.9036345     0.1816920   -0.9024353    -0.3541235   -0.1266031 
   6.862500000    -0.3866079   -0.0315230     0.1791131   -0.9033598     0.1806931   -0.9022459    -0.3537741   -0.1251154 
   6.865000000    -0.3856924   -0.0305205     0.1778794   -0.9026994     0.1796493   -0.9019884    -0.3534278   -0.1235436 
   6.867500000    -0.3847189   -0.0297510     0.1771941   -0.9018121     0.1784476   -0.9012100    -0.3530693   -0.1221914 
   6.870000000    -0.3836664   -0.0291606     0.1764528   -0.9012662     0.1781633   -0.9005427    -0.3528180   -0.1209420 
   6.872500000    -0.3829106   -0.0283502     0.1756001   -0.9013497     0.1771691   -0.9003655    -0.3530825   -0.1197119 
   6.875000000    -0.3821625   -0.0285901     0.1754118   -0.9010921     0.1766556   -0.8996409    -0.3529454   -0.1186756 
   6.877500000    -0.3812494   -0.0285640     0.1752080   -0.9011225     0.1770077   -0.8992538    -0.3526487   -0.1178425 
   6.880000000    -0.3804065   -0.0287097     0.1749759   -0.9007514     0.1757478   -0.8987787    -0.3520913   -0.1170008 
   6.882500000    -0.3794731   -0.0288639     0.1749097   -0.9003510     0.1756869   -0.8984558    -0.3514671   -0.1166080 
   6.885000000    -0.3784327   -0.0292277     0.1752519   -0.9003643     0.1754970   -0.8982791    -0.3508483   -0.1164630 
   6.887500000    -0.3771294   -0.0296818     0.1748990   -0.9007322     0.1758222   -0.8976676    -0.3511490   -0.1162583 
   6.890000000    -0.3756873   -0.0305210     0.1750374   -0.9005650     0.1754029   -0.8977683    -0.3507626   -0.1160423 
