! MS46122B
! 1919307/90821646
! 7/29/2022 2:06:13 PM
! C:\USERS\PC_\DESKTOP\MEDICIONES\BANCHA ESTRECHA\6_65_GHZ\S11_S21_ABS3_1002CL.S2P
! CHANNEL.1
! TR.MEASUREMENT
! CORRECTED.DATA
# GHZ S RI R 50.0
! FREQ.GHZ         S11RE         S11IM         S21RE         S21IM         S12RE         S12IM         S22RE         S22IM         
!; PortSelection: Port_12
   6.000000000    -0.5300040   -0.1444755     0.0521109   -0.8482763     0.0574843   -0.8424159    -0.4966788   -0.1323242 
   6.002500000    -0.5358900   -0.1421053     0.0509132   -0.8459246     0.0566209   -0.8412786    -0.4981379   -0.1325939 
   6.005000000    -0.5390020   -0.1426492     0.0482388   -0.8459977     0.0543481   -0.8407464    -0.4993454   -0.1330730 
   6.007500000    -0.5417069   -0.1436573     0.0468941   -0.8451136     0.0516181   -0.8405463    -0.5005835   -0.1334282 
   6.010000000    -0.5442616   -0.1450415     0.0438116   -0.8437231     0.0497087   -0.8398793    -0.5016106   -0.1340519 
   6.012500000    -0.5472794   -0.1465937     0.0422857   -0.8430588     0.0474996   -0.8391906    -0.5035387   -0.1340009 
   6.015000000    -0.5497423   -0.1482196     0.0404724   -0.8419069     0.0445179   -0.8386054    -0.5049303   -0.1340854 
   6.017500000    -0.5523670   -0.1492605     0.0389887   -0.8414902     0.0423788   -0.8379485    -0.5067972   -0.1340477 
   6.020000000    -0.5549570   -0.1502210     0.0367196   -0.8413359     0.0396020   -0.8369294    -0.5078066   -0.1340875 
   6.022500000    -0.5577157   -0.1510914     0.0338196   -0.8393417     0.0374876   -0.8364985    -0.5091949   -0.1333743 
   6.025000000    -0.5607406   -0.1520221     0.0327645   -0.8380672     0.0349455   -0.8353377    -0.5105549   -0.1336496 
   6.027500000    -0.5636788   -0.1530368     0.0306993   -0.8367846     0.0325433   -0.8338289    -0.5115786   -0.1335205 
   6.030000000    -0.5663460   -0.1543222     0.0294149   -0.8351872     0.0307074   -0.8323967    -0.5128369   -0.1331962 
   6.032500000    -0.5690395   -0.1550398     0.0275128   -0.8343486     0.0289057   -0.8314616    -0.5140537   -0.1328427 
   6.035000000    -0.5719389   -0.1554576     0.0254243   -0.8334286     0.0271453   -0.8296747    -0.5156345   -0.1326826 
   6.037500000    -0.5746515   -0.1562127     0.0235283   -0.8318345     0.0248302   -0.8278803    -0.5171152   -0.1320959 
   6.040000000    -0.5773262   -0.1568947     0.0220460   -0.8297715     0.0237314   -0.8258704    -0.5188937   -0.1325080 
   6.042500000    -0.5799584   -0.1576860     0.0214090   -0.8275366     0.0216279   -0.8238244    -0.5206191   -0.1328138 
   6.045000000    -0.5821399   -0.1575268     0.0200580   -0.8254852     0.0183442   -0.8211608    -0.5216799   -0.1331712 
   6.047500000    -0.5850800   -0.1579406     0.0187734   -0.8234417     0.0168253   -0.8196793    -0.5229505   -0.1334451 
   6.050000000    -0.5875196   -0.1592348     0.0158014   -0.8215532     0.0166566   -0.8170477    -0.5247990   -0.1343768 
   6.052500000    -0.5904445   -0.1593913     0.0143180   -0.8197792     0.0146650   -0.8145029    -0.5265337   -0.1352272 
   6.055000000    -0.5923465   -0.1588890     0.0117286   -0.8188890     0.0129375   -0.8124592    -0.5279836   -0.1352604 
   6.057500000    -0.5947943   -0.1587091     0.0100295   -0.8168831     0.0113751   -0.8101801    -0.5296909   -0.1360243 
   6.060000000    -0.5970362   -0.1587031     0.0089651   -0.8146356     0.0093749   -0.8078665    -0.5311129   -0.1364986 
   6.062500000    -0.5987426   -0.1587865     0.0059042   -0.8131648     0.0080025   -0.8051802    -0.5319993   -0.1374797 
   6.065000000    -0.6001507   -0.1588952     0.0047460   -0.8113286     0.0069994   -0.8029222    -0.5332831   -0.1376650 
   6.067500000    -0.6017976   -0.1581164     0.0033668   -0.8096105     0.0053575   -0.8010574    -0.5336074   -0.1381508 
   6.070000000    -0.6035116   -0.1583132     0.0016054   -0.8071355     0.0038336   -0.7985312    -0.5346427   -0.1389918 
   6.072500000    -0.6048793   -0.1584610     0.0004666   -0.8047770     0.0021943   -0.7952814    -0.5353526   -0.1405211 
   6.075000000    -0.6065323   -0.1584756    -0.0002990   -0.8015509     0.0011889   -0.7920921    -0.5365224   -0.1418509 
   6.077500000    -0.6086543   -0.1588069    -0.0016129   -0.7991152     0.0011253   -0.7896928    -0.5381427   -0.1428798 
   6.080000000    -0.6106200   -0.1581413    -0.0022426   -0.7970003     0.0009268   -0.7871550    -0.5393340   -0.1427338 
   6.082500000    -0.6121987   -0.1566367    -0.0021253   -0.7951168     0.0003009   -0.7854308    -0.5409063   -0.1420307 
   6.085000000    -0.6131985   -0.1554778    -0.0027557   -0.7935816    -0.0000465   -0.7836322    -0.5417576   -0.1421399 
   6.087500000    -0.6139194   -0.1543500    -0.0040306   -0.7914814    -0.0010413   -0.7815990    -0.5419909   -0.1417927 
   6.090000000    -0.6142071   -0.1536881    -0.0055839   -0.7885875    -0.0026156   -0.7782360    -0.5407168   -0.1419480 
   6.092500000    -0.6147662   -0.1535074    -0.0082111   -0.7848251    -0.0040544   -0.7746906    -0.5395843   -0.1429649 
   6.095000000    -0.6157870   -0.1539887    -0.0093614   -0.7800864    -0.0050040   -0.7701368    -0.5384129   -0.1450483 
   6.097500000    -0.6172445   -0.1548081    -0.0101331   -0.7740648    -0.0055785   -0.7643490    -0.5374677   -0.1491181 
   6.100000000    -0.6209155   -0.1546823    -0.0084425   -0.7674913    -0.0040150   -0.7574378    -0.5385124   -0.1550089 
   6.102500000    -0.6253710   -0.1543275    -0.0043299   -0.7618486     0.0001213   -0.7513643    -0.5431096   -0.1613627 
   6.105000000    -0.6303837   -0.1517837     0.0013299   -0.7577487     0.0055134   -0.7472382    -0.5504295   -0.1656872 
   6.107500000    -0.6348482   -0.1474412     0.0056066   -0.7560511     0.0109940   -0.7455425    -0.5591992   -0.1670705 
   6.110000000    -0.6376507   -0.1415698     0.0119457   -0.7561584     0.0142430   -0.7456141    -0.5677144   -0.1648738 
   6.112500000    -0.6396734   -0.1371679     0.0121056   -0.7578884     0.0199221   -0.7472295    -0.5747862   -0.1609762 
   6.115000000    -0.6408074   -0.1320577     0.0144696   -0.7588152     0.0209938   -0.7482599    -0.5803775   -0.1577542 
   6.117500000    -0.6410473   -0.1278194     0.0163181   -0.7592079     0.0216359   -0.7490560    -0.5845699   -0.1531598 
   6.120000000    -0.6412435   -0.1242695     0.0162585   -0.7603180     0.0229004   -0.7495092    -0.5880679   -0.1492668 
   6.122500000    -0.6411699   -0.1209145     0.0168772   -0.7605463     0.0234683   -0.7499617    -0.5910279   -0.1453516 
   6.125000000    -0.6409844   -0.1174804     0.0169069   -0.7614269     0.0239596   -0.7500697    -0.5939142   -0.1414018 
   6.127500000    -0.6407115   -0.1136391     0.0173132   -0.7614849     0.0239280   -0.7504492    -0.5963430   -0.1372892 
   6.130000000    -0.6406605   -0.1108649     0.0174256   -0.7613500     0.0242134   -0.7504563    -0.5984799   -0.1338009 
   6.132500000    -0.6404819   -0.1081816     0.0178790   -0.7608224     0.0246921   -0.7498916    -0.6003989   -0.1306883 
   6.135000000    -0.6405583   -0.1059675     0.0181193   -0.7598830     0.0250315   -0.7494261    -0.6022007   -0.1274022 
   6.137500000    -0.6403152   -0.1037924     0.0176615   -0.7598156     0.0258555   -0.7488210    -0.6039900   -0.1241753 
   6.140000000    -0.6402808   -0.1008054     0.0187051   -0.7590976     0.0260893   -0.7479337    -0.6060206   -0.1203509 
   6.142500000    -0.6403635   -0.0985967     0.0190071   -0.7582726     0.0264365   -0.7473190    -0.6074210   -0.1170965 
   6.145000000    -0.6402184   -0.0965654     0.0199699   -0.7571254     0.0268971   -0.7466038    -0.6091057   -0.1141319 
   6.147500000    -0.6405185   -0.0944224     0.0205875   -0.7563403     0.0272994   -0.7458435    -0.6110551   -0.1110920 
   6.150000000    -0.6407285   -0.0924987     0.0202012   -0.7558094     0.0277905   -0.7444403    -0.6122860   -0.1086512 
   6.152500000    -0.6412905   -0.0900062     0.0202512   -0.7548755     0.0279976   -0.7435737    -0.6138664   -0.1056870 
   6.155000000    -0.6416394   -0.0880098     0.0206053   -0.7540707     0.0287537   -0.7428656    -0.6157155   -0.1016873 
   6.157500000    -0.6420376   -0.0861807     0.0208824   -0.7525433     0.0285986   -0.7417414    -0.6175124   -0.0992461 
   6.160000000    -0.6427503   -0.0846549     0.0215326   -0.7515254     0.0293467   -0.7406511    -0.6188893   -0.0967976 
   6.162500000    -0.6433260   -0.0828514     0.0214120   -0.7500787     0.0296931   -0.7396704    -0.6200453   -0.0943378 
   6.165000000    -0.6441679   -0.0814567     0.0209577   -0.7499911     0.0301375   -0.7386633    -0.6215922   -0.0926148 
   6.167500000    -0.6450609   -0.0794467     0.0216314   -0.7491192     0.0307683   -0.7373654    -0.6226265   -0.0904736 
   6.170000000    -0.6459476   -0.0779928     0.0217654   -0.7483429     0.0310636   -0.7364976    -0.6240035   -0.0877015 
   6.172500000    -0.6468864   -0.0766649     0.0221239   -0.7474117     0.0315831   -0.7365330    -0.6253909   -0.0856788 
   6.175000000    -0.6476527   -0.0752572     0.0224277   -0.7461296     0.0322184   -0.7355194    -0.6265919   -0.0841152 
   6.177500000    -0.6487229   -0.0739558     0.0218734   -0.7458223     0.0324277   -0.7347414    -0.6277158   -0.0821961 
   6.180000000    -0.6493915   -0.0728298     0.0228575   -0.7448497     0.0331933   -0.7339654    -0.6283069   -0.0808175 
   6.182500000    -0.6501902   -0.0707701     0.0233109   -0.7441574     0.0345897   -0.7334645    -0.6295453   -0.0792188 
   6.185000000    -0.6508350   -0.0696486     0.0245399   -0.7430571     0.0354785   -0.7323276    -0.6300958   -0.0776429 
   6.187500000    -0.6513701   -0.0681642     0.0249450   -0.7420737     0.0359276   -0.7321444    -0.6305954   -0.0764067 
   6.190000000    -0.6519164   -0.0668539     0.0249829   -0.7415583     0.0365798   -0.7312132    -0.6311518   -0.0747743 
   6.192500000    -0.6521769   -0.0653365     0.0262809   -0.7399902     0.0378846   -0.7303542    -0.6315784   -0.0742464 
   6.195000000    -0.6522067   -0.0642814     0.0273995   -0.7390974     0.0390393   -0.7293193    -0.6318790   -0.0732554 
   6.197500000    -0.6522719   -0.0618954     0.0283625   -0.7377778     0.0406634   -0.7283641    -0.6322025   -0.0718524 
   6.200000000    -0.6525117   -0.0606419     0.0294211   -0.7367652     0.0420710   -0.7275341    -0.6324225   -0.0711771 
   6.202500000    -0.6528588   -0.0596197     0.0310496   -0.7355098     0.0428822   -0.7264576    -0.6324192   -0.0707772 
   6.205000000    -0.6529269   -0.0578804     0.0304349   -0.7351151     0.0440731   -0.7263175    -0.6327530   -0.0699965 
   6.207500000    -0.6523103   -0.0560177     0.0320023   -0.7345673     0.0452547   -0.7256222    -0.6327565   -0.0690522 
   6.210000000    -0.6518918   -0.0539755     0.0334679   -0.7332875     0.0467600   -0.7255420    -0.6332076   -0.0681988 
   6.212500000    -0.6523461   -0.0517209     0.0344919   -0.7329324     0.0480883   -0.7248021    -0.6337118   -0.0666054 
   6.215000000    -0.6543323   -0.0504830     0.0362137   -0.7322608     0.0493441   -0.7240185    -0.6338888   -0.0664412 
   6.217500000    -0.6550229   -0.0487609     0.0376162   -0.7318418     0.0509166   -0.7239661    -0.6341971   -0.0657211 
   6.220000000    -0.6528401   -0.0472584     0.0383942   -0.7315809     0.0521616   -0.7238042    -0.6345242   -0.0647660 
   6.222500000    -0.6503705   -0.0443932     0.0399658   -0.7314300     0.0537852   -0.7234796    -0.6350749   -0.0642763 
   6.225000000    -0.6507263   -0.0416553     0.0421792   -0.7317817     0.0553464   -0.7237784    -0.6361453   -0.0626976 
   6.227500000    -0.6518344   -0.0405700     0.0435423   -0.7312950     0.0568707   -0.7238376    -0.6368077   -0.0611012 
   6.230000000    -0.6515999   -0.0394643     0.0453404   -0.7317513     0.0586351   -0.7245269    -0.6385769   -0.0603507 
   6.232500000    -0.6516525   -0.0369619     0.0474429   -0.7316410     0.0600459   -0.7243985    -0.6394162   -0.0593215 
   6.235000000    -0.6512764   -0.0344297     0.0484380   -0.7320139     0.0613993   -0.7249836    -0.6404172   -0.0582533 
   6.237500000    -0.6499567   -0.0318175     0.0499606   -0.7324204     0.0626805   -0.7259242    -0.6413726   -0.0570058 
   6.240000000    -0.6498561   -0.0292398     0.0517691   -0.7331469     0.0645585   -0.7264277    -0.6425371   -0.0547748 
   6.242500000    -0.6496953   -0.0264638     0.0531991   -0.7334016     0.0656462   -0.7271455    -0.6433295   -0.0524330 
   6.245000000    -0.6492956   -0.0235773     0.0542347   -0.7336485     0.0671831   -0.7276309    -0.6438906   -0.0490232 
   6.247500000    -0.6488816   -0.0209822     0.0557454   -0.7340618     0.0684672   -0.7284324    -0.6454688   -0.0469568 
   6.250000000    -0.6482277   -0.0185585     0.0574082   -0.7343607     0.0699245   -0.7290202    -0.6464452   -0.0451592 
   6.252500000    -0.6476547   -0.0157515     0.0570624   -0.7355779     0.0707898   -0.7302535    -0.6472505   -0.0432638 
   6.255000000    -0.6473045   -0.0132805     0.0590348   -0.7362607     0.0720774   -0.7312248    -0.6484933   -0.0403811 
   6.257500000    -0.6466171   -0.0099601     0.0604530   -0.7370667     0.0731796   -0.7320281    -0.6504967   -0.0373173 
   6.260000000    -0.6459446   -0.0077136     0.0609955   -0.7377354     0.0744753   -0.7324883    -0.6510274   -0.0343500 
   6.262500000    -0.6452484   -0.0054266     0.0620685   -0.7381687     0.0755943   -0.7332596    -0.6517913   -0.0316528 
   6.265000000    -0.6445112   -0.0031083     0.0628909   -0.7387775     0.0760964   -0.7345777    -0.6525840   -0.0290060 
   6.267500000    -0.6435476   -0.0009814     0.0631097   -0.7396526     0.0775515   -0.7354354    -0.6534920   -0.0261836 
   6.270000000    -0.6426646    0.0005419     0.0636056   -0.7406237     0.0776934   -0.7361963    -0.6538056   -0.0234699 
   6.272500000    -0.6416910    0.0026833     0.0649508   -0.7417227     0.0785225   -0.7368151    -0.6544027   -0.0204686 
   6.275000000    -0.6404636    0.0039776     0.0658253   -0.7424081     0.0793037   -0.7373897    -0.6546047   -0.0171357 
   6.277500000    -0.6393259    0.0052307     0.0661285   -0.7429265     0.0797112   -0.7380601    -0.6552045   -0.0146999 
   6.280000000    -0.6386043    0.0064312     0.0662702   -0.7442482     0.0802834   -0.7396898    -0.6558312   -0.0125186 
   6.282500000    -0.6373821    0.0077170     0.0669918   -0.7456052     0.0807107   -0.7406706    -0.6564378   -0.0103320 
   6.285000000    -0.6364756    0.0095053     0.0675189   -0.7466902     0.0805698   -0.7413111    -0.6566958   -0.0082542 
   6.287500000    -0.6354210    0.0104853     0.0678733   -0.7473221     0.0809665   -0.7420761    -0.6569194   -0.0057967 
   6.290000000    -0.6348106    0.0113720     0.0688317   -0.7479597     0.0814039   -0.7430057    -0.6567839   -0.0035247 
   6.292500000    -0.6339101    0.0120810     0.0683006   -0.7492549     0.0819373   -0.7439046    -0.6570103   -0.0013569 
   6.295000000    -0.6330143    0.0123286     0.0691579   -0.7505527     0.0827378   -0.7447322    -0.6571007    0.0006627 
   6.297500000    -0.6319367    0.0130598     0.0698433   -0.7509418     0.0827841   -0.7458872    -0.6570674    0.0026925 
   6.300000000    -0.6308761    0.0135030     0.0705624   -0.7514110     0.0833799   -0.7466472    -0.6565506    0.0046372 
   6.302500000    -0.6297092    0.0138709     0.0701629   -0.7515000     0.0838319   -0.7475238    -0.6559672    0.0074227 
   6.305000000    -0.6291901    0.0143000     0.0701518   -0.7523388     0.0842956   -0.7482527    -0.6555419    0.0092411 
   6.307500000    -0.6282716    0.0145543     0.0709100   -0.7539679     0.0849331   -0.7491699    -0.6549052    0.0108839 
   6.310000000    -0.6271035    0.0146075     0.0711716   -0.7549736     0.0856400   -0.7504516    -0.6542688    0.0121857 
   6.312500000    -0.6262228    0.0148600     0.0718623   -0.7555056     0.0862686   -0.7512778    -0.6534332    0.0130731 
   6.315000000    -0.6257136    0.0149160     0.0723306   -0.7557281     0.0873524   -0.7525814    -0.6527489    0.0145207 
   6.317500000    -0.6242409    0.0143818     0.0734398   -0.7566493     0.0865963   -0.7533250    -0.6518240    0.0151096 
   6.320000000    -0.6235063    0.0140952     0.0707248   -0.7577121     0.0904386   -0.7539940    -0.6510158    0.0158778 
   6.322500000    -0.6223107    0.0140796     0.0719319   -0.7582716     0.0888222   -0.7553921    -0.6499323    0.0171596 
   6.325000000    -0.6212605    0.0139241     0.0717713   -0.7586789     0.0892232   -0.7564198    -0.6489442    0.0177325 
   6.327500000    -0.6206041    0.0143650     0.0725896   -0.7599888     0.0896127   -0.7571612    -0.6479102    0.0185220 
   6.330000000    -0.6192800    0.0139806     0.0725734   -0.7611708     0.0902096   -0.7584494    -0.6466044    0.0201107 
   6.332500000    -0.6182033    0.0135171     0.0718530   -0.7619587     0.0905432   -0.7595949    -0.6452600    0.0209205 
   6.335000000    -0.6167669    0.0133709     0.0727769   -0.7628120     0.0904437   -0.7609888    -0.6438922    0.0218193 
   6.337500000    -0.6151192    0.0132569     0.0727572   -0.7635079     0.0904801   -0.7621077    -0.6419989    0.0223801 
   6.340000000    -0.6139001    0.0142622     0.0729868   -0.7647969     0.0904073   -0.7630988    -0.6409282    0.0230317 
   6.342500000    -0.6123501    0.0146060     0.0728484   -0.7657012     0.0901989   -0.7643538    -0.6390092    0.0242008 
   6.345000000    -0.6106374    0.0151592     0.0734750   -0.7670215     0.0904095   -0.7659017    -0.6377677    0.0250743 
   6.347500000    -0.6089914    0.0154558     0.0724399   -0.7683583     0.0904067   -0.7664869    -0.6363055    0.0256813 
   6.350000000    -0.6071688    0.0156941     0.0728609   -0.7691286     0.0905268   -0.7677411    -0.6349747    0.0259898 
   6.352500000    -0.6050801    0.0159683     0.0736300   -0.7695847     0.0901878   -0.7690060    -0.6335993    0.0265733 
   6.355000000    -0.6032002    0.0169675     0.0736217   -0.7705205     0.0900220   -0.7706758    -0.6323451    0.0277587 
   6.357500000    -0.6009307    0.0183704     0.0738506   -0.7711934     0.0899604   -0.7715129    -0.6307846    0.0298709 
   6.360000000    -0.5989653    0.0195019     0.0741495   -0.7721753     0.0898470   -0.7730857    -0.6291254    0.0307209 
   6.362500000    -0.5971114    0.0204359     0.0743662   -0.7729098     0.0897505   -0.7746356    -0.6276868    0.0319601 
   6.365000000    -0.5954865    0.0212910     0.0729347   -0.7741762     0.0898120   -0.7755398    -0.6264094    0.0329676 
   6.367500000    -0.5940609    0.0217670     0.0731044   -0.7747605     0.0898042   -0.7765610    -0.6249276    0.0336857 
   6.370000000    -0.5919167    0.0230661     0.0731873   -0.7749896     0.0891505   -0.7778175    -0.6242369    0.0354751 
   6.372500000    -0.5900533    0.0247818     0.0725048   -0.7754550     0.0886848   -0.7794214    -0.6231872    0.0362108 
   6.375000000    -0.5876107    0.0263795     0.0731735   -0.7758802     0.0889488   -0.7801728    -0.6209325    0.0382624 
   6.377500000    -0.5858539    0.0274576     0.0734660   -0.7769083     0.0886781   -0.7809646    -0.6195256    0.0393676 
   6.380000000    -0.5843436    0.0284577     0.0719779   -0.7782778     0.0885407   -0.7822928    -0.6185633    0.0402695 
   6.382500000    -0.5827017    0.0295809     0.0717325   -0.7787859     0.0884909   -0.7828819    -0.6174074    0.0412785 
   6.385000000    -0.5811940    0.0304591     0.0717438   -0.7792735     0.0876483   -0.7846929    -0.6160382    0.0422295 
   6.387500000    -0.5795286    0.0317999     0.0712105   -0.7804551     0.0872088   -0.7851473    -0.6151662    0.0436516 
   6.390000000    -0.5779099    0.0326465     0.0704490   -0.7807389     0.0874500   -0.7861543    -0.6143438    0.0447420 
