! MS46122B
! 1919307/90821646
! 7/29/2022 2:07:27 PM
! C:\USERS\PC_\DESKTOP\MEDICIONES\BANCHA ESTRECHA\6_65_GHZ\S11_S21_ABS3_502CL.S2P
! CHANNEL.1
! TR.MEASUREMENT
! CORRECTED.DATA
# GHZ S RI R 50.0
! FREQ.GHZ         S11RE         S11IM         S21RE         S21IM         S12RE         S12IM         S22RE         S22IM         
!; PortSelection: Port_12
   6.000000000    -0.3195865   -0.1813098     0.2976584   -0.8941637     0.3034757   -0.8883530    -0.2719060   -0.2361652 
   6.002500000    -0.3276817   -0.1816423     0.2937662   -0.8933854     0.3026849   -0.8872950    -0.2731461   -0.2374399 
   6.005000000    -0.3310475   -0.1837357     0.2918049   -0.8935236     0.3007211   -0.8881768    -0.2746241   -0.2392377 
   6.007500000    -0.3339053   -0.1855526     0.2904041   -0.8938465     0.2985776   -0.8890630    -0.2762725   -0.2412046 
   6.010000000    -0.3367420   -0.1879062     0.2879324   -0.8946416     0.2972661   -0.8893571    -0.2779500   -0.2429365 
   6.012500000    -0.3395198   -0.1905025     0.2867174   -0.8946826     0.2944501   -0.8899819    -0.2799533   -0.2444170 
   6.015000000    -0.3422508   -0.1928853     0.2845739   -0.8947623     0.2926484   -0.8905671    -0.2821423   -0.2456279 
   6.017500000    -0.3449963   -0.1951223     0.2827556   -0.8949567     0.2901293   -0.8910103    -0.2844870   -0.2468402 
   6.020000000    -0.3479392   -0.1970356     0.2810659   -0.8948678     0.2877125   -0.8920143    -0.2863686   -0.2480652 
   6.022500000    -0.3507199   -0.1989766     0.2791491   -0.8951833     0.2855725   -0.8925955    -0.2886842   -0.2491898 
   6.025000000    -0.3541184   -0.2009589     0.2778876   -0.8948935     0.2833624   -0.8928010    -0.2908800   -0.2509264 
   6.027500000    -0.3573887   -0.2027363     0.2755598   -0.8948534     0.2806820   -0.8927932    -0.2931890   -0.2519399 
   6.030000000    -0.3604038   -0.2047486     0.2736042   -0.8940444     0.2786100   -0.8928076    -0.2953115   -0.2529844 
   6.032500000    -0.3639121   -0.2065026     0.2722320   -0.8939117     0.2770686   -0.8927849    -0.2976885   -0.2535976 
   6.035000000    -0.3669663   -0.2081493     0.2709396   -0.8939077     0.2742957   -0.8927690    -0.3003037   -0.2545746 
   6.037500000    -0.3700062   -0.2098631     0.2686342   -0.8942552     0.2723404   -0.8921492    -0.3029851   -0.2554101 
   6.040000000    -0.3731267   -0.2113770     0.2670266   -0.8929036     0.2705127   -0.8911130    -0.3051933   -0.2566444 
   6.042500000    -0.3766318   -0.2127135     0.2651932   -0.8913149     0.2684193   -0.8905502    -0.3073727   -0.2576066 
   6.045000000    -0.3792077   -0.2138335     0.2647521   -0.8906812     0.2642041   -0.8894493    -0.3095557   -0.2592072 
   6.047500000    -0.3826526   -0.2151158     0.2635575   -0.8897829     0.2627617   -0.8890462    -0.3122264   -0.2603015 
   6.050000000    -0.3863007   -0.2167303     0.2595762   -0.8892114     0.2620407   -0.8873196    -0.3149230   -0.2616044 
   6.052500000    -0.3898455   -0.2178278     0.2581128   -0.8883601     0.2597360   -0.8858254    -0.3179071   -0.2631805 
   6.055000000    -0.3923306   -0.2185366     0.2553432   -0.8885177     0.2572573   -0.8845907    -0.3203520   -0.2649950 
   6.057500000    -0.3960686   -0.2188362     0.2536017   -0.8875364     0.2555087   -0.8834894    -0.3237030   -0.2657232 
   6.060000000    -0.3992988   -0.2196386     0.2522052   -0.8863887     0.2534649   -0.8823279    -0.3264393   -0.2670891 
   6.062500000    -0.4019719   -0.2201946     0.2504587   -0.8855897     0.2509443   -0.8808416    -0.3288294   -0.2685031 
   6.065000000    -0.4047338   -0.2206214     0.2497568   -0.8846813     0.2498833   -0.8791091    -0.3312916   -0.2694087 
   6.067500000    -0.4073896   -0.2204126     0.2477139   -0.8844400     0.2482015   -0.8782887    -0.3336626   -0.2708845 
   6.070000000    -0.4101941   -0.2205723     0.2456672   -0.8841051     0.2467863   -0.8770708    -0.3360447   -0.2720805 
   6.072500000    -0.4129242   -0.2201777     0.2443384   -0.8835196     0.2446965   -0.8757398    -0.3387633   -0.2724694 
   6.075000000    -0.4155098   -0.2198862     0.2429066   -0.8821678     0.2432670   -0.8742509    -0.3412440   -0.2737070 
   6.077500000    -0.4181263   -0.2197345     0.2423713   -0.8807435     0.2419333   -0.8734410    -0.3438668   -0.2745226 
   6.080000000    -0.4204925   -0.2192015     0.2404079   -0.8792951     0.2407472   -0.8719972    -0.3462597   -0.2752273 
   6.082500000    -0.4223008   -0.2184084     0.2396182   -0.8786336     0.2395526   -0.8709233    -0.3487810   -0.2758377 
   6.085000000    -0.4241710   -0.2169836     0.2384492   -0.8786101     0.2394019   -0.8694387    -0.3512735   -0.2758269 
   6.087500000    -0.4259656   -0.2157402     0.2377936   -0.8778522     0.2382639   -0.8685362    -0.3542037   -0.2758984 
   6.090000000    -0.4283020   -0.2142366     0.2367921   -0.8766321     0.2374159   -0.8668230    -0.3566593   -0.2760604 
   6.092500000    -0.4301002   -0.2128944     0.2361873   -0.8742563     0.2364135   -0.8656464    -0.3593031   -0.2760344 
   6.095000000    -0.4318950   -0.2114168     0.2346517   -0.8730056     0.2356600   -0.8642039    -0.3618283   -0.2760014 
   6.097500000    -0.4331544   -0.2096035     0.2328918   -0.8718712     0.2350301   -0.8626528    -0.3642700   -0.2759967 
   6.100000000    -0.4348076   -0.2072820     0.2326826   -0.8709608     0.2342974   -0.8609564    -0.3669117   -0.2748242 
   6.102500000    -0.4361211   -0.2051426     0.2325593   -0.8704115     0.2340284   -0.8596322    -0.3701302   -0.2739478 
   6.105000000    -0.4381098   -0.2025190     0.2317753   -0.8691537     0.2336962   -0.8582770    -0.3727173   -0.2730835 
   6.107500000    -0.4395104   -0.2004071     0.2306544   -0.8670743     0.2326017   -0.8567406    -0.3754787   -0.2720755 
   6.110000000    -0.4410430   -0.1974676     0.2305961   -0.8656536     0.2302709   -0.8555258    -0.3784967   -0.2705579 
   6.112500000    -0.4421535   -0.1962655     0.2262519   -0.8658816     0.2326737   -0.8543533    -0.3813015   -0.2694847 
   6.115000000    -0.4441240   -0.1933728     0.2269373   -0.8637562     0.2312526   -0.8528551    -0.3843127   -0.2679191 
   6.117500000    -0.4453515   -0.1911626     0.2264431   -0.8621159     0.2295137   -0.8518246    -0.3869884   -0.2658247 
   6.120000000    -0.4464938   -0.1892058     0.2254238   -0.8613775     0.2299696   -0.8501344    -0.3898361   -0.2643933 
   6.122500000    -0.4477353   -0.1870610     0.2255021   -0.8604318     0.2289186   -0.8493441    -0.3925836   -0.2626390 
   6.125000000    -0.4486424   -0.1848716     0.2244758   -0.8597150     0.2288956   -0.8480988    -0.3951394   -0.2610424 
   6.127500000    -0.4494388   -0.1818929     0.2237541   -0.8585056     0.2278135   -0.8474774    -0.3977254   -0.2585640 
   6.130000000    -0.4505971   -0.1794927     0.2226515   -0.8573656     0.2278414   -0.8462940    -0.4003102   -0.2563350 
   6.132500000    -0.4519870   -0.1773494     0.2223055   -0.8561962     0.2272439   -0.8451803    -0.4033074   -0.2540855 
   6.135000000    -0.4529648   -0.1753421     0.2228541   -0.8548203     0.2273518   -0.8439555    -0.4058122   -0.2519329 
   6.137500000    -0.4538466   -0.1735478     0.2220431   -0.8543898     0.2273085   -0.8428552    -0.4083666   -0.2495118 
   6.140000000    -0.4545777   -0.1710553     0.2226664   -0.8529446     0.2268454   -0.8416198    -0.4108472   -0.2471423 
   6.142500000    -0.4557441   -0.1688940     0.2218979   -0.8516121     0.2265816   -0.8403206    -0.4130005   -0.2447301 
   6.145000000    -0.4570689   -0.1666214     0.2218331   -0.8495318     0.2265774   -0.8390229    -0.4153662   -0.2418277 
   6.147500000    -0.4582344   -0.1646464     0.2217454   -0.8483858     0.2266466   -0.8379229    -0.4184447   -0.2391996 
   6.150000000    -0.4591905   -0.1628097     0.2217387   -0.8475966     0.2264511   -0.8361896    -0.4206828   -0.2371431 
   6.152500000    -0.4604649   -0.1607114     0.2214847   -0.8466360     0.2259340   -0.8352200    -0.4232670   -0.2345528 
   6.155000000    -0.4617857   -0.1587379     0.2210861   -0.8455719     0.2258628   -0.8339577    -0.4257505   -0.2319263 
   6.157500000    -0.4632696   -0.1567343     0.2202911   -0.8431371     0.2252242   -0.8324681    -0.4282156   -0.2295674 
   6.160000000    -0.4648900   -0.1551675     0.2201126   -0.8419890     0.2251783   -0.8311907    -0.4306493   -0.2269251 
   6.162500000    -0.4661722   -0.1535119     0.2204529   -0.8402362     0.2249597   -0.8295380    -0.4330159   -0.2246402 
   6.165000000    -0.4675453   -0.1516770     0.2194833   -0.8402275     0.2250673   -0.8282642    -0.4352321   -0.2229613 
   6.167500000    -0.4689507   -0.1504021     0.2199487   -0.8388128     0.2244612   -0.8269846    -0.4371824   -0.2209681 
   6.170000000    -0.4705439   -0.1488200     0.2183612   -0.8375711     0.2239403   -0.8256899    -0.4390385   -0.2191511 
   6.172500000    -0.4723936   -0.1473142     0.2186545   -0.8368418     0.2243017   -0.8252218    -0.4412422   -0.2169777 
   6.175000000    -0.4740214   -0.1460276     0.2185695   -0.8355343     0.2241540   -0.8238988    -0.4430240   -0.2150126 
   6.177500000    -0.4756050   -0.1448132     0.2183638   -0.8351291     0.2240180   -0.8228844    -0.4454404   -0.2130715 
   6.180000000    -0.4769522   -0.1435273     0.2183165   -0.8346370     0.2241463   -0.8217423    -0.4468826   -0.2116345 
   6.182500000    -0.4781190   -0.1417331     0.2175552   -0.8332344     0.2247989   -0.8209331    -0.4483298   -0.2103713 
   6.185000000    -0.4792968   -0.1402917     0.2179975   -0.8320304     0.2243959   -0.8192945    -0.4495950   -0.2089542 
   6.187500000    -0.4809613   -0.1386349     0.2179721   -0.8309886     0.2249279   -0.8186232    -0.4507515   -0.2070222 
   6.190000000    -0.4822471   -0.1371176     0.2185392   -0.8298470     0.2251017   -0.8176463    -0.4523050   -0.2052398 
   6.192500000    -0.4832398   -0.1354899     0.2187787   -0.8286114     0.2259877   -0.8160671    -0.4535119   -0.2040905 
   6.195000000    -0.4837999   -0.1340983     0.2181708   -0.8272588     0.2260490   -0.8147019    -0.4544291   -0.2028205 
   6.197500000    -0.4842890   -0.1318327     0.2189688   -0.8254457     0.2267969   -0.8130776    -0.4550223   -0.2019223 
   6.200000000    -0.4851686   -0.1301900     0.2193340   -0.8242071     0.2275499   -0.8116693    -0.4556664   -0.2008545 
   6.202500000    -0.4866582   -0.1284520     0.2200894   -0.8226183     0.2285308   -0.8106846    -0.4563575   -0.1991206 
   6.205000000    -0.4874633   -0.1267022     0.2204527   -0.8213647     0.2290067   -0.8095521    -0.4574799   -0.1977016 
   6.207500000    -0.4875306   -0.1246213     0.2204129   -0.8202962     0.2299758   -0.8084155    -0.4580779   -0.1965227 
   6.210000000    -0.4873810   -0.1226883     0.2205274   -0.8191254     0.2305679   -0.8075641    -0.4586647   -0.1955283 
   6.212500000    -0.4886211   -0.1205528     0.2213268   -0.8183362     0.2310690   -0.8062612    -0.4593584   -0.1943621 
   6.215000000    -0.4911607   -0.1179783     0.2223647   -0.8173125     0.2322232   -0.8052961    -0.4599183   -0.1929030 
   6.217500000    -0.4922949   -0.1159563     0.2232015   -0.8162632     0.2336812   -0.8042484    -0.4610330   -0.1913675 
   6.220000000    -0.4906439   -0.1137688     0.2246914   -0.8144671     0.2349153   -0.8042440    -0.4616947   -0.1902389 
   6.222500000    -0.4886512   -0.1106097     0.2247232   -0.8139225     0.2359600   -0.8030780    -0.4623404   -0.1892262 
   6.225000000    -0.4896666   -0.1079289     0.2259048   -0.8137223     0.2366271   -0.8024669    -0.4631973   -0.1878745 
   6.227500000    -0.4908933   -0.1070117     0.2275585   -0.8132287     0.2380812   -0.8020532    -0.4641982   -0.1864775 
   6.230000000    -0.4920106   -0.1046971     0.2285399   -0.8125475     0.2394392   -0.8016734    -0.4656523   -0.1844172 
   6.232500000    -0.4922084   -0.1018738     0.2300043   -0.8116444     0.2408438   -0.8013260    -0.4666212   -0.1828499 
   6.235000000    -0.4917375   -0.0988514     0.2313406   -0.8113487     0.2421283   -0.8013505    -0.4675979   -0.1815159 
   6.237500000    -0.4912639   -0.0957374     0.2329969   -0.8107844     0.2435396   -0.8015037    -0.4686419   -0.1796398 
   6.240000000    -0.4915578   -0.0928289     0.2336129   -0.8113077     0.2451407   -0.8010901    -0.4694148   -0.1774999 
   6.242500000    -0.4915690   -0.0902473     0.2351935   -0.8110449     0.2453570   -0.8012315    -0.4699935   -0.1749321 
   6.245000000    -0.4918973   -0.0863340     0.2361136   -0.8110051     0.2466860   -0.8013672    -0.4713499   -0.1719224 
   6.247500000    -0.4916842   -0.0832619     0.2370343   -0.8109468     0.2481504   -0.8014340    -0.4729313   -0.1689605 
   6.250000000    -0.4912932   -0.0801466     0.2384712   -0.8104427     0.2492471   -0.8015646    -0.4740328   -0.1667965 
   6.252500000    -0.4909095   -0.0770540     0.2391534   -0.8105036     0.2504013   -0.8024396    -0.4747278   -0.1644682 
   6.255000000    -0.4909148   -0.0741828     0.2400622   -0.8109600     0.2518623   -0.8027575    -0.4760045   -0.1613304 
   6.257500000    -0.4902023   -0.0708848     0.2414586   -0.8121659     0.2527425   -0.8030274    -0.4774001   -0.1587258 
   6.260000000    -0.4900117   -0.0676904     0.2424348   -0.8122822     0.2533041   -0.8027841    -0.4781939   -0.1560079 
   6.262500000    -0.4895678   -0.0650671     0.2431421   -0.8122063     0.2544654   -0.8031246    -0.4794028   -0.1521347 
   6.265000000    -0.4889473   -0.0624297     0.2439074   -0.8119451     0.2553273   -0.8039700    -0.4801285   -0.1493442 
   6.267500000    -0.4880181   -0.0598649     0.2445970   -0.8124102     0.2563460   -0.8040438    -0.4809951   -0.1461887 
   6.270000000    -0.4871165   -0.0573816     0.2441446   -0.8130752     0.2570403   -0.8045720    -0.4819056   -0.1434336 
   6.272500000    -0.4860466   -0.0554877     0.2455882   -0.8132172     0.2576228   -0.8050317    -0.4823665   -0.1407318 
   6.275000000    -0.4851554   -0.0538370     0.2464601   -0.8138426     0.2579184   -0.8051273    -0.4826948   -0.1375872 
   6.277500000    -0.4844947   -0.0517860     0.2469794   -0.8139148     0.2582609   -0.8050057    -0.4836720   -0.1341500 
   6.280000000    -0.4837025   -0.0503392     0.2477258   -0.8143087     0.2591062   -0.8060560    -0.4841323   -0.1316192 
   6.282500000    -0.4826111   -0.0482970     0.2484770   -0.8154870     0.2594285   -0.8068540    -0.4847494   -0.1296489 
   6.285000000    -0.4818821   -0.0465898     0.2479746   -0.8156864     0.2597947   -0.8069660    -0.4850494   -0.1270403 
   6.287500000    -0.4809748   -0.0452520     0.2485997   -0.8161656     0.2595902   -0.8076074    -0.4851803   -0.1249003 
   6.290000000    -0.4799482   -0.0442857     0.2494417   -0.8165045     0.2599008   -0.8080522    -0.4850326   -0.1226331 
   6.292500000    -0.4789551   -0.0430658     0.2505734   -0.8173229     0.2605823   -0.8082603    -0.4852195   -0.1199583 
   6.295000000    -0.4781326   -0.0422407     0.2512318   -0.8186455     0.2611888   -0.8088025    -0.4853916   -0.1177388 
   6.297500000    -0.4771816   -0.0414393     0.2507021   -0.8182435     0.2615024   -0.8093155    -0.4855685   -0.1153729 
   6.300000000    -0.4763816   -0.0407917     0.2515267   -0.8183630     0.2620015   -0.8096511    -0.4853267   -0.1131447 
   6.302500000    -0.4754665   -0.0402432     0.2516817   -0.8186522     0.2621509   -0.8096710    -0.4848547   -0.1107172 
   6.305000000    -0.4745256   -0.0396594     0.2525745   -0.8188801     0.2624684   -0.8101274    -0.4842252   -0.1085728 
   6.307500000    -0.4736013   -0.0390158     0.2531655   -0.8207369     0.2633103   -0.8104223    -0.4837311   -0.1064119 
   6.310000000    -0.4724141   -0.0385933     0.2523144   -0.8209974     0.2642811   -0.8111745    -0.4828922   -0.1048524 
   6.312500000    -0.4719942   -0.0384957     0.2531572   -0.8211416     0.2650544   -0.8115850    -0.4818851   -0.1035318 
   6.315000000    -0.4708490   -0.0384734     0.2535794   -0.8212664     0.2658592   -0.8120080    -0.4814621   -0.1022107 
   6.317500000    -0.4698607   -0.0381576     0.2549920   -0.8213285     0.2654231   -0.8126727    -0.4800138   -0.1010354 
   6.320000000    -0.4688133   -0.0384947     0.2523690   -0.8228025     0.2698551   -0.8121092    -0.4789957   -0.0999323 
   6.322500000    -0.4679612   -0.0381241     0.2541195   -0.8233493     0.2681498   -0.8134888    -0.4779936   -0.0984717 
   6.325000000    -0.4667417   -0.0379721     0.2534630   -0.8236060     0.2688959   -0.8139240    -0.4769508   -0.0975199 
   6.327500000    -0.4658150   -0.0375374     0.2542031   -0.8246330     0.2695688   -0.8143116    -0.4759009   -0.0965733 
   6.330000000    -0.4645708   -0.0376392     0.2543333   -0.8253362     0.2701651   -0.8151881    -0.4744451   -0.0951529 
   6.332500000    -0.4638946   -0.0375269     0.2547291   -0.8253016     0.2706121   -0.8158439    -0.4731510   -0.0934898 
   6.335000000    -0.4623515   -0.0373955     0.2547891   -0.8258775     0.2713425   -0.8165165    -0.4719732   -0.0925914 
   6.337500000    -0.4609149   -0.0371765     0.2539740   -0.8271407     0.2719973   -0.8174850    -0.4703262   -0.0914079 
   6.340000000    -0.4594591   -0.0366675     0.2549755   -0.8277760     0.2721697   -0.8179737    -0.4689179   -0.0910430 
   6.342500000    -0.4576828   -0.0354311     0.2547821   -0.8285992     0.2718014   -0.8192375    -0.4670389   -0.0903264 
   6.345000000    -0.4564753   -0.0343832     0.2553345   -0.8294613     0.2718095   -0.8205333    -0.4657825   -0.0888238 
   6.347500000    -0.4548601   -0.0337417     0.2551481   -0.8297367     0.2724184   -0.8214190    -0.4648845   -0.0875928 
   6.350000000    -0.4528542   -0.0332222     0.2553629   -0.8304279     0.2729227   -0.8223681    -0.4633025   -0.0872989 
   6.352500000    -0.4507291   -0.0326209     0.2555157   -0.8307754     0.2730719   -0.8230217    -0.4620326   -0.0865817 
   6.355000000    -0.4485809   -0.0315655     0.2557168   -0.8313123     0.2736212   -0.8250580    -0.4604048   -0.0856953 
   6.357500000    -0.4463303   -0.0298821     0.2563249   -0.8315347     0.2734536   -0.8255517    -0.4588303   -0.0842495 
   6.360000000    -0.4447480   -0.0283841     0.2562419   -0.8324075     0.2727314   -0.8265933    -0.4572730   -0.0822857 
   6.362500000    -0.4425887   -0.0270487     0.2565753   -0.8327553     0.2728224   -0.8280495    -0.4556822   -0.0807575 
   6.365000000    -0.4406658   -0.0261212     0.2567512   -0.8333322     0.2735953   -0.8290821    -0.4543585   -0.0793816 
   6.367500000    -0.4389023   -0.0256159     0.2560523   -0.8341377     0.2740412   -0.8299627    -0.4529075   -0.0782899 
   6.370000000    -0.4367165   -0.0240429     0.2559537   -0.8342814     0.2739899   -0.8310213    -0.4515726   -0.0771610 
   6.372500000    -0.4343461   -0.0224560     0.2557194   -0.8344997     0.2740416   -0.8325424    -0.4501508   -0.0761126 
   6.375000000    -0.4321696   -0.0203050     0.2560965   -0.8346558     0.2742209   -0.8327995    -0.4491143   -0.0741668 
   6.377500000    -0.4304152   -0.0188104     0.2564410   -0.8353886     0.2734195   -0.8334005    -0.4477685   -0.0721824 
   6.380000000    -0.4286173   -0.0176770     0.2563069   -0.8358096     0.2733170   -0.8347034    -0.4466423   -0.0710822 
   6.382500000    -0.4270990   -0.0165471     0.2550006   -0.8368368     0.2736000   -0.8352112    -0.4456341   -0.0699485 
   6.385000000    -0.4250864   -0.0156407     0.2550983   -0.8374658     0.2734426   -0.8364965    -0.4443781   -0.0684415 
   6.387500000    -0.4231866   -0.0139458     0.2557989   -0.8377956     0.2728166   -0.8369116    -0.4432511   -0.0672269 
   6.390000000    -0.4214171   -0.0130201     0.2549223   -0.8380352     0.2732706   -0.8378362    -0.4424815   -0.0658652 
