! MS46122B
! 1919307/90821646
! 7/29/2022 12:27:21 PM
! C:\USERS\PC_\DESKTOP\MEDICIONES\BANCHA ESTRECHA\55_6GHZ\S11_S21_ABS3_1002CL.S2P
! CHANNEL.1
! TR.MEASUREMENT
! CORRECTED.DATA
# GHZ S RI R 50.0
! FREQ.GHZ         S11RE         S11IM         S21RE         S21IM         S12RE         S12IM         S22RE         S22IM         
!; PortSelection: Port_12
   5.500000000    -0.6785511   -0.1687189     0.1060856   -0.7270862     0.1132971   -0.7259490    -0.6156525   -0.2007470 
   5.502500000    -0.6764269   -0.1660618     0.1055976   -0.7278164     0.1129759   -0.7234667    -0.6167825   -0.1998081 
   5.505000000    -0.6772516   -0.1642347     0.1062190   -0.7263026     0.1140145   -0.7208761    -0.6185819   -0.1982461 
   5.507500000    -0.6778352   -0.1624021     0.1072657   -0.7242944     0.1149609   -0.7190772    -0.6210995   -0.1965536 
   5.510000000    -0.6791359   -0.1602047     0.1084596   -0.7225664     0.1158933   -0.7171556    -0.6228781   -0.1952850 
   5.512500000    -0.6806380   -0.1580515     0.1089728   -0.7210188     0.1168362   -0.7150807    -0.6247965   -0.1938170 
   5.515000000    -0.6816751   -0.1561004     0.1103816   -0.7193273     0.1175662   -0.7128134    -0.6269803   -0.1915410 
   5.517500000    -0.6825302   -0.1543528     0.1110402   -0.7174752     0.1180603   -0.7110900    -0.6292417   -0.1894117 
   5.520000000    -0.6832913   -0.1523566     0.1111184   -0.7161211     0.1187134   -0.7102484    -0.6322619   -0.1872132 
   5.522500000    -0.6839961   -0.1496413     0.1123976   -0.7150641     0.1207584   -0.7088677    -0.6340856   -0.1845953 
   5.525000000    -0.6844718   -0.1475345     0.1136197   -0.7136131     0.1201688   -0.7078028    -0.6372358   -0.1817584 
   5.527500000    -0.6852344   -0.1449806     0.1135853   -0.7123498     0.1233770   -0.7059107    -0.6383770   -0.1786740 
   5.530000000    -0.6855622   -0.1424572     0.1152714   -0.7108510     0.1236762   -0.7048559    -0.6406999   -0.1760531 
   5.532500000    -0.6861572   -0.1402349     0.1166596   -0.7094592     0.1249130   -0.7037983    -0.6433545   -0.1725950 
   5.535000000    -0.6862024   -0.1382802     0.1166541   -0.7085076     0.1260456   -0.7025263    -0.6454387   -0.1696346 
   5.537500000    -0.6871836   -0.1353380     0.1181368   -0.7069988     0.1267436   -0.7010444    -0.6475210   -0.1664620 
   5.540000000    -0.6875141   -0.1332709     0.1196985   -0.7060201     0.1287962   -0.6996471    -0.6493198   -0.1634299 
   5.542500000    -0.6877310   -0.1306437     0.1209303   -0.7050027     0.1302992   -0.6984923    -0.6509434   -0.1604450 
   5.545000000    -0.6870565   -0.1285847     0.1222709   -0.7035136     0.1320817   -0.6975979    -0.6533267   -0.1574178 
   5.547500000    -0.6867059   -0.1264569     0.1228718   -0.7027966     0.1336286   -0.6966197    -0.6550128   -0.1544726 
   5.550000000    -0.6862633   -0.1247788     0.1238674   -0.7018560     0.1349495   -0.6953152    -0.6564609   -0.1510012 
   5.552500000    -0.6869497   -0.1229362     0.1252100   -0.7013666     0.1361139   -0.6945553    -0.6577532   -0.1481017 
   5.555000000    -0.6879718   -0.1211447     0.1271053   -0.7000255     0.1376635   -0.6931982    -0.6586080   -0.1444931 
   5.557500000    -0.6883317   -0.1192732     0.1284732   -0.6987002     0.1395399   -0.6923249    -0.6592826   -0.1415350 
   5.560000000    -0.6868931   -0.1171283     0.1295153   -0.6971694     0.1408768   -0.6915742    -0.6606626   -0.1383024 
   5.562500000    -0.6850818   -0.1151285     0.1300408   -0.6964657     0.1424085   -0.6903645    -0.6624072   -0.1353274 
   5.565000000    -0.6854793   -0.1133513     0.1311437   -0.6954361     0.1438137   -0.6897534    -0.6636087   -0.1321928 
   5.567500000    -0.6864142   -0.1133118     0.1326396   -0.6946626     0.1453225   -0.6883982    -0.6645948   -0.1292321 
   5.570000000    -0.6858130   -0.1125525     0.1336877   -0.6934592     0.1470063   -0.6878595    -0.6650939   -0.1262729 
   5.572500000    -0.6857123   -0.1109855     0.1358103   -0.6921328     0.1481078   -0.6874151    -0.6663862   -0.1236836 
   5.575000000    -0.6857108   -0.1092866     0.1364476   -0.6918888     0.1496804   -0.6863240    -0.6670394   -0.1212023 
   5.577500000    -0.6856727   -0.1075827     0.1373395   -0.6911994     0.1509368   -0.6862846    -0.6680456   -0.1185094 
   5.580000000    -0.6851342   -0.1067466     0.1385386   -0.6910103     0.1520129   -0.6857280    -0.6686547   -0.1162163 
   5.582500000    -0.6844495   -0.1057297     0.1400605   -0.6903824     0.1531767   -0.6855840    -0.6694195   -0.1136861 
   5.585000000    -0.6844043   -0.1046371     0.1416832   -0.6899187     0.1551362   -0.6850870    -0.6699100   -0.1120441 
   5.587500000    -0.6842979   -0.1031724     0.1427802   -0.6893258     0.1564451   -0.6851040    -0.6702529   -0.1102265 
   5.590000000    -0.6839838   -0.1019768     0.1443863   -0.6890531     0.1581145   -0.6848577    -0.6704170   -0.1082594 
   5.592500000    -0.6836693   -0.1010510     0.1459945   -0.6890607     0.1595906   -0.6845785    -0.6700016   -0.1059101 
   5.595000000    -0.6828752   -0.0999779     0.1481376   -0.6885054     0.1616814   -0.6842188    -0.6703410   -0.1042254 
   5.597500000    -0.6820991   -0.0987441     0.1500141   -0.6880863     0.1627576   -0.6839932    -0.6706426   -0.1027108 
   5.600000000    -0.6816850   -0.0977072     0.1516830   -0.6868950     0.1652863   -0.6835933    -0.6700091   -0.1019076 
   5.602500000    -0.6815449   -0.0961152     0.1532120   -0.6867455     0.1666690   -0.6833855    -0.6697473   -0.0996480 
   5.605000000    -0.6808886   -0.0951586     0.1549959   -0.6863405     0.1687257   -0.6830121    -0.6694680   -0.0981979 
   5.607500000    -0.6803843   -0.0937426     0.1568681   -0.6862948     0.1700355   -0.6832032    -0.6691523   -0.0971534 
   5.610000000    -0.6799545   -0.0926445     0.1586761   -0.6861553     0.1714607   -0.6827625    -0.6686466   -0.0959723 
   5.612500000    -0.6791952   -0.0916451     0.1604185   -0.6854968     0.1735887   -0.6824880    -0.6691613   -0.0939927 
   5.615000000    -0.6790870   -0.0898201     0.1622725   -0.6855638     0.1752167   -0.6827705    -0.6691441   -0.0931563 
   5.617500000    -0.6783594   -0.0882321     0.1633640   -0.6856631     0.1766409   -0.6826320    -0.6685942   -0.0920238 
   5.620000000    -0.6773273   -0.0863493     0.1645122   -0.6857198     0.1780201   -0.6828064    -0.6673203   -0.0896990 
   5.622500000    -0.6766490   -0.0848330     0.1657852   -0.6858599     0.1802866   -0.6822964    -0.6666639   -0.0877800 
   5.625000000    -0.6758364   -0.0830365     0.1687552   -0.6857785     0.1800191   -0.6829805    -0.6661405   -0.0857556 
   5.627500000    -0.6748032   -0.0808275     0.1703886   -0.6859863     0.1823149   -0.6828207    -0.6653802   -0.0845657 
   5.630000000    -0.6740797   -0.0791635     0.1721371   -0.6867077     0.1844851   -0.6829996    -0.6648893   -0.0825480 
   5.632500000    -0.6730831   -0.0769032     0.1727116   -0.6876180     0.1856118   -0.6838264    -0.6643226   -0.0810557 
   5.635000000    -0.6719850   -0.0746930     0.1748841   -0.6879280     0.1877027   -0.6841626    -0.6641384   -0.0782401 
   5.637500000    -0.6709096   -0.0726718     0.1764795   -0.6886554     0.1887805   -0.6850244    -0.6642613   -0.0763770 
   5.640000000    -0.6701866   -0.0696859     0.1785905   -0.6896042     0.1902584   -0.6853962    -0.6643452   -0.0744562 
   5.642500000    -0.6690959   -0.0676267     0.1804746   -0.6899623     0.1920274   -0.6861441    -0.6638654   -0.0724387 
   5.645000000    -0.6679941   -0.0652838     0.1824296   -0.6908985     0.1937821   -0.6869969    -0.6635876   -0.0706959 
   5.647500000    -0.6670828   -0.0628022     0.1835386   -0.6922046     0.1952505   -0.6882895    -0.6638055   -0.0679650 
   5.650000000    -0.6657240   -0.0602505     0.1851986   -0.6929658     0.1971756   -0.6892860    -0.6629215   -0.0649907 
   5.652500000    -0.6649671   -0.0574165     0.1870042   -0.6937425     0.1988436   -0.6907810    -0.6629471   -0.0625932 
   5.655000000    -0.6637620   -0.0549478     0.1893024   -0.6948260     0.2003036   -0.6917655    -0.6628424   -0.0605830 
   5.657500000    -0.6630439   -0.0526952     0.1913831   -0.6956567     0.2024103   -0.6925969    -0.6625600   -0.0585460 
   5.660000000    -0.6614996   -0.0508940     0.1919425   -0.6970176     0.2043366   -0.6942294    -0.6633657   -0.0554141 
   5.662500000    -0.6599173   -0.0486147     0.1939300   -0.6977713     0.2053757   -0.6954784    -0.6631577   -0.0531180 
   5.665000000    -0.6582592   -0.0463768     0.1956832   -0.6985918     0.2078027   -0.6965501    -0.6631742   -0.0511450 
   5.667500000    -0.6572439   -0.0442823     0.1968720   -0.7000746     0.2091983   -0.6977849    -0.6632342   -0.0487003 
   5.670000000    -0.6555465   -0.0421218     0.1985571   -0.7015949     0.2114887   -0.6987154    -0.6632127   -0.0466481 
   5.672500000    -0.6539505   -0.0404387     0.1998438   -0.7027521     0.2129889   -0.7001802    -0.6634477   -0.0442781 
   5.675000000    -0.6522924   -0.0380560     0.2009753   -0.7046730     0.2137436   -0.7018387    -0.6630868   -0.0418775 
   5.677500000    -0.6504951   -0.0361340     0.2020840   -0.7057996     0.2152442   -0.7032397    -0.6631110   -0.0387620 
   5.680000000    -0.6487256   -0.0344247     0.2034728   -0.7072351     0.2164091   -0.7046859    -0.6628188   -0.0367959 
   5.682500000    -0.6473275   -0.0324944     0.2041979   -0.7093237     0.2167858   -0.7068337    -0.6629988   -0.0346433 
   5.685000000    -0.6453617   -0.0299805     0.2050956   -0.7107747     0.2180888   -0.7082667    -0.6628572   -0.0328348 
   5.687500000    -0.6434426   -0.0282761     0.2060720   -0.7130652     0.2191915   -0.7102008    -0.6624677   -0.0310072 
   5.690000000    -0.6418170   -0.0264972     0.2063624   -0.7151201     0.2199955   -0.7120860    -0.6617624   -0.0285172 
   5.692500000    -0.6395940   -0.0247415     0.2082157   -0.7171023     0.2201301   -0.7143487    -0.6608753   -0.0264924 
   5.695000000    -0.6377685   -0.0236444     0.2096100   -0.7196212     0.2212080   -0.7161205    -0.6601623   -0.0250471 
   5.697500000    -0.6364160   -0.0228872     0.2105771   -0.7213506     0.2217776   -0.7187334    -0.6596151   -0.0236609 
   5.700000000    -0.6348667   -0.0219202     0.2116700   -0.7231446     0.2223121   -0.7208215    -0.6585346   -0.0221493 
   5.702500000    -0.6327196   -0.0216608     0.2118491   -0.7248210     0.2230889   -0.7231449    -0.6577789   -0.0201837 
   5.705000000    -0.6306904   -0.0212856     0.2121629   -0.7272555     0.2237338   -0.7258920    -0.6562220   -0.0188153 
   5.707500000    -0.6285102   -0.0200796     0.2127181   -0.7290735     0.2237221   -0.7283292    -0.6541884   -0.0170752 
   5.710000000    -0.6264567   -0.0197693     0.2140734   -0.7306116     0.2243661   -0.7300937    -0.6524867   -0.0158720 
   5.712500000    -0.6243281   -0.0196229     0.2145518   -0.7323310     0.2248709   -0.7321964    -0.6503779   -0.0145127 
   5.715000000    -0.6220753   -0.0190753     0.2153129   -0.7336090     0.2254451   -0.7342128    -0.6488990   -0.0128659 
   5.717500000    -0.6197973   -0.0186346     0.2155046   -0.7362118     0.2255046   -0.7362024    -0.6468691   -0.0117590 
   5.720000000    -0.6178975   -0.0182591     0.2142866   -0.7372806     0.2276663   -0.7378086    -0.6448954   -0.0096409 
   5.722500000    -0.6157293   -0.0185475     0.2158458   -0.7382051     0.2254218   -0.7400215    -0.6432141   -0.0088928 
   5.725000000    -0.6130764   -0.0190249     0.2154826   -0.7396481     0.2266498   -0.7410912    -0.6408741   -0.0079875 
   5.727500000    -0.6105240   -0.0190411     0.2161040   -0.7408153     0.2260776   -0.7427457    -0.6377570   -0.0068504 
   5.730000000    -0.6084524   -0.0193776     0.2153292   -0.7434348     0.2266783   -0.7439968    -0.6357434   -0.0061502 
   5.732500000    -0.6059794   -0.0193203     0.2160427   -0.7449690     0.2264026   -0.7456186    -0.6330149   -0.0047466 
   5.735000000    -0.6041186   -0.0190872     0.2154367   -0.7467593     0.2259980   -0.7474936    -0.6303195   -0.0039916 
   5.737500000    -0.6019106   -0.0194725     0.2153869   -0.7481760     0.2261453   -0.7491347    -0.6270788   -0.0034202 
   5.740000000    -0.5997327   -0.0198665     0.2158159   -0.7498906     0.2261487   -0.7508457    -0.6236465   -0.0031051 
   5.742500000    -0.5975910   -0.0200397     0.2163397   -0.7520213     0.2259006   -0.7524732    -0.6203243   -0.0021473 
   5.745000000    -0.5954086   -0.0203322     0.2167908   -0.7540606     0.2252968   -0.7544775    -0.6169159   -0.0014130 
   5.747500000    -0.5932740   -0.0204445     0.2163796   -0.7559062     0.2247866   -0.7560241    -0.6142465   -0.0008094 
   5.750000000    -0.5915061   -0.0206158     0.2164002   -0.7574614     0.2249879   -0.7578303    -0.6107317    0.0004701 
   5.752500000    -0.5891355   -0.0205398     0.2167826   -0.7593491     0.2246644   -0.7596941    -0.6070954    0.0005759 
   5.755000000    -0.5867595   -0.0209141     0.2175530   -0.7613899     0.2243263   -0.7613273    -0.6038586    0.0009664 
   5.757500000    -0.5841994   -0.0213682     0.2176194   -0.7636093     0.2255525   -0.7627583    -0.6007110    0.0009700 
   5.760000000    -0.5821581   -0.0213139     0.2183447   -0.7651936     0.2252706   -0.7651627    -0.5973951    0.0018568 
   5.762500000    -0.5799395   -0.0215121     0.2182540   -0.7669511     0.2258244   -0.7672596    -0.5943511    0.0016619 
   5.765000000    -0.5774528   -0.0214149     0.2187560   -0.7686846     0.2261722   -0.7689632    -0.5912701    0.0019983 
   5.767500000    -0.5748907   -0.0214855     0.2188668   -0.7710578     0.2269166   -0.7705398    -0.5880949    0.0016737 
   5.770000000    -0.5730497   -0.0211105     0.2199533   -0.7728233     0.2261396   -0.7728919    -0.5853620    0.0011144 
   5.772500000    -0.5708423   -0.0214194     0.2182427   -0.7750568     0.2291291   -0.7735845    -0.5823755    0.0008228 
   5.775000000    -0.5682047   -0.0209369     0.2179358   -0.7767771     0.2276672   -0.7761377    -0.5793272    0.0016058 
   5.777500000    -0.5658122   -0.0208729     0.2186324   -0.7782596     0.2274537   -0.7785898    -0.5771111    0.0020902 
   5.780000000    -0.5637092   -0.0204902     0.2175426   -0.7806892     0.2272769   -0.7808633    -0.5748297    0.0020226 
   5.782500000    -0.5618026   -0.0195362     0.2171349   -0.7835937     0.2258854   -0.7830111    -0.5727845    0.0019541 
   5.785000000    -0.5599297   -0.0193253     0.2168143   -0.7860832     0.2258636   -0.7849721    -0.5707520    0.0016525 
   5.787500000    -0.5576317   -0.0192950     0.2152022   -0.7882299     0.2251375   -0.7874653    -0.5684773    0.0011636 
   5.790000000    -0.5551926   -0.0190397     0.2142104   -0.7906598     0.2245772   -0.7900295    -0.5662996    0.0006343 
   5.792500000    -0.5523535   -0.0184435     0.2132194   -0.7933458     0.2234253   -0.7929258    -0.5643128    0.0007362 
   5.795000000    -0.5503724   -0.0176528     0.2129793   -0.7954102     0.2224792   -0.7956346    -0.5629249    0.0008119 
   5.797500000    -0.5484425   -0.0168995     0.2114786   -0.7991613     0.2210784   -0.7982675    -0.5605316    0.0003697 
   5.800000000    -0.5456427   -0.0166230     0.2088306   -0.8014004     0.2194757   -0.8010869    -0.5583184   -0.0003496 
   5.802500000    -0.5431604   -0.0162343     0.2084951   -0.8039216     0.2186139   -0.8031328    -0.5563320   -0.0011817 
   5.805000000    -0.5405188   -0.0165318     0.2070978   -0.8065018     0.2174546   -0.8056604    -0.5545013   -0.0020716 
   5.807500000    -0.5376679   -0.0162648     0.2062825   -0.8086242     0.2154221   -0.8081170    -0.5525451   -0.0029262 
   5.810000000    -0.5346972   -0.0161050     0.2040701   -0.8107533     0.2141028   -0.8099836    -0.5503480   -0.0039511 
   5.812500000    -0.5322108   -0.0154337     0.2035133   -0.8132380     0.2121995   -0.8123323    -0.5475064   -0.0050285 
   5.815000000    -0.5289817   -0.0149367     0.2010918   -0.8148137     0.2105090   -0.8143409    -0.5446827   -0.0057284 
   5.817500000    -0.5258766   -0.0152845     0.1987234   -0.8157073     0.2081718   -0.8159517    -0.5412282   -0.0063043 
   5.820000000    -0.5228853   -0.0154022     0.1982968   -0.8170727     0.2072057   -0.8173917    -0.5386686   -0.0069304 
   5.822500000    -0.5197459   -0.0154112     0.1965534   -0.8181377     0.2033141   -0.8186097    -0.5365112   -0.0079377 
   5.825000000    -0.5166746   -0.0160512     0.1934328   -0.8206722     0.2051602   -0.8191847    -0.5345518   -0.0107652 
   5.827500000    -0.5132239   -0.0164424     0.1924780   -0.8215839     0.2010868   -0.8204546    -0.5323681   -0.0124392 
   5.830000000    -0.5100600   -0.0166970     0.1916143   -0.8218735     0.1983765   -0.8216684    -0.5291669   -0.0131584 
   5.832500000    -0.5068862   -0.0171770     0.1878714   -0.8224569     0.1956367   -0.8222439    -0.5261501   -0.0147514 
   5.835000000    -0.5037764   -0.0181758     0.1855874   -0.8230718     0.1944970   -0.8228695    -0.5230801   -0.0166943 
   5.837500000    -0.5008023   -0.0195297     0.1837575   -0.8238457     0.1923096   -0.8234228    -0.5203010   -0.0185340 
   5.840000000    -0.4977503   -0.0209914     0.1829685   -0.8249196     0.1909106   -0.8236349    -0.5170556   -0.0203354 
   5.842500000    -0.4950975   -0.0223566     0.1812294   -0.8258256     0.1881022   -0.8244343    -0.5148207   -0.0223499 
   5.845000000    -0.4922920   -0.0237220     0.1799038   -0.8264920     0.1865527   -0.8250382    -0.5123011   -0.0241541 
   5.847500000    -0.4893759   -0.0254940     0.1778476   -0.8274686     0.1855330   -0.8259140    -0.5095114   -0.0267361 
   5.850000000    -0.4873356   -0.0271140     0.1757252   -0.8282659     0.1829335   -0.8268856    -0.5070598   -0.0294305 
   5.852500000    -0.4848633   -0.0292467     0.1751784   -0.8294198     0.1820131   -0.8276041    -0.5045136   -0.0319339 
   5.855000000    -0.4826246   -0.0314042     0.1744394   -0.8309395     0.1814554   -0.8282810    -0.5017250   -0.0339150 
   5.857500000    -0.4805751   -0.0334959     0.1727213   -0.8320720     0.1795329   -0.8292689    -0.4995075   -0.0361735 
   5.860000000    -0.4787090   -0.0360605     0.1708470   -0.8337596     0.1788288   -0.8301256    -0.4972785   -0.0388599 
   5.862500000    -0.4771060   -0.0383174     0.1693134   -0.8347310     0.1775224   -0.8314547    -0.4946516   -0.0411978 
   5.865000000    -0.4753773   -0.0405935     0.1689539   -0.8362558     0.1773496   -0.8320455    -0.4917182   -0.0435241 
   5.867500000    -0.4739243   -0.0431038     0.1678812   -0.8375727     0.1763446   -0.8336232    -0.4885916   -0.0467721 
   5.870000000    -0.4721990   -0.0454873     0.1679191   -0.8387694     0.1748475   -0.8350769    -0.4854280   -0.0494425 
   5.872500000    -0.4708146   -0.0480674     0.1665324   -0.8402660     0.1750360   -0.8361726    -0.4829611   -0.0518971 
   5.875000000    -0.4696897   -0.0503678     0.1654101   -0.8416015     0.1737904   -0.8367593    -0.4812127   -0.0539847 
   5.877500000    -0.4689755   -0.0521115     0.1638267   -0.8430661     0.1724702   -0.8390029    -0.4792408   -0.0564088 
   5.880000000    -0.4683833   -0.0535231     0.1631750   -0.8442884     0.1693190   -0.8405721    -0.4773882   -0.0583998 
   5.882500000    -0.4677545   -0.0556753     0.1597723   -0.8460094     0.1705695   -0.8415984    -0.4754551   -0.0611441 
   5.885000000    -0.4675688   -0.0578383     0.1598901   -0.8471295     0.1663806   -0.8442258    -0.4737273   -0.0634798 
   5.887500000    -0.4676212   -0.0603480     0.1571487   -0.8488625     0.1674884   -0.8452836    -0.4719837   -0.0663561 
   5.890000000    -0.4680206   -0.0618655     0.1561325   -0.8503613     0.1623477   -0.8476275    -0.4709824   -0.0686181 
