! MS46122B
! 1919307/90821646
! 5/25/2022 1:17:11 PM
! C:\USERS\PC_\DESKTOP\CARACTERIZACION\MEDICIONES\BANCHA ESTRECHA\5_55GHZ\S11_S21_ABS3_502CL.S2P
! CHANNEL.1
! TR.MEASUREMENT
! CORRECTED.DATA
# GHZ S RI R 50.0
! FREQ.GHZ         S11RE         S11IM         S21RE         S21IM         S12RE         S12IM         S22RE         S22IM         
!; PortSelection: Port_12
   5.000000000    -0.4031253   -0.1833530     0.5018865   -0.7104288     0.5353572   -0.6689577    -0.3936206   -0.2244605 
   5.002500000    -0.4011238   -0.1901776     0.4973158   -0.7111687     0.5360793   -0.6698431    -0.3941082   -0.2225286 
   5.005000000    -0.4010868   -0.1930567     0.4960313   -0.7101209     0.5365368   -0.6703845    -0.3942552   -0.2212663 
   5.007500000    -0.4017667   -0.1955149     0.4959974   -0.7088238     0.5374831   -0.6707287    -0.3948019   -0.2197537 
   5.010000000    -0.4028048   -0.1976497     0.4962911   -0.7084289     0.5385202   -0.6705142    -0.3945694   -0.2187574 
   5.012500000    -0.4039880   -0.1996438     0.4960503   -0.7076718     0.5397018   -0.6702696    -0.3944300   -0.2170209 
   5.015000000    -0.4050267   -0.2017638     0.4960109   -0.7062953     0.5400260   -0.6706105    -0.3946656   -0.2159111 
   5.017500000    -0.4063856   -0.2036867     0.4944054   -0.7055811     0.5401807   -0.6706766    -0.3942655   -0.2150180 
   5.020000000    -0.4076115   -0.2055203     0.4944966   -0.7040692     0.5407287   -0.6707883    -0.3942525   -0.2137690 
   5.022500000    -0.4090836   -0.2067791     0.4939196   -0.7030790     0.5410577   -0.6710734    -0.3934792   -0.2129915 
   5.025000000    -0.4099764   -0.2080459     0.4934571   -0.7028349     0.5413937   -0.6708620    -0.3929688   -0.2121499 
   5.027500000    -0.4109966   -0.2090006     0.4932317   -0.7014807     0.5413837   -0.6709406    -0.3924799   -0.2110407 
   5.030000000    -0.4119403   -0.2097360     0.4915959   -0.7004260     0.5418635   -0.6708964    -0.3918881   -0.2105055 
   5.032500000    -0.4133046   -0.2100312     0.4910133   -0.6988078     0.5416203   -0.6711532    -0.3912791   -0.2099004 
   5.035000000    -0.4143414   -0.2104298     0.4900992   -0.6973317     0.5416405   -0.6715508    -0.3909649   -0.2092613 
   5.037500000    -0.4152705   -0.2106967     0.4900475   -0.6966124     0.5414424   -0.6714989    -0.3910165   -0.2085100 
   5.040000000    -0.4166996   -0.2109004     0.4890904   -0.6946697     0.5415730   -0.6718197    -0.3907010   -0.2083345 
   5.042500000    -0.4174187   -0.2116241     0.4887242   -0.6943218     0.5418726   -0.6722668    -0.3903536   -0.2068534 
   5.045000000    -0.4181983   -0.2121270     0.4877021   -0.6928256     0.5418729   -0.6717827    -0.3902167   -0.2062598 
   5.047500000    -0.4192932   -0.2121642     0.4878321   -0.6909723     0.5421194   -0.6722828    -0.3902655   -0.2057303 
   5.050000000    -0.4201248   -0.2126593     0.4877144   -0.6896519     0.5427524   -0.6724412    -0.3901369   -0.2050490 
   5.052500000    -0.4206961   -0.2130871     0.4878781   -0.6883821     0.5431240   -0.6721459    -0.3901318   -0.2042543 
   5.055000000    -0.4209456   -0.2134817     0.4888948   -0.6874721     0.5434042   -0.6726127    -0.3904363   -0.2031008 
   5.057500000    -0.4218886   -0.2136277     0.4882708   -0.6861842     0.5441951   -0.6727580    -0.3908811   -0.2023046 
   5.060000000    -0.4222692   -0.2139546     0.4892738   -0.6845024     0.5443624   -0.6726877    -0.3909236   -0.2012663 
   5.062500000    -0.4224823   -0.2146159     0.4899821   -0.6832797     0.5449346   -0.6727213    -0.3910041   -0.1999130 
   5.065000000    -0.4232666   -0.2147546     0.4913019   -0.6812968     0.5452343   -0.6731039    -0.3911909   -0.1982523 
   5.067500000    -0.4233910   -0.2153028     0.4920076   -0.6808990     0.5461341   -0.6730446    -0.3910786   -0.1967189 
   5.070000000    -0.4237241   -0.2157753     0.4937153   -0.6792446     0.5468342   -0.6730313    -0.3914379   -0.1949026 
   5.072500000    -0.4243203   -0.2161933     0.4937128   -0.6777589     0.5474064   -0.6730688    -0.3911548   -0.1926988 
   5.075000000    -0.4244221   -0.2171524     0.4953119   -0.6764882     0.5487410   -0.6732029    -0.3908893   -0.1908258 
   5.077500000    -0.4246940   -0.2179202     0.4966499   -0.6751384     0.5491681   -0.6733243    -0.3911487   -0.1887080 
   5.080000000    -0.4251279   -0.2187406     0.4978196   -0.6746783     0.5501437   -0.6738958    -0.3909198   -0.1866608 
   5.082500000    -0.4251175   -0.2192845     0.4991473   -0.6738490     0.5506647   -0.6740242    -0.3906624   -0.1840599 
   5.085000000    -0.4254126   -0.2202262     0.4997191   -0.6734461     0.5515715   -0.6741889    -0.3905006   -0.1816836 
   5.087500000    -0.4255398   -0.2212735     0.5009277   -0.6722177     0.5521904   -0.6753024    -0.3905669   -0.1795199 
   5.090000000    -0.4262316   -0.2222575     0.5018190   -0.6718426     0.5530600   -0.6755427    -0.3900545   -0.1773589 
   5.092500000    -0.4268661   -0.2234571     0.5033730   -0.6717903     0.5537028   -0.6761959    -0.3895549   -0.1754002 
   5.095000000    -0.4272489   -0.2246116     0.5043901   -0.6721703     0.5545681   -0.6769858    -0.3887411   -0.1735236 
   5.097500000    -0.4274679   -0.2250697     0.5056241   -0.6721203     0.5555987   -0.6774119    -0.3884283   -0.1713430 
   5.100000000    -0.4279979   -0.2260186     0.5061963   -0.6721034     0.5572196   -0.6783705    -0.3877763   -0.1696755 
   5.102500000    -0.4281523   -0.2272429     0.5078815   -0.6724247     0.5583575   -0.6793010    -0.3871128   -0.1679053 
   5.105000000    -0.4284142   -0.2283255     0.5093037   -0.6726661     0.5597770   -0.6804110    -0.3864985   -0.1666826 
   5.107500000    -0.4291045   -0.2292401     0.5099158   -0.6735860     0.5612006   -0.6817970    -0.3856996   -0.1653993 
   5.110000000    -0.4290564   -0.2297322     0.5111466   -0.6735854     0.5626863   -0.6825623    -0.3852953   -0.1643672 
   5.112500000    -0.4294987   -0.2304660     0.5113671   -0.6735019     0.5644511   -0.6841121    -0.3851474   -0.1623733 
   5.115000000    -0.4294262   -0.2311154     0.5120853   -0.6737813     0.5657063   -0.6858989    -0.3842588   -0.1617491 
   5.117500000    -0.4294403   -0.2312544     0.5129797   -0.6739603     0.5673172   -0.6867611    -0.3836005   -0.1603083 
   5.120000000    -0.4292766   -0.2314077     0.5141613   -0.6748465     0.5682254   -0.6885955    -0.3824264   -0.1588380 
   5.122500000    -0.4285877   -0.2316311     0.5149504   -0.6741109     0.5694325   -0.6903356    -0.3811598   -0.1579404 
   5.125000000    -0.4276937   -0.2314942     0.5140693   -0.6742568     0.5701313   -0.6919043    -0.3803780   -0.1574140 
   5.127500000    -0.4266576   -0.2313408     0.5149653   -0.6736220     0.5702692   -0.6943821    -0.3789459   -0.1569553 
   5.130000000    -0.4252864   -0.2310164     0.5156267   -0.6730707     0.5711335   -0.6960727    -0.3783861   -0.1561085 
   5.132500000    -0.4236400   -0.2305351     0.5164576   -0.6723934     0.5709071   -0.6988128    -0.3774512   -0.1557841 
   5.135000000    -0.4219867   -0.2296447     0.5170387   -0.6727678     0.5710151   -0.7012982    -0.3767956   -0.1554710 
   5.137500000    -0.4205534   -0.2292528     0.5175540   -0.6727380     0.5711582   -0.7033195    -0.3762980   -0.1548569 
   5.140000000    -0.4189262   -0.2284483     0.5182970   -0.6715744     0.5710459   -0.7057017    -0.3753789   -0.1546887 
   5.142500000    -0.4171714   -0.2280046     0.5191608   -0.6713212     0.5701005   -0.7084779    -0.3749473   -0.1542874 
   5.145000000    -0.4153411   -0.2276248     0.5202756   -0.6703779     0.5695785   -0.7107527    -0.3740518   -0.1541925 
   5.147500000    -0.4132313   -0.2271763     0.5209839   -0.6703107     0.5687709   -0.7129069    -0.3728625   -0.1538385 
   5.150000000    -0.4105655   -0.2268479     0.5216723   -0.6698268     0.5681473   -0.7150934    -0.3713509   -0.1549161 
   5.152500000    -0.4085296   -0.2267148     0.5220393   -0.6691833     0.5671371   -0.7172869    -0.3698125   -0.1551419 
   5.155000000    -0.4061431   -0.2265844     0.5244728   -0.6691921     0.5664431   -0.7189740    -0.3687498   -0.1548230 
   5.157500000    -0.4052521   -0.2264562     0.5261453   -0.6691260     0.5649518   -0.7213155    -0.3669534   -0.1548528 
   5.160000000    -0.4034460   -0.2268650     0.5277327   -0.6686621     0.5639907   -0.7231615    -0.3654102   -0.1549511 
   5.162500000    -0.4011812   -0.2271150     0.5292161   -0.6679335     0.5629212   -0.7245064    -0.3634364   -0.1550170 
   5.165000000    -0.3992441   -0.2277877     0.5306079   -0.6686098     0.5625263   -0.7256340    -0.3619654   -0.1552505 
   5.167500000    -0.3975078   -0.2279589     0.5321589   -0.6685835     0.5610958   -0.7271655    -0.3599969   -0.1548967 
   5.170000000    -0.3961477   -0.2277381     0.5355217   -0.6691949     0.5595325   -0.7281260    -0.3571077   -0.1544913 
   5.172500000    -0.3949961   -0.2275942     0.5379320   -0.6694204     0.5577805   -0.7288677    -0.3545042   -0.1544498 
   5.175000000    -0.3940485   -0.2273301     0.5398309   -0.6691250     0.5562808   -0.7293367    -0.3518286   -0.1543185 
   5.177500000    -0.3937457   -0.2273564     0.5421158   -0.6692851     0.5545833   -0.7303202    -0.3489962   -0.1546963 
   5.180000000    -0.3938641   -0.2263994     0.5445654   -0.6704827     0.5519828   -0.7298415    -0.3464980   -0.1545264 
   5.182500000    -0.3933630   -0.2258681     0.5455369   -0.6712325     0.5500023   -0.7300076    -0.3432555   -0.1550190 
   5.185000000    -0.3928885   -0.2248358     0.5487154   -0.6718650     0.5484263   -0.7295869    -0.3395603   -0.1555702 
   5.187500000    -0.3923671   -0.2233077     0.5515336   -0.6735212     0.5462138   -0.7290077    -0.3368703   -0.1569573 
   5.190000000    -0.3922761   -0.2213142     0.5534121   -0.6744388     0.5443346   -0.7280496    -0.3332029   -0.1577710 
   5.192500000    -0.3915536   -0.2197645     0.5557454   -0.6767352     0.5422999   -0.7266212    -0.3306571   -0.1593826 
   5.195000000    -0.3913572   -0.2177399     0.5579951   -0.6778612     0.5413109   -0.7255128    -0.3273705   -0.1616001 
   5.197500000    -0.3910631   -0.2153103     0.5588992   -0.6798601     0.5401664   -0.7245868    -0.3243274   -0.1636679 
   5.200000000    -0.3905057   -0.2125953     0.5604345   -0.6824720     0.5397416   -0.7230709    -0.3216851   -0.1661642 
   5.202500000    -0.3896746   -0.2098164     0.5626659   -0.6849232     0.5401407   -0.7217712    -0.3194210   -0.1688588 
   5.205000000    -0.3883386   -0.2071253     0.5639041   -0.6879914     0.5402397   -0.7202964    -0.3171223   -0.1717556 
   5.207500000    -0.3866979   -0.2045782     0.5648528   -0.6902120     0.5409995   -0.7189990    -0.3150858   -0.1744993 
   5.210000000    -0.3851208   -0.2018334     0.5645709   -0.6930320     0.5423602   -0.7177985    -0.3136280   -0.1768496 
   5.212500000    -0.3831695   -0.1995417     0.5649714   -0.6953932     0.5444592   -0.7173458    -0.3111044   -0.1791757 
   5.215000000    -0.3814220   -0.1978116     0.5660865   -0.6982881     0.5465253   -0.7174374    -0.3096064   -0.1819243 
   5.217500000    -0.3795770   -0.1961519     0.5661557   -0.7014133     0.5489693   -0.7178922    -0.3084199   -0.1846969 
   5.220000000    -0.3772170   -0.1950572     0.5667990   -0.7032432     0.5513300   -0.7179235    -0.3071514   -0.1874031 
   5.222500000    -0.3750571   -0.1933188     0.5661382   -0.7060938     0.5532264   -0.7189757    -0.3061545   -0.1897935 
   5.225000000    -0.3727693   -0.1923519     0.5666378   -0.7076760     0.5558039   -0.7200428    -0.3053980   -0.1927944 
   5.227500000    -0.3711236   -0.1912724     0.5667268   -0.7102803     0.5580995   -0.7218816    -0.3049181   -0.1953678 
   5.230000000    -0.3687191   -0.1898563     0.5669200   -0.7124507     0.5602657   -0.7240859    -0.3041008   -0.1978388 
   5.232500000    -0.3661079   -0.1890636     0.5668752   -0.7142317     0.5614142   -0.7261413    -0.3035581   -0.2002272 
   5.235000000    -0.3638791   -0.1878871     0.5663015   -0.7161391     0.5623385   -0.7291078    -0.3028194   -0.2025132 
   5.237500000    -0.3628876   -0.1867049     0.5654835   -0.7178549     0.5634919   -0.7315825    -0.3022006   -0.2047528 
   5.240000000    -0.3618472   -0.1855430     0.5656190   -0.7202125     0.5638394   -0.7351457    -0.3018598   -0.2062373 
   5.242500000    -0.3598684   -0.1835587     0.5653890   -0.7231390     0.5635958   -0.7391312    -0.3018406   -0.2076202 
   5.245000000    -0.3560778   -0.1816679     0.5649855   -0.7253054     0.5626730   -0.7426118    -0.3019134   -0.2084793 
   5.247500000    -0.3524222   -0.1806453     0.5632241   -0.7271304     0.5617987   -0.7463340    -0.3018240   -0.2092859 
   5.250000000    -0.3502699   -0.1792305     0.5622458   -0.7296159     0.5598435   -0.7501502    -0.3019450   -0.2103980 
   5.252500000    -0.3494134   -0.1781279     0.5619290   -0.7316785     0.5582912   -0.7536145    -0.3023293   -0.2115323 
   5.255000000    -0.3465619   -0.1776328     0.5610233   -0.7338172     0.5558018   -0.7562177    -0.3026025   -0.2130728 
   5.257500000    -0.3422587   -0.1765513     0.5594971   -0.7366961     0.5530209   -0.7594978    -0.3017153   -0.2136064 
   5.260000000    -0.3383252   -0.1756472     0.5571965   -0.7392825     0.5503390   -0.7622315    -0.3011020   -0.2144035 
   5.262500000    -0.3352228   -0.1750206     0.5556394   -0.7404010     0.5470608   -0.7645281    -0.3000718   -0.2147397 
   5.265000000    -0.3332580   -0.1739104     0.5544773   -0.7414674     0.5447021   -0.7658993    -0.2991377   -0.2166764 
   5.267500000    -0.3312276   -0.1735280     0.5530277   -0.7430986     0.5420602   -0.7680082    -0.2979668   -0.2181070 
   5.270000000    -0.3287019   -0.1734322     0.5519559   -0.7440919     0.5392982   -0.7687555    -0.2968932   -0.2194663 
   5.272500000    -0.3254793   -0.1736598     0.5500501   -0.7449144     0.5365475   -0.7698058    -0.2949863   -0.2207418 
   5.275000000    -0.3226015   -0.1734312     0.5485603   -0.7460558     0.5335665   -0.7693239    -0.2930581   -0.2220804 
   5.277500000    -0.3196523   -0.1732109     0.5466253   -0.7470210     0.5303884   -0.7691929    -0.2911001   -0.2234076 
   5.280000000    -0.3175829   -0.1728848     0.5453083   -0.7469684     0.5274681   -0.7688520    -0.2895595   -0.2252084 
   5.282500000    -0.3163823   -0.1725046     0.5447488   -0.7466578     0.5252450   -0.7683823    -0.2885452   -0.2281300 
   5.285000000    -0.3152621   -0.1724293     0.5438364   -0.7466725     0.5236324   -0.7671031    -0.2873785   -0.2310747 
   5.287500000    -0.3139002   -0.1724046     0.5434070   -0.7462042     0.5214548   -0.7652585    -0.2856511   -0.2342505 
   5.290000000    -0.3120652   -0.1723057     0.5428627   -0.7463975     0.5200691   -0.7640933    -0.2840761   -0.2366010 
   5.292500000    -0.3105497   -0.1715018     0.5421221   -0.7461046     0.5186877   -0.7614622    -0.2823554   -0.2393925 
   5.295000000    -0.3089564   -0.1709480     0.5421222   -0.7453544     0.5177199   -0.7594650    -0.2806634   -0.2424393 
   5.297500000    -0.3077136   -0.1700528     0.5418949   -0.7444618     0.5170234   -0.7578982    -0.2794642   -0.2455182 
   5.300000000    -0.3066075   -0.1684484     0.5423266   -0.7434548     0.5172684   -0.7558707    -0.2781022   -0.2484950 
   5.302500000    -0.3058182   -0.1674769     0.5424927   -0.7446582     0.5178924   -0.7541592    -0.2767008   -0.2524945 
   5.305000000    -0.3040529   -0.1657282     0.5438245   -0.7435335     0.5184585   -0.7520457    -0.2756380   -0.2556610 
   5.307500000    -0.3025883   -0.1644153     0.5440785   -0.7442656     0.5203981   -0.7511684    -0.2739326   -0.2592743 
   5.310000000    -0.3013550   -0.1631783     0.5454856   -0.7443858     0.5224941   -0.7505618    -0.2725450   -0.2637974 
   5.312500000    -0.3001349   -0.1623982     0.5465856   -0.7452391     0.5251325   -0.7505253    -0.2709459   -0.2678191 
   5.315000000    -0.2990312   -0.1617944     0.5480102   -0.7466618     0.5276309   -0.7509550    -0.2701413   -0.2729466 
   5.317500000    -0.2976337   -0.1612181     0.5498656   -0.7472252     0.5301714   -0.7523772    -0.2696676   -0.2780751 
   5.320000000    -0.2968175   -0.1610702     0.5511236   -0.7490789     0.5328705   -0.7541168    -0.2696039   -0.2833444 
   5.322500000    -0.2960473   -0.1607604     0.5527961   -0.7502352     0.5357844   -0.7563636    -0.2699431   -0.2889256 
   5.325000000    -0.2966907   -0.1607160     0.5556095   -0.7527708     0.5379126   -0.7596424    -0.2702222   -0.2943783 
   5.327500000    -0.2968969   -0.1605435     0.5572311   -0.7556769     0.5400976   -0.7630277    -0.2708738   -0.2999437 
   5.330000000    -0.2969710   -0.1605203     0.5592798   -0.7579733     0.5414107   -0.7674763    -0.2722006   -0.3054525 
   5.332500000    -0.2970381   -0.1604088     0.5607992   -0.7603436     0.5426682   -0.7720253    -0.2746366   -0.3106709 
   5.335000000    -0.2976411   -0.1600074     0.5621935   -0.7623825     0.5426431   -0.7767937    -0.2771043   -0.3158154 
   5.337500000    -0.2983454   -0.1592389     0.5638098   -0.7659321     0.5426213   -0.7817839    -0.2804246   -0.3205246 
   5.340000000    -0.2993112   -0.1583549     0.5660900   -0.7701931     0.5419583   -0.7869934    -0.2842099   -0.3247129 
   5.342500000    -0.3001526   -0.1572144     0.5682445   -0.7741323     0.5402439   -0.7920742    -0.2881101   -0.3280168 
   5.345000000    -0.3006867   -0.1556450     0.5688901   -0.7787966     0.5371547   -0.7971270    -0.2918980   -0.3302211 
   5.347500000    -0.3007437   -0.1539396     0.5693724   -0.7840564     0.5339147   -0.8020069    -0.2961550   -0.3311635 
   5.350000000    -0.3011120   -0.1525081     0.5697014   -0.7889825     0.5298023   -0.8070743    -0.3003050   -0.3319300 
   5.352500000    -0.3008964   -0.1515166     0.5693671   -0.7955344     0.5244719   -0.8115337    -0.3041092   -0.3318640 
   5.355000000    -0.3002866   -0.1504827     0.5679654   -0.8027318     0.5187600   -0.8157161    -0.3078761   -0.3314109 
   5.357500000    -0.2992536   -0.1500189     0.5655931   -0.8098261     0.5121713   -0.8186914    -0.3113146   -0.3300816 
   5.360000000    -0.2983854   -0.1508526     0.5620615   -0.8162991     0.5045885   -0.8204195    -0.3130634   -0.3280873 
   5.362500000    -0.2982144   -0.1519982     0.5575571   -0.8227907     0.4982512   -0.8211541    -0.3138646   -0.3259487 
   5.365000000    -0.2973381   -0.1537617     0.5524957   -0.8295662     0.4912897   -0.8219571    -0.3147139   -0.3240498 
   5.367500000    -0.2974761   -0.1564502     0.5465727   -0.8351365     0.4849816   -0.8209982    -0.3146239   -0.3233650 
   5.370000000    -0.2975344   -0.1588650     0.5402424   -0.8391822     0.4783688   -0.8203260    -0.3135737   -0.3234350 
   5.372500000    -0.2980658   -0.1611332     0.5331460   -0.8427188     0.4722141   -0.8182841    -0.3126890   -0.3236400 
   5.375000000    -0.2994983   -0.1632630     0.5268159   -0.8457812     0.4672542   -0.8158537    -0.3129832   -0.3229468 
   5.377500000    -0.3016887   -0.1651408     0.5205618   -0.8475019     0.4622938   -0.8130515    -0.3124365   -0.3236921 
   5.380000000    -0.3037719   -0.1671442     0.5143610   -0.8494468     0.4586051   -0.8095229    -0.3121091   -0.3248188 
   5.382500000    -0.3063530   -0.1691076     0.5088018   -0.8497194     0.4549794   -0.8063237    -0.3121487   -0.3263669 
   5.385000000    -0.3093477   -0.1708914     0.5024066   -0.8493486     0.4523490   -0.8024573    -0.3126621   -0.3280573 
   5.387500000    -0.3124623   -0.1720376     0.4962320   -0.8489680     0.4490502   -0.7991743    -0.3138802   -0.3289472 
