! MS46122B
! 1919307/90821646
! 5/25/2022 12:37:13 PM
! C:\USERS\PC_\DESKTOP\CARACTERIZACION\MEDICIONES\S11_S21_ABS15_502CL.S2P
! CHANNEL.1
! TR.MEASUREMENT
! CORRECTED.DATA
# GHZ S RI R 50.0
! FREQ.GHZ         S11RE         S11IM         S21RE         S21IM         S12RE         S12IM         S22RE         S22IM         
!; PortSelection: Port_12
   4.950000000    -0.7906458    0.1888501    -0.0855252   -0.5218754    -0.0820902   -0.5271481    -0.7697678    0.0647363 
   4.957564576    -0.7907822    0.1901766    -0.0835090   -0.5232552    -0.0810348   -0.5274653    -0.7718254    0.0685148 
   4.965129151    -0.7932733    0.1889293    -0.0825492   -0.5236160    -0.0802397   -0.5281004    -0.7744994    0.0725586 
   4.972693727    -0.7942685    0.1873837    -0.0807654   -0.5236589    -0.0793389   -0.5280278    -0.7775766    0.0780881 
   4.980258303    -0.7949370    0.1859879    -0.0803215   -0.5234485    -0.0786214   -0.5281100    -0.7800074    0.0824347 
   4.987822878    -0.7942178    0.1852964    -0.0787441   -0.5233176    -0.0772898   -0.5281833    -0.7810415    0.0870819 
   4.995387454    -0.7947959    0.1856586    -0.0773263   -0.5232846    -0.0765325   -0.5285719    -0.7828774    0.0904691 
   5.002952030    -0.7948363    0.1859784    -0.0760172   -0.5239431    -0.0750341   -0.5291154    -0.7835115    0.0931093 
   5.010516605    -0.7952523    0.1856489    -0.0721955   -0.5247239    -0.0728626   -0.5297292    -0.7845503    0.0950883 
   5.018081181    -0.7959079    0.1851305    -0.0700151   -0.5256937    -0.0708153   -0.5307518    -0.7853090    0.0967265 
   5.025645756    -0.7966416    0.1851577    -0.0669653   -0.5268156    -0.0684990   -0.5316815    -0.7846289    0.0980085 
   5.033210332    -0.7970906    0.1863135    -0.0651108   -0.5289000    -0.0665465   -0.5332618    -0.7855098    0.0992798 
   5.040774908    -0.7985623    0.1886047    -0.0623079   -0.5321206    -0.0650339   -0.5356904    -0.7863787    0.1010791 
   5.048339483    -0.8008615    0.1894709    -0.0612120   -0.5360341    -0.0630494   -0.5387341    -0.7879201    0.1026910 
   5.055904059    -0.8033159    0.1910400    -0.0586576   -0.5403463    -0.0614259   -0.5420116    -0.7899016    0.1057526 
   5.063468635    -0.8054320    0.1910313    -0.0579387   -0.5450183    -0.0600398   -0.5455706    -0.7925061    0.1086195 
   5.071033210    -0.8065969    0.1921166    -0.0570370   -0.5486470    -0.0594074   -0.5490732    -0.7933179    0.1132228 
   5.078597786    -0.8072909    0.1922260    -0.0566800   -0.5527691    -0.0587477   -0.5533881    -0.7947992    0.1181074 
   5.086162362    -0.8056753    0.1928447    -0.0578189   -0.5570002    -0.0593593   -0.5575398    -0.7958442    0.1246474 
   5.093726937    -0.8043185    0.1939835    -0.0579999   -0.5615985    -0.0599838   -0.5623831    -0.7970558    0.1309172 
   5.101291513    -0.8022084    0.1934908    -0.0579946   -0.5665562    -0.0600917   -0.5676261    -0.7975889    0.1373069 
   5.108856089    -0.7995045    0.1929465    -0.0580864   -0.5721250    -0.0603116   -0.5730823    -0.7968915    0.1443734 
   5.116420664    -0.7952407    0.1922823    -0.0585045   -0.5782095    -0.0610573   -0.5792030    -0.7979926    0.1522359 
   5.123985240    -0.7914613    0.1910229    -0.0592366   -0.5842901    -0.0626429   -0.5844815    -0.7966407    0.1596541 
   5.131549815    -0.7851581    0.1902762    -0.0610695   -0.5910706    -0.0655784   -0.5903854    -0.7957316    0.1660054 
   5.139114391    -0.7785674    0.1896937    -0.0639528   -0.5972083    -0.0690072   -0.5963700    -0.7951257    0.1712354 
   5.146678967    -0.7726629    0.1906888    -0.0678719   -0.6037332    -0.0731257   -0.6023995    -0.7930630    0.1750551 
   5.154243542    -0.7660639    0.1917845    -0.0718512   -0.6099943    -0.0773500   -0.6078622    -0.7903728    0.1756281 
   5.161808118    -0.7606080    0.1924266    -0.0761962   -0.6163898    -0.0813789   -0.6127999    -0.7869399    0.1752831 
   5.169372694    -0.7541743    0.1919475    -0.0811994   -0.6211393    -0.0852960   -0.6168051    -0.7821854    0.1749615 
   5.176937269    -0.7475431    0.1927506    -0.0862223   -0.6260549    -0.0896346   -0.6199874    -0.7780370    0.1745109 
   5.184501845    -0.7407246    0.1937100    -0.0919460   -0.6298582    -0.0938849   -0.6222654    -0.7724319    0.1738919 
   5.192066421    -0.7338139    0.1931664    -0.0964592   -0.6332983    -0.0980864   -0.6253572    -0.7679322    0.1728672 
   5.199630996    -0.7285634    0.1934171    -0.1021849   -0.6373327    -0.1019737   -0.6292449    -0.7642053    0.1698466 
   5.207195572    -0.7226693    0.1943859    -0.1073905   -0.6416572    -0.1060010   -0.6333457    -0.7598929    0.1678004 
   5.214760148    -0.7176839    0.1943106    -0.1131935   -0.6462096    -0.1109389   -0.6384059    -0.7546765    0.1657798 
   5.222324723    -0.7120556    0.1940542    -0.1202956   -0.6506273    -0.1172250   -0.6430484    -0.7500397    0.1634580 
   5.229889299    -0.7059408    0.1930831    -0.1290219   -0.6546586    -0.1250414   -0.6480802    -0.7463363    0.1620089 
   5.237453875    -0.6998000    0.1930730    -0.1379509   -0.6568384    -0.1338045   -0.6503838    -0.7421464    0.1600865 
   5.245018450    -0.6937097    0.1933426    -0.1479250   -0.6579086    -0.1442350   -0.6526048    -0.7396206    0.1605206 
   5.252583026    -0.6881717    0.1961615    -0.1590465   -0.6586714    -0.1543198   -0.6530833    -0.7383806    0.1624261 
   5.260147601    -0.6797247    0.1975887    -0.1687281   -0.6572673    -0.1639498   -0.6511673    -0.7352099    0.1639562 
   5.267712177    -0.6722450    0.1999778    -0.1773735   -0.6544965    -0.1725768   -0.6484112    -0.7309310    0.1638028 
   5.275276753    -0.6635470    0.2008308    -0.1843064   -0.6502735    -0.1799692   -0.6441616    -0.7252842    0.1628267 
   5.282841328    -0.6545988    0.2002369    -0.1907787   -0.6446322    -0.1855258   -0.6393533    -0.7199988    0.1586123 
   5.290405904    -0.6479502    0.1966636    -0.1942836   -0.6399380    -0.1889418   -0.6350771    -0.7157074    0.1515434 
   5.297970480    -0.6417096    0.1934941    -0.1984693   -0.6360213    -0.1917139   -0.6317071    -0.7107663    0.1440718 
   5.305535055    -0.6394511    0.1916557    -0.2030417   -0.6332464    -0.1949862   -0.6301299    -0.7076039    0.1365750 
   5.313099631    -0.6404823    0.1910659    -0.2070701   -0.6333827    -0.1990177   -0.6300760    -0.7053540    0.1294340 
   5.320664207    -0.6421593    0.1929536    -0.2132547   -0.6326739    -0.2042955   -0.6296923    -0.7051805    0.1221419 
   5.328228782    -0.6451924    0.1964734    -0.2205962   -0.6308440    -0.2111959   -0.6295694    -0.7023215    0.1159023 
   5.335793358    -0.6458259    0.1990126    -0.2279506   -0.6264385    -0.2195244   -0.6263769    -0.7007036    0.1092737 
   5.343357934    -0.6464176    0.2031090    -0.2361463   -0.6203250    -0.2273820   -0.6215066    -0.6988375    0.1038218 
   5.350922509    -0.6480578    0.2049198    -0.2432017   -0.6119779    -0.2338964   -0.6140442    -0.6969743    0.0996564 
   5.358487085    -0.6496005    0.2088415    -0.2481985   -0.6036110    -0.2394548   -0.6056823    -0.6969979    0.0959646 
   5.366051661    -0.6535400    0.2114819    -0.2508273   -0.5954973    -0.2425156   -0.5981500    -0.6970599    0.0944252 
   5.373616236    -0.6573619    0.2149990    -0.2517677   -0.5883920    -0.2447939   -0.5902053    -0.6982805    0.0938326 
   5.381180812    -0.6600461    0.2194462    -0.2508786   -0.5804806    -0.2447024   -0.5832972    -0.6998147    0.0954458 
   5.388745387    -0.6634719    0.2222915    -0.2504052   -0.5736921    -0.2435771   -0.5765277    -0.7014967    0.0977454 
   5.396309963    -0.6654862    0.2234572    -0.2479352   -0.5674073    -0.2418616   -0.5704498    -0.7029809    0.1009113 
   5.403874539    -0.6673117    0.2246297    -0.2459700   -0.5611342    -0.2391090   -0.5652412    -0.7048686    0.1041288 
   5.411439114    -0.6705295    0.2254352    -0.2429472   -0.5567573    -0.2374272   -0.5609713    -0.7065455    0.1054243 
   5.419003690    -0.6745263    0.2259111    -0.2405340   -0.5529824    -0.2345108   -0.5580323    -0.7078717    0.1070926 
   5.426568266    -0.6794896    0.2266432    -0.2387624   -0.5505717    -0.2337298   -0.5564948    -0.7106761    0.1068671 
   5.434132841    -0.6841692    0.2283123    -0.2370299   -0.5483524    -0.2325942   -0.5552849    -0.7125551    0.1085158 
   5.441697417    -0.6886888    0.2294980    -0.2355590   -0.5456456    -0.2317510   -0.5526902    -0.7140970    0.1087741 
   5.449261993    -0.6926683    0.2319181    -0.2338862   -0.5413417    -0.2315009   -0.5485949    -0.7144764    0.1096250 
   5.456826568    -0.6964981    0.2339561    -0.2323493   -0.5369186    -0.2312683   -0.5437350    -0.7151765    0.1089908 
   5.464391144    -0.7000759    0.2357526    -0.2304779   -0.5325893    -0.2297346   -0.5382429    -0.7152393    0.1088903 
   5.471955720    -0.7044566    0.2387408    -0.2263394   -0.5293456    -0.2260952   -0.5336320    -0.7157716    0.1083645 
   5.479520295    -0.7097434    0.2402762    -0.2212413   -0.5268892    -0.2209780   -0.5303510    -0.7159231    0.1083529 
   5.487084871    -0.7133778    0.2423017    -0.2159312   -0.5249748    -0.2158272   -0.5277092    -0.7160334    0.1089382 
   5.494649446    -0.7179755    0.2445787    -0.2094887   -0.5235040    -0.2096419   -0.5265658    -0.7165421    0.1084537 
   5.502214022    -0.7227947    0.2474159    -0.2040199   -0.5238891    -0.2036204   -0.5263675    -0.7186556    0.1111098 
   5.509778598    -0.7280113    0.2495244    -0.1982394   -0.5242409    -0.1988452   -0.5275602    -0.7226612    0.1148857 
   5.517343173    -0.7331015    0.2528203    -0.1939182   -0.5261816    -0.1938233   -0.5284344    -0.7257929    0.1220805 
   5.524907749    -0.7371984    0.2570593    -0.1902524   -0.5279508    -0.1899102   -0.5302951    -0.7305672    0.1290844 
   5.532472325    -0.7405366    0.2607358    -0.1860074   -0.5297055    -0.1866769   -0.5324284    -0.7336807    0.1379879 
   5.540036900    -0.7440131    0.2652535    -0.1817432   -0.5319243    -0.1825652   -0.5348657    -0.7378718    0.1472826 
   5.547601476    -0.7449548    0.2680022    -0.1775715   -0.5341319    -0.1785604   -0.5374964    -0.7407485    0.1561827 
   5.555166052    -0.7470389    0.2708944    -0.1736398   -0.5362279    -0.1748729   -0.5393106    -0.7422693    0.1646646 
   5.562730627    -0.7443755    0.2734773    -0.1693071   -0.5379614    -0.1705237   -0.5410789    -0.7437661    0.1725697 
   5.570295203    -0.7450573    0.2735591    -0.1659766   -0.5407491    -0.1668316   -0.5434672    -0.7448289    0.1802696 
   5.577859779    -0.7454183    0.2771169    -0.1612194   -0.5445651    -0.1626049   -0.5468058    -0.7465106    0.1863266 
   5.585424354    -0.7449085    0.2795726    -0.1578908   -0.5492040    -0.1587067   -0.5512860    -0.7478003    0.1929913 
   5.592988930    -0.7452290    0.2829763    -0.1532318   -0.5541443    -0.1549278   -0.5564190    -0.7481337    0.1984640 
   5.600553506    -0.7452336    0.2855151    -0.1492042   -0.5595992    -0.1508373   -0.5621932    -0.7487088    0.2027489 
   5.608118081    -0.7458660    0.2892708    -0.1458040   -0.5653928    -0.1475231   -0.5676600    -0.7489578    0.2076105 
   5.615682657    -0.7462418    0.2929412    -0.1434685   -0.5722073    -0.1449521   -0.5738654    -0.7493963    0.2114511 
   5.623247232    -0.7455369    0.2982690    -0.1417624   -0.5793241    -0.1438082   -0.5802377    -0.7476956    0.2169579 
   5.630811808    -0.7442486    0.3038993    -0.1406834   -0.5870579    -0.1428109   -0.5873426    -0.7466509    0.2225558 
   5.638376384    -0.7432942    0.3106606    -0.1404792   -0.5953817    -0.1430351   -0.5950391    -0.7454740    0.2295628 
   5.645940959    -0.7414133    0.3178681    -0.1391326   -0.6039106    -0.1438091   -0.6031746    -0.7428916    0.2370409 
   5.653505535    -0.7393414    0.3237593    -0.1404659   -0.6122889    -0.1443685   -0.6108512    -0.7404674    0.2466775 
   5.661070111    -0.7365758    0.3288478    -0.1406010   -0.6205733    -0.1450385   -0.6191961    -0.7387516    0.2554067 
   5.668634686    -0.7319545    0.3333384    -0.1424042   -0.6290642    -0.1457193   -0.6265173    -0.7369379    0.2644836 
   5.676199262    -0.7255555    0.3374006    -0.1463578   -0.6375049    -0.1479251   -0.6339718    -0.7345596    0.2751177 
   5.683763838    -0.7184654    0.3413972    -0.1503495   -0.6463596    -0.1513970   -0.6423414    -0.7312797    0.2849635 
   5.691328413    -0.7106757    0.3460116    -0.1535994   -0.6552795    -0.1561869   -0.6501496    -0.7272992    0.2943446 
   5.698892989    -0.7029688    0.3488936    -0.1587011   -0.6639464    -0.1611033   -0.6592309    -0.7231969    0.3032757 
   5.706457565    -0.6940478    0.3503077    -0.1638911   -0.6717420    -0.1663412   -0.6675948    -0.7178503    0.3117083 
   5.714022140    -0.6843684    0.3527295    -0.1698901   -0.6792238    -0.1722523   -0.6746109    -0.7107704    0.3192762 
   5.721586716    -0.6736081    0.3537240    -0.1764951   -0.6853299    -0.1782589   -0.6811947    -0.7053038    0.3261268 
   5.729151292    -0.6625782    0.3546709    -0.1839399   -0.6913539    -0.1848863   -0.6869256    -0.6986234    0.3296251 
   5.736715867    -0.6514919    0.3559557    -0.1923121   -0.6975137    -0.1923738   -0.6928355    -0.6911774    0.3331102 
   5.744280443    -0.6403426    0.3564597    -0.1985436   -0.7042341    -0.2004604   -0.6987982    -0.6809861    0.3340974 
   5.751845018    -0.6300536    0.3573084    -0.2077374   -0.7105101    -0.2078172   -0.7047060    -0.6713911    0.3346501 
   5.759409594    -0.6193681    0.3573723    -0.2153404   -0.7163122    -0.2151935   -0.7107427    -0.6618182    0.3331063 
   5.766974170    -0.6087103    0.3568572    -0.2240032   -0.7213261    -0.2230665   -0.7158380    -0.6519775    0.3309546 
   5.774538745    -0.5971214    0.3568835    -0.2337027   -0.7247792    -0.2318914   -0.7201016    -0.6427971    0.3265887 
   5.782103321    -0.5863906    0.3568397    -0.2444256   -0.7287020    -0.2426351   -0.7239705    -0.6342570    0.3242789 
   5.789667897    -0.5749553    0.3572299    -0.2560140   -0.7309477    -0.2537023   -0.7270707    -0.6250462    0.3206061 
   5.797232472    -0.5626659    0.3572916    -0.2684938   -0.7327265    -0.2653973   -0.7298698    -0.6160048    0.3176867 
   5.804797048    -0.5509362    0.3570231    -0.2797754   -0.7340653    -0.2766276   -0.7302942    -0.6078765    0.3155769 
   5.812361624    -0.5383267    0.3556132    -0.2898674   -0.7335497    -0.2877410   -0.7296259    -0.5995169    0.3128460 
   5.819926199    -0.5247654    0.3536782    -0.3000125   -0.7306460    -0.2968499   -0.7268295    -0.5905460    0.3108342 
   5.827490775    -0.5118497    0.3502498    -0.3092353   -0.7279077    -0.3065339   -0.7229385    -0.5835629    0.3076397 
   5.835055351    -0.4978734    0.3461316    -0.3191364   -0.7228730    -0.3155510   -0.7183277    -0.5742584    0.3045580 
   5.842619926    -0.4857824    0.3398870    -0.3259438   -0.7204136    -0.3226281   -0.7152475    -0.5675476    0.2996698 
   5.850184502    -0.4756625    0.3342893    -0.3349767   -0.7176021    -0.3305219   -0.7129151    -0.5620766    0.2944697 
   5.857749077    -0.4677093    0.3284998    -0.3423587   -0.7166533    -0.3365261   -0.7118801    -0.5582411    0.2884559 
   5.865313653    -0.4616223    0.3235036    -0.3502436   -0.7141454    -0.3432057   -0.7110522    -0.5536797    0.2815556 
   5.872878229    -0.4567568    0.3181570    -0.3587127   -0.7115965    -0.3500406   -0.7094420    -0.5496748    0.2719510 
   5.880442804    -0.4512387    0.3148307    -0.3686448   -0.7075903    -0.3605324   -0.7063969    -0.5453494    0.2636606 
   5.888007380    -0.4470463    0.3109102    -0.3792384   -0.7018061    -0.3724092   -0.7017426    -0.5410475    0.2521577 
   5.895571956    -0.4437928    0.3083956    -0.3890442   -0.6967782    -0.3786535   -0.6975896    -0.5388636    0.2418662 
   5.903136531    -0.4419260    0.3049286    -0.3966924   -0.6901262    -0.3892873   -0.6901453    -0.5384105    0.2312163 
   5.910701107    -0.4417823    0.3039784    -0.4027098   -0.6817753    -0.3972075   -0.6828091    -0.5382972    0.2214036 
   5.918265683    -0.4435661    0.3028108    -0.4077148   -0.6737866    -0.4014460   -0.6760474    -0.5382121    0.2117677 
   5.925830258    -0.4452138    0.3034213    -0.4125084   -0.6651767    -0.4066505   -0.6679595    -0.5387627    0.2050518 
   5.933394834    -0.4464836    0.3035723    -0.4151538   -0.6573147    -0.4092283   -0.6595978    -0.5389246    0.1990252 
   5.940959410    -0.4471582    0.3037753    -0.4182340   -0.6491145    -0.4115742   -0.6516928    -0.5389706    0.1948928 
   5.948523985    -0.4487174    0.3040703    -0.4202029   -0.6418980    -0.4113173   -0.6441789    -0.5381585    0.1907334 
   5.956088561    -0.4507239    0.3029007    -0.4205278   -0.6359155    -0.4147601   -0.6373147    -0.5383996    0.1864722 
   5.963653137    -0.4528778    0.3023622    -0.4202476   -0.6313930    -0.4131847   -0.6340005    -0.5386000    0.1855186 
   5.971217712    -0.4559206    0.3021578    -0.4225460   -0.6247739    -0.4167871   -0.6287475    -0.5403845    0.1846626 
   5.978782288    -0.4599918    0.3001426    -0.4217549   -0.6197130    -0.4164927   -0.6258837    -0.5418261    0.1845933 
   5.986346863    -0.4638337    0.2986367    -0.4229560   -0.6142079    -0.4172323   -0.6216629    -0.5442433    0.1843008 
   5.993911439    -0.4676398    0.2970107    -0.4237282   -0.6089870    -0.4191798   -0.6165486    -0.5475345    0.1836306 
   6.001476015    -0.4718243    0.2947138    -0.4237207   -0.6041374    -0.4204233   -0.6105824    -0.5502037    0.1833469 
   6.009040590    -0.4761729    0.2937368    -0.4237951   -0.5983070    -0.4223133   -0.6043910    -0.5521634    0.1811328 
   6.016605166    -0.4813631    0.2907794    -0.4229392   -0.5931576    -0.4220857   -0.5981550    -0.5549549    0.1806632 
   6.024169742    -0.4863887    0.2901085    -0.4217525   -0.5882308    -0.4215028   -0.5926037    -0.5577805    0.1794607 
   6.031734317    -0.4926446    0.2882768    -0.4195026   -0.5835115    -0.4195924   -0.5871518    -0.5586963    0.1782127 
   6.039298893    -0.4977894    0.2879963    -0.4178142   -0.5789285    -0.4163962   -0.5822743    -0.5613747    0.1771991 
   6.046863469    -0.5038784    0.2873600    -0.4139351   -0.5753287    -0.4136148   -0.5780139    -0.5627094    0.1749143 
   6.054428044    -0.5097404    0.2879966    -0.4126443   -0.5717257    -0.4105823   -0.5741147    -0.5654028    0.1731599 
   6.061992620    -0.5156305    0.2892199    -0.4094043   -0.5686635    -0.4083658   -0.5708418    -0.5671237    0.1715323 
   6.069557196    -0.5212440    0.2910157    -0.4075438   -0.5668007    -0.4054055   -0.5691136    -0.5683235    0.1714784 
   6.077121771    -0.5265912    0.2935087    -0.4037364   -0.5652608    -0.4030459   -0.5673494    -0.5683134    0.1719968 
   6.084686347    -0.5311967    0.2961369    -0.4012746   -0.5639765    -0.3996683   -0.5666349    -0.5703695    0.1737951 
   6.092250923    -0.5352900    0.2992369    -0.3977847   -0.5632678    -0.3968085   -0.5656250    -0.5708875    0.1767362 
   6.099815498    -0.5390497    0.3029700    -0.3951951   -0.5623371    -0.3936938   -0.5646210    -0.5733091    0.1810891 
   6.107380074    -0.5422321    0.3065448    -0.3917907   -0.5619781    -0.3913445   -0.5638676    -0.5743372    0.1862776 
   6.114944649    -0.5452083    0.3104026    -0.3897685   -0.5619533    -0.3892106   -0.5640848    -0.5762365    0.1931147 
   6.122509225    -0.5480030    0.3135399    -0.3874007   -0.5626526    -0.3860145   -0.5650937    -0.5778844    0.1994945 
   6.130073801    -0.5499731    0.3176198    -0.3854190   -0.5641137    -0.3835507   -0.5661787    -0.5795788    0.2076395 
