! MS46122B
! 1919307/90821646
! 5/16/2022 1:55:59 PM
! C:\USERS\PC_\DESKTOP\CARACTERIZACION\MEDICIONES\BANDA ANCHA\S11_S21_ABS44_1002C.S2P
! CHANNEL.1
! TR.MEASUREMENT
! CORRECTED.DATA
# GHZ S RI R 50.0
! FREQ.GHZ         S11RE         S11IM         S21RE         S21IM         S12RE         S12IM         S22RE         S22IM         
!; PortSelection: Port_12
   4.950000000    -0.7670555   -0.0623332     0.0487762   -0.6217073     0.0493800   -0.6444875    -0.7715132   -0.0344142 
   4.957564576    -0.7664131   -0.0636663     0.0475450   -0.6212068     0.0472249   -0.6428810    -0.7781478   -0.0244663 
   4.965129151    -0.7693700   -0.0675073     0.0459130   -0.6189119     0.0460275   -0.6407266    -0.7839644   -0.0144149 
   4.972693727    -0.7720129   -0.0703451     0.0450048   -0.6153594     0.0437193   -0.6373895    -0.7888424   -0.0042002 
   4.980258303    -0.7744316   -0.0716073     0.0441605   -0.6114827     0.0422130   -0.6329874    -0.7902136    0.0049830 
   4.987822878    -0.7760806   -0.0712234     0.0462404   -0.6071776     0.0408612   -0.6280510    -0.7890029    0.0132777 
   4.995387454    -0.7780011   -0.0686301     0.0483424   -0.6039186     0.0406747   -0.6235234    -0.7864134    0.0195612 
   5.002952030    -0.7785115   -0.0653185     0.0528036   -0.6018706     0.0406524   -0.6188012    -0.7818983    0.0239795 
   5.010516605    -0.7780826   -0.0611395     0.0567812   -0.6011989     0.0416784   -0.6142396    -0.7768214    0.0266489 
   5.018081181    -0.7771906   -0.0571190     0.0599051   -0.6012398     0.0430687   -0.6094048    -0.7700205    0.0291509 
   5.025645756    -0.7758124   -0.0535048     0.0645139   -0.6016753     0.0444840   -0.6055177    -0.7629387    0.0308643 
   5.033210332    -0.7732941   -0.0492914     0.0669562   -0.6029505     0.0469288   -0.6018004    -0.7564580    0.0313743 
   5.040774908    -0.7724275   -0.0436156     0.0699886   -0.6046880     0.0487631   -0.5987726    -0.7520915    0.0337234 
   5.048339483    -0.7707319   -0.0402555     0.0720983   -0.6079001     0.0514896   -0.5969545    -0.7489589    0.0352000 
   5.055904059    -0.7701831   -0.0365594     0.0758597   -0.6116176     0.0540956   -0.5967577    -0.7489019    0.0365462 
   5.063468635    -0.7690020   -0.0340598     0.0779016   -0.6162792     0.0571416   -0.5974838    -0.7499763    0.0373296 
   5.071033210    -0.7673047   -0.0313749     0.0802102   -0.6203792     0.0588463   -0.5994059    -0.7530528    0.0394989 
   5.078597786    -0.7652199   -0.0308227     0.0805821   -0.6248130     0.0597507   -0.6021572    -0.7574115    0.0413720 
   5.086162362    -0.7627188   -0.0299827     0.0793392   -0.6291322     0.0595278   -0.6053497    -0.7628925    0.0435313 
   5.093726937    -0.7607863   -0.0304548     0.0768530   -0.6337598     0.0581179   -0.6088603    -0.7684671    0.0443399 
   5.101291513    -0.7587339   -0.0314120     0.0740389   -0.6375089     0.0570917   -0.6124396    -0.7734105    0.0436793 
   5.108856089    -0.7580063   -0.0333359     0.0733585   -0.6404334     0.0566941   -0.6159427    -0.7769147    0.0425586 
   5.116420664    -0.7569661   -0.0348331     0.0720682   -0.6424761     0.0557796   -0.6189681    -0.7793753    0.0403960 
   5.123985240    -0.7558721   -0.0356716     0.0731526   -0.6443620     0.0558197   -0.6219196    -0.7787097    0.0377713 
   5.131549815    -0.7539505   -0.0358940     0.0729153   -0.6462148     0.0555139   -0.6251778    -0.7760621    0.0341667 
   5.139114391    -0.7513514   -0.0340135     0.0740467   -0.6482863     0.0545901   -0.6290214    -0.7723523    0.0301819 
   5.146678967    -0.7500504   -0.0313191     0.0749239   -0.6518234     0.0550584   -0.6339057    -0.7661154    0.0247558 
   5.154243542    -0.7458147   -0.0271434     0.0764683   -0.6551201     0.0553954   -0.6378923    -0.7557968    0.0186303 
   5.161808118    -0.7416902   -0.0241258     0.0778317   -0.6605583     0.0567904   -0.6418495    -0.7448321    0.0133194 
   5.169372694    -0.7369761   -0.0211672     0.0799537   -0.6658478     0.0591789   -0.6458412    -0.7328516    0.0103980 
   5.176937269    -0.7309548   -0.0182482     0.0804302   -0.6727425     0.0623076   -0.6494511    -0.7213181    0.0090181 
   5.184501845    -0.7237551   -0.0156027     0.0812185   -0.6791630     0.0665257   -0.6535043    -0.7104777    0.0100230 
   5.192066421    -0.7159048   -0.0150300     0.0796014   -0.6868801     0.0708318   -0.6592353    -0.7028309    0.0124376 
   5.199630996    -0.7092721   -0.0155355     0.0761320   -0.6953754     0.0742245   -0.6683556    -0.6967227    0.0144668 
   5.207195572    -0.7030095   -0.0182934     0.0726799   -0.7045618     0.0764497   -0.6788102    -0.6924814    0.0198302 
   5.214760148    -0.6992877   -0.0215060     0.0659022   -0.7133296     0.0759883   -0.6904280    -0.6878350    0.0265466 
   5.222324723    -0.6951716   -0.0262471     0.0563270   -0.7198306     0.0728315   -0.7011806    -0.6832780    0.0317240 
   5.229889299    -0.6925536   -0.0312650     0.0473288   -0.7247405     0.0673793   -0.7106575    -0.6819679    0.0355844 
   5.237453875    -0.6903694   -0.0359716     0.0367612   -0.7267633     0.0601219   -0.7168882    -0.6813632    0.0362812 
   5.245018450    -0.6895611   -0.0389090     0.0275876   -0.7277238     0.0521120   -0.7222722    -0.6849825    0.0380325 
   5.252583026    -0.6887365   -0.0411077     0.0169304   -0.7276049     0.0429149   -0.7250196    -0.6906818    0.0385496 
   5.260147601    -0.6855795   -0.0409442     0.0090832   -0.7271554     0.0345862   -0.7258325    -0.6958362    0.0376251 
   5.267712177    -0.6833297   -0.0427256     0.0010000   -0.7238200     0.0269548   -0.7245954    -0.6998478    0.0343544 
   5.275276753    -0.6799409   -0.0443940    -0.0029805   -0.7202260     0.0219413   -0.7214353    -0.7022234    0.0286245 
   5.282841328    -0.6780648   -0.0470865    -0.0075051   -0.7167752     0.0181217   -0.7184866    -0.7035587    0.0216555 
   5.290405904    -0.6769941   -0.0499399    -0.0102514   -0.7135555     0.0148600   -0.7147177    -0.7018994    0.0110588 
   5.297970480    -0.6760480   -0.0535830    -0.0127227   -0.7106390     0.0130448   -0.7108808    -0.6990464   -0.0018196 
   5.305535055    -0.6772802   -0.0541132    -0.0127007   -0.7105169     0.0129025   -0.7096659    -0.6995780   -0.0159746 
   5.313099631    -0.6796234   -0.0547694    -0.0154500   -0.7151001     0.0110835   -0.7114011    -0.7005725   -0.0258859 
   5.320664207    -0.6825204   -0.0550288    -0.0198088   -0.7191216     0.0071522   -0.7135298    -0.7011078   -0.0332356 
   5.328228782    -0.6876113   -0.0541794    -0.0262140   -0.7234416     0.0019300   -0.7162871    -0.7004470   -0.0408014 
   5.335793358    -0.6901844   -0.0534333    -0.0360248   -0.7253240    -0.0052757   -0.7182874    -0.7003390   -0.0452662 
   5.343357934    -0.6935252   -0.0517280    -0.0473263   -0.7241265    -0.0137989   -0.7196499    -0.7003320   -0.0476577 
   5.350922509    -0.6967935   -0.0512181    -0.0583861   -0.7211401    -0.0243549   -0.7186888    -0.7016575   -0.0465998 
   5.358487085    -0.6998361   -0.0512658    -0.0696336   -0.7161693    -0.0358316   -0.7168866    -0.7058902   -0.0436807 
   5.366051661    -0.7043885   -0.0513481    -0.0775232   -0.7105846    -0.0470195   -0.7139479    -0.7098559   -0.0365229 
   5.373616236    -0.7101672   -0.0530008    -0.0851970   -0.7036356    -0.0571604   -0.7090409    -0.7159973   -0.0293775 
   5.381180812    -0.7164772   -0.0527759    -0.0901983   -0.6950755    -0.0658657   -0.7049223    -0.7214738   -0.0198408 
   5.388745387    -0.7226998   -0.0541276    -0.0942541   -0.6857765    -0.0734633   -0.6994905    -0.7282221   -0.0095643 
   5.396309963    -0.7295617   -0.0562309    -0.0970036   -0.6763092    -0.0799260   -0.6944440    -0.7327709   -0.0001536 
   5.403874539    -0.7360301   -0.0567363    -0.0973106   -0.6656470    -0.0866190   -0.6882467    -0.7365836    0.0098175 
   5.411439114    -0.7454364   -0.0568910    -0.0969425   -0.6564112    -0.0928199   -0.6817253    -0.7374408    0.0171674 
   5.419003690    -0.7540376   -0.0553009    -0.0947765   -0.6487785    -0.0985314   -0.6749340    -0.7376922    0.0229208 
   5.426568266    -0.7626076   -0.0514124    -0.0909764   -0.6444938    -0.1025968   -0.6687406    -0.7373131    0.0232846 
   5.434132841    -0.7691614   -0.0463179    -0.0879178   -0.6412724    -0.1049167   -0.6624053    -0.7370088    0.0235668 
   5.441697417    -0.7737073   -0.0407996    -0.0866320   -0.6387534    -0.1060354   -0.6575806    -0.7380025    0.0221202 
   5.449261993    -0.7761588   -0.0351219    -0.0858334   -0.6353939    -0.1069949   -0.6522371    -0.7387710    0.0210460 
   5.456826568    -0.7778736   -0.0297021    -0.0864585   -0.6313556    -0.1092464   -0.6466350    -0.7398565    0.0200786 
   5.464391144    -0.7782831   -0.0257223    -0.0864131   -0.6262192    -0.1107410   -0.6404839    -0.7413656    0.0207383 
   5.471955720    -0.7791391   -0.0231153    -0.0860294   -0.6215826    -0.1101090   -0.6342741    -0.7426909    0.0212537 
   5.479520295    -0.7801188   -0.0206445    -0.0831945   -0.6169429    -0.1076637   -0.6281719    -0.7435620    0.0221700 
   5.487084871    -0.7811675   -0.0189266    -0.0805749   -0.6123136    -0.1028217   -0.6232122    -0.7450107    0.0230630 
   5.494649446    -0.7831030   -0.0167758    -0.0764730   -0.6081830    -0.0976102   -0.6191897    -0.7472129    0.0246656 
   5.502214022    -0.7861851   -0.0158373    -0.0727800   -0.6045840    -0.0915180   -0.6163517    -0.7524530    0.0296640 
   5.509778598    -0.7894565   -0.0140386    -0.0682712   -0.6014495    -0.0857172   -0.6145611    -0.7590014    0.0353028 
   5.517343173    -0.7937483   -0.0125411    -0.0660499   -0.5986575    -0.0810489   -0.6123112    -0.7656528    0.0445060 
   5.524907749    -0.7977679   -0.0091336    -0.0619654   -0.5957875    -0.0760333   -0.6108325    -0.7719057    0.0541943 
   5.532472325    -0.8013813   -0.0055480    -0.0592560   -0.5930337    -0.0719764   -0.6092290    -0.7776916    0.0645064 
   5.540036900    -0.8049534   -0.0011243    -0.0543560   -0.5899998    -0.0666959   -0.6071402    -0.7830577    0.0742959 
   5.547601476    -0.8063748    0.0030588    -0.0499183   -0.5865913    -0.0617238   -0.6050343    -0.7866254    0.0829721 
   5.555166052    -0.8091674    0.0077922    -0.0431110   -0.5834098    -0.0565789   -0.6019213    -0.7874817    0.0913065 
   5.562730627    -0.8067111    0.0132706    -0.0373846   -0.5803694    -0.0510498   -0.5983625    -0.7873568    0.0988740 
   5.570295203    -0.8074108    0.0162494    -0.0305039   -0.5787720    -0.0458329   -0.5946833    -0.7861609    0.1056042 
   5.577859779    -0.8063715    0.0223026    -0.0227094   -0.5785443    -0.0406395   -0.5915385    -0.7838250    0.1111508 
   5.585424354    -0.8045391    0.0273188    -0.0161725   -0.5801202    -0.0352892   -0.5883763    -0.7812672    0.1168623 
   5.592988930    -0.8022131    0.0324407    -0.0073885   -0.5819123    -0.0285287   -0.5861177    -0.7776580    0.1205884 
   5.600553506    -0.8005223    0.0377767     0.0001133   -0.5851026    -0.0220952   -0.5844330    -0.7735429    0.1236926 
   5.608118081    -0.7983059    0.0430526     0.0080052   -0.5888706    -0.0143070   -0.5826758    -0.7698684    0.1271871 
   5.615682657    -0.7966586    0.0483659     0.0137245   -0.5943299    -0.0077440   -0.5823881    -0.7674707    0.1287981 
   5.623247232    -0.7940624    0.0545315     0.0189746   -0.6002709    -0.0014568   -0.5830011    -0.7637658    0.1322539 
   5.630811808    -0.7911723    0.0606003     0.0235019   -0.6070269     0.0044262   -0.5850382    -0.7618710    0.1359495 
   5.638376384    -0.7889362    0.0668591     0.0273381   -0.6148856     0.0090801   -0.5891748    -0.7620305    0.1403335 
   5.645940959    -0.7868077    0.0719852     0.0294126   -0.6227253     0.0126675   -0.5942358    -0.7640608    0.1450737 
   5.653505535    -0.7847510    0.0778948     0.0305503   -0.6296027     0.0163579   -0.5998467    -0.7661216    0.1500290 
   5.661070111    -0.7824354    0.0814213     0.0316177   -0.6362422     0.0185028   -0.6056394    -0.7702696    0.1550322 
   5.668634686    -0.7800381    0.0844850     0.0317349   -0.6416298     0.0211675   -0.6112924    -0.7748489    0.1585481 
   5.676199262    -0.7767478    0.0869450     0.0315480   -0.6474584     0.0214245   -0.6157842    -0.7791720    0.1613149 
   5.683763838    -0.7736933    0.0901251     0.0307685   -0.6529930     0.0218539   -0.6217901    -0.7832797    0.1633632 
   5.691328413    -0.7703584    0.0941066     0.0314378   -0.6587995     0.0215362   -0.6280756    -0.7855111    0.1637088 
   5.698892989    -0.7671238    0.0965088     0.0312198   -0.6646378     0.0216620   -0.6347883    -0.7865868    0.1616925 
   5.706457565    -0.7632225    0.0992864     0.0323165   -0.6699128     0.0217265   -0.6424633    -0.7855046    0.1598743 
   5.714022140    -0.7590529    0.1020695     0.0334279   -0.6756926     0.0226539   -0.6491099    -0.7808901    0.1569343 
   5.721586716    -0.7532868    0.1051337     0.0343361   -0.6809452     0.0234589   -0.6563728    -0.7764735    0.1536230 
   5.729151292    -0.7459276    0.1087779     0.0335635   -0.6868104     0.0243721   -0.6626509    -0.7694999    0.1499369 
   5.736715867    -0.7391754    0.1120484     0.0348182   -0.6950326     0.0243174   -0.6709653    -0.7593891    0.1480677 
   5.744280443    -0.7315214    0.1154438     0.0343067   -0.7038189     0.0249240   -0.6800195    -0.7475181    0.1454935 
   5.751845018    -0.7234583    0.1182814     0.0335802   -0.7131895     0.0247264   -0.6896692    -0.7352815    0.1459365 
   5.759409594    -0.7148027    0.1198678     0.0324288   -0.7235832     0.0260836   -0.7010925    -0.7223218    0.1468381 
   5.766974170    -0.7056583    0.1216703     0.0291938   -0.7327138     0.0259558   -0.7112631    -0.7083109    0.1477235 
   5.774538745    -0.6960391    0.1225123     0.0240789   -0.7422907     0.0242444   -0.7226380    -0.6952036    0.1511213 
   5.782103321    -0.6874977    0.1230370     0.0162573   -0.7504621     0.0193949   -0.7326193    -0.6839566    0.1558629 
   5.789667897    -0.6784020    0.1220211     0.0080058   -0.7589214     0.0129560   -0.7421241    -0.6740373    0.1612947 
   5.797232472    -0.6686875    0.1217947    -0.0025567   -0.7663064     0.0066435   -0.7502132    -0.6641522    0.1673622 
   5.804797048    -0.6602600    0.1186765    -0.0122730   -0.7721807    -0.0009894   -0.7576723    -0.6581260    0.1731703 
   5.812361624    -0.6508426    0.1165691    -0.0211514   -0.7758484    -0.0073684   -0.7624635    -0.6519418    0.1786611 
   5.819926199    -0.6414067    0.1120938    -0.0311644   -0.7774100    -0.0131096   -0.7661700    -0.6475522    0.1844958 
   5.827490775    -0.6331529    0.1087544    -0.0405422   -0.7779009    -0.0184564   -0.7669417    -0.6448396    0.1879297 
   5.835055351    -0.6237485    0.1035721    -0.0489292   -0.7766529    -0.0244176   -0.7678934    -0.6425204    0.1907040 
   5.842619926    -0.6171042    0.0983168    -0.0566638   -0.7749156    -0.0273337   -0.7681487    -0.6401331    0.1918695 
   5.850184502    -0.6104662    0.0927116    -0.0629941   -0.7740225    -0.0314903   -0.7696221    -0.6380779    0.1909806 
   5.857749077    -0.6041121    0.0844293    -0.0651719   -0.7755571    -0.0309457   -0.7743048    -0.6342210    0.1849273 
   5.865313653    -0.6036861    0.0753287    -0.0709536   -0.7812775    -0.0347708   -0.7806426    -0.6317279    0.1743930 
   5.872878229    -0.6046120    0.0703523    -0.0789777   -0.7833255    -0.0406124   -0.7861657    -0.6290289    0.1619796 
   5.880442804    -0.6048987    0.0697719    -0.0877643   -0.7846470    -0.0493238   -0.7902623    -0.6266451    0.1493336 
   5.888007380    -0.6028972    0.0689472    -0.0986070   -0.7860934    -0.0580362   -0.7935122    -0.6246583    0.1348687 
   5.895571956    -0.6006350    0.0678535    -0.1084241   -0.7860991    -0.0687963   -0.7955656    -0.6231182    0.1212688 
   5.903136531    -0.5985777    0.0662963    -0.1181489   -0.7863603    -0.0804461   -0.7974652    -0.6240026    0.1095579 
   5.910701107    -0.5975376    0.0636374    -0.1260252   -0.7854276    -0.0927462   -0.7965546    -0.6246703    0.0985481 
   5.918265683    -0.5977271    0.0604881    -0.1352970   -0.7826365    -0.1044864   -0.7950781    -0.6263026    0.0910192 
   5.925830258    -0.5990145    0.0569971    -0.1447255   -0.7794119    -0.1154476   -0.7918720    -0.6277710    0.0867537 
   5.933394834    -0.6009498    0.0523163    -0.1537609   -0.7752991    -0.1262991   -0.7875908    -0.6291810    0.0857649 
   5.940959410    -0.6039652    0.0474776    -0.1630525   -0.7700365    -0.1365449   -0.7824841    -0.6307071    0.0877940 
   5.948523985    -0.6080638    0.0423003    -0.1718329   -0.7641221    -0.1454449   -0.7769195    -0.6313695    0.0902600 
   5.956088561    -0.6137697    0.0367287    -0.1777594   -0.7570060    -0.1558882   -0.7711759    -0.6317022    0.0939766 
   5.963653137    -0.6214783    0.0314547    -0.1851113   -0.7491403    -0.1669797   -0.7652732    -0.6322019    0.1005913 
   5.971217712    -0.6300860    0.0286418    -0.1880002   -0.7420319    -0.1765741   -0.7581362    -0.6318038    0.1058266 
   5.978782288    -0.6393706    0.0255645    -0.1931239   -0.7335671    -0.1835001   -0.7513201    -0.6319281    0.1106907 
   5.986346863    -0.6485288    0.0237889    -0.1952783   -0.7255484    -0.1893243   -0.7440911    -0.6324915    0.1126602 
   5.993911439    -0.6570823    0.0237507    -0.1972067   -0.7179313    -0.1948964   -0.7368429    -0.6337608    0.1134556 
   6.001476015    -0.6644610    0.0236227    -0.1999805   -0.7103370    -0.1999260   -0.7298625    -0.6356016    0.1133804 
   6.009040590    -0.6714289    0.0251672    -0.2003787   -0.7035278    -0.2058264   -0.7238603    -0.6381029    0.1105709 
   6.016605166    -0.6772604    0.0260575    -0.2008339   -0.6970243    -0.2108049   -0.7179745    -0.6411188    0.1087051 
   6.024169742    -0.6822358    0.0273409    -0.1998343   -0.6901357    -0.2155951   -0.7115980    -0.6437811    0.1065365 
   6.031734317    -0.6870068    0.0286079    -0.1993687   -0.6843873    -0.2180890   -0.7059279    -0.6457533    0.1050507 
   6.039298893    -0.6908739    0.0289567    -0.1979786   -0.6791376    -0.2200925   -0.6985810    -0.6482649    0.1032152 
   6.046863469    -0.6948072    0.0290819    -0.1965078   -0.6741227    -0.2203736   -0.6918901    -0.6497061    0.1004735 
   6.054428044    -0.6987258    0.0298915    -0.1968995   -0.6693378    -0.2209100   -0.6851687    -0.6529533    0.0979038 
   6.061992620    -0.7023275    0.0312152    -0.1969011   -0.6652180    -0.2206908   -0.6790580    -0.6558146    0.0963472 
   6.069557196    -0.7071251    0.0314086    -0.1961803   -0.6617546    -0.2198508   -0.6752178    -0.6579592    0.0961691 
   6.077121771    -0.7109114    0.0325943    -0.1957818   -0.6576083    -0.2185110   -0.6698886    -0.6607577    0.0982394 
   6.084686347    -0.7152953    0.0342256    -0.1950612   -0.6534542    -0.2169410   -0.6666578    -0.6652403    0.1006003 
   6.092250923    -0.7190313    0.0367440    -0.1939252   -0.6485066    -0.2137482   -0.6619557    -0.6693903    0.1056392 
   6.099815498    -0.7239922    0.0394376    -0.1927393   -0.6428611    -0.2114235   -0.6571901    -0.6751736    0.1112173 
   6.107380074    -0.7284159    0.0431801    -0.1906745   -0.6377041    -0.2083644   -0.6518595    -0.6799656    0.1182560 
   6.114944649    -0.7334632    0.0473242    -0.1885494   -0.6320487    -0.2050139   -0.6468590    -0.6855861    0.1260968 
   6.122509225    -0.7385859    0.0510749    -0.1847228   -0.6271351    -0.2011203   -0.6424366    -0.6912450    0.1329761 
   6.130073801    -0.7421881    0.0569114    -0.1807459   -0.6225871    -0.1968520   -0.6376657    -0.6959190    0.1412358 
