! MS46122B
! 1919307/90821646
! 5/18/2022 2:17:49 PM
! C:\USERS\PC_\DESKTOP\CARACTERIZACION\MEDICIONES\S11_S21_ABS3_1002CLV2.S2P
! CHANNEL.1
! TR.MEASUREMENT
! CORRECTED.DATA
# GHZ S RI R 50.0
! FREQ.GHZ         S11RE         S11IM         S21RE         S21IM         S12RE         S12IM         S22RE         S22IM         
!; PortSelection: Port_12
   4.950000000    -0.5917083   -0.2176532     0.2691050   -0.7217315     0.2934197   -0.7396207    -0.5920689   -0.2222684 
   4.957564576    -0.5931354   -0.2121231     0.2667237   -0.7201455     0.2908795   -0.7390809    -0.5970123   -0.2206787 
   4.965129151    -0.5967771   -0.2109120     0.2662748   -0.7179667     0.2885720   -0.7369123    -0.6016453   -0.2171060 
   4.972693727    -0.6014009   -0.2117630     0.2647383   -0.7151727     0.2862935   -0.7350546    -0.6069520   -0.2110677 
   4.980258303    -0.6061579   -0.2125419     0.2646016   -0.7108831     0.2835473   -0.7320008    -0.6116086   -0.2035624 
   4.987822878    -0.6101614   -0.2134143     0.2645046   -0.7066391     0.2804967   -0.7286532    -0.6147026   -0.1945579 
   4.995387454    -0.6140531   -0.2142913     0.2662301   -0.7035679     0.2778607   -0.7257082    -0.6180440   -0.1855436 
   5.002952030    -0.6161533   -0.2152342     0.2692204   -0.7005702     0.2757330   -0.7225809    -0.6194178   -0.1769689 
   5.010516605    -0.6162502   -0.2155948     0.2735627   -0.6991194     0.2744306   -0.7194796    -0.6201626   -0.1678446 
   5.018081181    -0.6146588   -0.2158511     0.2768935   -0.6979773     0.2725931   -0.7158524    -0.6190657   -0.1578905 
   5.025645756    -0.6118618   -0.2158227     0.2800871   -0.6981231     0.2709124   -0.7126680    -0.6175871   -0.1489342 
   5.033210332    -0.6069350   -0.2137087     0.2830380   -0.6983482     0.2689913   -0.7090289    -0.6161239   -0.1409412 
   5.040774908    -0.6023992   -0.2106005     0.2846151   -0.7001978     0.2678715   -0.7067464    -0.6149588   -0.1339287 
   5.048339483    -0.5983204   -0.2078679     0.2866636   -0.7014461     0.2672424   -0.7043296    -0.6142463   -0.1288848 
   5.055904059    -0.5945620   -0.2032481     0.2888451   -0.7044035     0.2673645   -0.7026384    -0.6132693   -0.1252886 
   5.063468635    -0.5912672   -0.1979612     0.2921108   -0.7071590     0.2683429   -0.7017509    -0.6133563   -0.1243195 
   5.071033210    -0.5886337   -0.1908592     0.2946435   -0.7106757     0.2697311   -0.7019817    -0.6136228   -0.1242736 
   5.078597786    -0.5863226   -0.1839795     0.2966754   -0.7132510     0.2715817   -0.7035358    -0.6138338   -0.1263964 
   5.086162362    -0.5840105   -0.1772062     0.2964309   -0.7166415     0.2718129   -0.7056331    -0.6152471   -0.1281803 
   5.093726937    -0.5820663   -0.1720742     0.2959751   -0.7207329     0.2719357   -0.7085193    -0.6160474   -0.1319234 
   5.101291513    -0.5809388   -0.1680902     0.2959893   -0.7236320     0.2721263   -0.7114318    -0.6155562   -0.1355416 
   5.108856089    -0.5805421   -0.1665808     0.2957337   -0.7274158     0.2730269   -0.7150925    -0.6139730   -0.1398299 
   5.116420664    -0.5805702   -0.1659499     0.2964857   -0.7296361     0.2738017   -0.7179759    -0.6116503   -0.1420726 
   5.123985240    -0.5796869   -0.1659402     0.2977317   -0.7323656     0.2751250   -0.7203222    -0.6065073   -0.1424754 
   5.131549815    -0.5780881   -0.1676485     0.2980140   -0.7337164     0.2761099   -0.7236543    -0.6008892   -0.1424012 
   5.139114391    -0.5762734   -0.1685024     0.2994893   -0.7358565     0.2769991   -0.7270272    -0.5940201   -0.1406630 
   5.146678967    -0.5738202   -0.1697949     0.2996545   -0.7388957     0.2780158   -0.7311831    -0.5860870   -0.1374210 
   5.154243542    -0.5695418   -0.1693512     0.3010136   -0.7416968     0.2787798   -0.7342563    -0.5768953   -0.1341936 
   5.161808118    -0.5651845   -0.1703454     0.3038732   -0.7453454     0.2806126   -0.7371266    -0.5674549   -0.1295980 
   5.169372694    -0.5588069   -0.1711348     0.3054387   -0.7493823     0.2836980   -0.7382597    -0.5577957   -0.1231606 
   5.176937269    -0.5518122   -0.1704172     0.3071333   -0.7541490     0.2876363   -0.7382824    -0.5500447   -0.1163346 
   5.184501845    -0.5435187   -0.1685257     0.3091482   -0.7589859     0.2929259   -0.7384286    -0.5423428   -0.1096069 
   5.192066421    -0.5338464   -0.1676351     0.3104996   -0.7648802     0.2988849   -0.7398536    -0.5379973   -0.1050007 
   5.199630996    -0.5252075   -0.1667011     0.3104450   -0.7701980     0.3056506   -0.7450660    -0.5346304   -0.1020990 
   5.207195572    -0.5168092   -0.1664642     0.3094897   -0.7778682     0.3121833   -0.7524335    -0.5334706   -0.0993415 
   5.214760148    -0.5108309   -0.1682969     0.3084174   -0.7867301     0.3162337   -0.7628294    -0.5311448   -0.0974065 
   5.222324723    -0.5058090   -0.1709374     0.3045703   -0.7951184     0.3178257   -0.7734412    -0.5291203   -0.0972015 
   5.229889299    -0.5025648   -0.1732443     0.2992125   -0.8045865     0.3156125   -0.7834463    -0.5266600   -0.0988791 
   5.237453875    -0.5004528   -0.1765773     0.2914747   -0.8099594     0.3100818   -0.7902237    -0.5236760   -0.1044023 
   5.245018450    -0.5007572   -0.1783906     0.2818348   -0.8162869     0.3037031   -0.7965365    -0.5210781   -0.1098932 
   5.252583026    -0.5023768   -0.1804717     0.2720711   -0.8185538     0.2967250   -0.8011098    -0.5219663   -0.1174698 
   5.260147601    -0.5013656   -0.1817878     0.2631612   -0.8212258     0.2892741   -0.8037711    -0.5216518   -0.1252258 
   5.267712177    -0.5022506   -0.1829503     0.2554270   -0.8207141     0.2835176   -0.8054699    -0.5221689   -0.1335656 
   5.275276753    -0.5000829   -0.1860668     0.2487609   -0.8204883     0.2776603   -0.8050174    -0.5209022   -0.1419926 
   5.282841328    -0.4987812   -0.1904449     0.2438040   -0.8178040     0.2728807   -0.8034906    -0.5210725   -0.1508885 
   5.290405904    -0.4977982   -0.1978666     0.2400349   -0.8158535     0.2696714   -0.8013958    -0.5227816   -0.1596695 
   5.297970480    -0.4968083   -0.2053605     0.2387576   -0.8140604     0.2670035   -0.7994280    -0.5236697   -0.1666427 
   5.305535055    -0.4978351   -0.2123015     0.2363559   -0.8141474     0.2645613   -0.7990600    -0.5257831   -0.1744075 
   5.313099631    -0.5004145   -0.2191871     0.2362833   -0.8172281     0.2626402   -0.8006487    -0.5277197   -0.1806731 
   5.320664207    -0.5029121   -0.2252869     0.2350868   -0.8206171     0.2595952   -0.8031154    -0.5310516   -0.1881550 
   5.328228782    -0.5073922   -0.2305081     0.2331859   -0.8281348     0.2560952   -0.8068381    -0.5340887   -0.1969669 
   5.335793358    -0.5114322   -0.2355305     0.2274887   -0.8344778     0.2506954   -0.8104132    -0.5377098   -0.2058166 
   5.343357934    -0.5175877   -0.2381418     0.2192846   -0.8394921     0.2450883   -0.8135828    -0.5405115   -0.2137478 
   5.350922509    -0.5237844   -0.2396947     0.2066953   -0.8438602     0.2376187   -0.8161528    -0.5417233   -0.2202158 
   5.358487085    -0.5304060   -0.2393074     0.1949382   -0.8441807     0.2275331   -0.8199317    -0.5440174   -0.2286217 
   5.366051661    -0.5368780   -0.2391434     0.1821663   -0.8429556     0.2185774   -0.8234499    -0.5469590   -0.2361829 
   5.373616236    -0.5436716   -0.2381098     0.1726856   -0.8401107     0.2078327   -0.8254872    -0.5508510   -0.2448478 
   5.381180812    -0.5505458   -0.2369254     0.1630354   -0.8347035     0.1993436   -0.8265223    -0.5562286   -0.2512567 
   5.388745387    -0.5584582   -0.2357787     0.1558781   -0.8284518     0.1899308   -0.8265935    -0.5615472   -0.2539750 
   5.396309963    -0.5658804   -0.2376397     0.1486176   -0.8213410     0.1824742   -0.8253886    -0.5677085   -0.2550111 
   5.403874539    -0.5748368   -0.2381942     0.1440559   -0.8128931     0.1730519   -0.8236581    -0.5728565   -0.2512859 
   5.411439114    -0.5862226   -0.2412305     0.1396187   -0.8046996     0.1635374   -0.8214581    -0.5777256   -0.2460429 
   5.419003690    -0.5984724   -0.2427813     0.1376910   -0.7967424     0.1543167   -0.8184037    -0.5811414   -0.2396867 
   5.426568266    -0.6118057   -0.2435865     0.1375438   -0.7917438     0.1459870   -0.8139948    -0.5840914   -0.2338892 
   5.434132841    -0.6238866   -0.2420620     0.1375725   -0.7871742     0.1403762   -0.8085515    -0.5865282   -0.2274225 
   5.441697417    -0.6340619   -0.2401700     0.1376656   -0.7842620     0.1370814   -0.8034984    -0.5902130   -0.2234729 
   5.449261993    -0.6426520   -0.2376428     0.1358032   -0.7807461     0.1355897   -0.7984000    -0.5948761   -0.2197008 
   5.456826568    -0.6492228   -0.2340864     0.1323762   -0.7767587     0.1336242   -0.7948704    -0.6002414   -0.2155365 
   5.464391144    -0.6534498   -0.2300254     0.1285484   -0.7719572     0.1302214   -0.7915980    -0.6064109   -0.2120198 
   5.471955720    -0.6558052   -0.2262783     0.1252647   -0.7669505     0.1266556   -0.7888427    -0.6124795   -0.2089923 
   5.479520295    -0.6554705   -0.2237262     0.1242269   -0.7603781     0.1244066   -0.7839792    -0.6175725   -0.2075745 
   5.487084871    -0.6549364   -0.2201385     0.1244140   -0.7540163     0.1236371   -0.7781524    -0.6217517   -0.2069057 
   5.494649446    -0.6547142   -0.2168385     0.1255157   -0.7483186     0.1250993   -0.7709975    -0.6257539   -0.2061556 
   5.502214022    -0.6564385   -0.2126661     0.1275496   -0.7412899     0.1274449   -0.7646143    -0.6305459   -0.2051186 
   5.509778598    -0.6581321   -0.2077202     0.1293188   -0.7359514     0.1309260   -0.7587903    -0.6363525   -0.2019497 
   5.517343173    -0.6615922   -0.2019404     0.1310616   -0.7308952     0.1338570   -0.7531110    -0.6421176   -0.1965411 
   5.524907749    -0.6654029   -0.1952544     0.1319007   -0.7265418     0.1379305   -0.7480738    -0.6471066   -0.1891430 
   5.532472325    -0.6688508   -0.1870667     0.1350732   -0.7215617     0.1397584   -0.7441581    -0.6520200   -0.1801433 
   5.540036900    -0.6734830   -0.1797832     0.1371622   -0.7176074     0.1440555   -0.7388838    -0.6562270   -0.1700799 
   5.547601476    -0.6763831   -0.1723929     0.1399161   -0.7117684     0.1478380   -0.7342117    -0.6603372   -0.1586670 
   5.555166052    -0.6817988   -0.1658322     0.1445407   -0.7068864     0.1511539   -0.7291611    -0.6626675   -0.1471755 
   5.562730627    -0.6819446   -0.1585789     0.1483465   -0.7012920     0.1551271   -0.7233608    -0.6645191   -0.1337205 
   5.570295203    -0.6854082   -0.1555167     0.1536639   -0.6962520     0.1588712   -0.7174644    -0.6663923   -0.1201188 
   5.577859779    -0.6861033   -0.1493558     0.1605774   -0.6925513     0.1601468   -0.7126696    -0.6680822   -0.1074079 
   5.585424354    -0.6852160   -0.1461473     0.1674495   -0.6906053     0.1640172   -0.7076632    -0.6692933   -0.0955588 
   5.592988930    -0.6830291   -0.1418978     0.1749278   -0.6895074     0.1675885   -0.7034023    -0.6691520   -0.0835160 
   5.600553506    -0.6790813   -0.1383812     0.1837002   -0.6884301     0.1718326   -0.6987908    -0.6687693   -0.0737965 
   5.608118081    -0.6753715   -0.1339526     0.1913425   -0.6896506     0.1764984   -0.6941926    -0.6669465   -0.0643112 
   5.615682657    -0.6707494   -0.1292937     0.1988467   -0.6906160     0.1815417   -0.6901989    -0.6661663   -0.0568909 
   5.623247232    -0.6651500   -0.1228232     0.2055921   -0.6933305     0.1849700   -0.6878294    -0.6624709   -0.0494329 
   5.630811808    -0.6591982   -0.1163471     0.2106951   -0.6980215     0.1923074   -0.6856576    -0.6598957   -0.0435921 
   5.638376384    -0.6531889   -0.1082398     0.2164023   -0.7030640     0.1960186   -0.6865360    -0.6588137   -0.0390117 
   5.645940959    -0.6483490   -0.0995782     0.2211917   -0.7087735     0.2014633   -0.6888186    -0.6579760   -0.0357790 
   5.653505535    -0.6435527   -0.0904274     0.2253589   -0.7143580     0.2061212   -0.6926343    -0.6573705   -0.0324795 
   5.661070111    -0.6397798   -0.0821910     0.2282167   -0.7196053     0.2106535   -0.6965376    -0.6579632   -0.0303354 
   5.668634686    -0.6361517   -0.0747793     0.2308319   -0.7244334     0.2151994   -0.7006287    -0.6581761   -0.0292294 
   5.676199262    -0.6332416   -0.0679770     0.2327091   -0.7288545     0.2174599   -0.7041653    -0.6578800   -0.0284907 
   5.683763838    -0.6308305   -0.0610448     0.2333074   -0.7344838     0.2194982   -0.7091839    -0.6572904   -0.0276580 
   5.691328413    -0.6281466   -0.0549065     0.2347190   -0.7397264     0.2211943   -0.7143072    -0.6549365   -0.0273004 
   5.698892989    -0.6259080   -0.0506999     0.2371208   -0.7453219     0.2227450   -0.7204206    -0.6518301   -0.0286305 
   5.706457565    -0.6233668   -0.0476648     0.2378681   -0.7503221     0.2255620   -0.7271392    -0.6464618   -0.0286303 
   5.714022140    -0.6191524   -0.0448331     0.2408866   -0.7537949     0.2275113   -0.7329181    -0.6395164   -0.0272481 
   5.721586716    -0.6144153   -0.0426189     0.2409382   -0.7580315     0.2312731   -0.7381004    -0.6325095   -0.0253731 
   5.729151292    -0.6074561   -0.0412265     0.2432637   -0.7610832     0.2325168   -0.7428966    -0.6239021   -0.0228691 
   5.736715867    -0.6007778   -0.0396871     0.2441877   -0.7668625     0.2356859   -0.7481799    -0.6139952   -0.0185853 
   5.744280443    -0.5918611   -0.0387090     0.2465863   -0.7730435     0.2393178   -0.7541547    -0.6031667   -0.0135887 
   5.751845018    -0.5826483   -0.0380573     0.2483713   -0.7796612     0.2425238   -0.7615615    -0.5926414   -0.0072848 
   5.759409594    -0.5718942   -0.0375665     0.2514147   -0.7875275     0.2474106   -0.7697923    -0.5822918   -0.0009578 
   5.766974170    -0.5611090   -0.0365944     0.2531265   -0.7955047     0.2517489   -0.7781307    -0.5719320    0.0051260 
   5.774538745    -0.5506085   -0.0356601     0.2517941   -0.8042848     0.2549624   -0.7870959    -0.5619781    0.0114401 
   5.782103321    -0.5408195   -0.0342222     0.2494951   -0.8136881     0.2545967   -0.7963703    -0.5537568    0.0180792 
   5.789667897    -0.5306973   -0.0336564     0.2447066   -0.8231100     0.2517501   -0.8050944    -0.5455660    0.0228208 
   5.797232472    -0.5210457   -0.0327613     0.2384218   -0.8333390     0.2484250   -0.8132902    -0.5383548    0.0268750 
   5.804797048    -0.5126611   -0.0335167     0.2319911   -0.8410492     0.2447689   -0.8199655    -0.5320894    0.0272302 
   5.812361624    -0.5035077   -0.0335818     0.2260301   -0.8477110     0.2413439   -0.8251336    -0.5260193    0.0260520 
   5.819926199    -0.4945455   -0.0348146     0.2181585   -0.8513107     0.2383238   -0.8285208    -0.5197083    0.0250333 
   5.827490775    -0.4858433   -0.0374524     0.2108644   -0.8553165     0.2360005   -0.8300216    -0.5169522    0.0201451 
   5.835055351    -0.4773234   -0.0411238     0.2030510   -0.8556393     0.2321344   -0.8317769    -0.5128016    0.0160095 
   5.842619926    -0.4701526   -0.0479442     0.1970473   -0.8570598     0.2309757   -0.8328793    -0.5100231    0.0110114 
   5.850184502    -0.4650965   -0.0554404     0.1900478   -0.8583024     0.2288751   -0.8361509    -0.5078595    0.0039256 
   5.857749077    -0.4617245   -0.0645964     0.1864965   -0.8608268     0.2277533   -0.8404388    -0.5059158   -0.0026240 
   5.865313653    -0.4603342   -0.0733729     0.1827082   -0.8639134     0.2253758   -0.8446743    -0.5030447   -0.0097292 
   5.872878229    -0.4592361   -0.0814403     0.1787061   -0.8671557     0.2257049   -0.8492208    -0.4977327   -0.0180447 
   5.880442804    -0.4594283   -0.0864702     0.1774051   -0.8705587     0.2168119   -0.8551065    -0.4940148   -0.0260229 
   5.888007380    -0.4595718   -0.0923424     0.1705129   -0.8747541     0.2135141   -0.8596081    -0.4903014   -0.0366177 
   5.895571956    -0.4595026   -0.0970420     0.1641794   -0.8795924     0.2091085   -0.8635516    -0.4891371   -0.0475612 
   5.903136531    -0.4596714   -0.1018456     0.1565396   -0.8842415     0.2014782   -0.8700259    -0.4890600   -0.0582603 
   5.910701107    -0.4597079   -0.1056385     0.1494086   -0.8879420     0.1920131   -0.8753862    -0.4893822   -0.0708503 
   5.918265683    -0.4600278   -0.1109257     0.1419952   -0.8898563     0.1824878   -0.8800941    -0.4901334   -0.0844226 
   5.925830258    -0.4609455   -0.1152830     0.1321513   -0.8914390     0.1749009   -0.8831322    -0.4928648   -0.0970791 
   5.933394834    -0.4612951   -0.1209524     0.1275526   -0.8904873     0.1599838   -0.8856004    -0.4948529   -0.1085685 
   5.940959410    -0.4629496   -0.1265221     0.1161882   -0.8903094     0.1520900   -0.8855543    -0.4972340   -0.1185539 
   5.948523985    -0.4654729   -0.1332122     0.1087703   -0.8889040     0.1420001   -0.8853753    -0.4988894   -0.1290849 
   5.956088561    -0.4693097   -0.1398916     0.1005150   -0.8865815     0.1315597   -0.8858497    -0.5007797   -0.1378731 
   5.963653137    -0.4750566   -0.1469044     0.0939695   -0.8836182     0.1211855   -0.8862111    -0.5017748   -0.1440867 
   5.971217712    -0.4826386   -0.1527231     0.0867166   -0.8806148     0.1099734   -0.8855604    -0.5032116   -0.1476225 
   5.978782288    -0.4922256   -0.1584600     0.0803580   -0.8768637     0.1010856   -0.8836532    -0.5032701   -0.1506410 
   5.986346863    -0.5025484   -0.1629946     0.0742114   -0.8718083     0.0936465   -0.8806673    -0.5034958   -0.1519617 
   5.993911439    -0.5139743   -0.1663379     0.0683041   -0.8677449     0.0883369   -0.8768893    -0.5037230   -0.1538565 
   6.001476015    -0.5257318   -0.1692526     0.0625218   -0.8629970     0.0809156   -0.8739346    -0.5054172   -0.1540964 
   6.009040590    -0.5375941   -0.1706635     0.0572212   -0.8586637     0.0740105   -0.8723915    -0.5071236   -0.1553385 
   6.016605166    -0.5492479   -0.1730409     0.0530894   -0.8542902     0.0683381   -0.8717682    -0.5121649   -0.1560489 
   6.024169742    -0.5599394   -0.1734848     0.0489245   -0.8486584     0.0612868   -0.8718234    -0.5174026   -0.1554470 
   6.031734317    -0.5695415   -0.1753900     0.0462909   -0.8439554     0.0557950   -0.8708456    -0.5233397   -0.1550044 
   6.039298893    -0.5774805   -0.1765738     0.0435134   -0.8387169     0.0495718   -0.8682664    -0.5314618   -0.1540799 
   6.046863469    -0.5844311   -0.1791198     0.0407198   -0.8328751     0.0456289   -0.8642074    -0.5381434   -0.1554678 
   6.054428044    -0.5903061   -0.1797712     0.0401917   -0.8288385     0.0362170   -0.8595189    -0.5467849   -0.1570049 
   6.061992620    -0.5948204   -0.1812581     0.0354728   -0.8242880     0.0338163   -0.8533372    -0.5543853   -0.1601701 
   6.069557196    -0.5984427   -0.1816920     0.0332010   -0.8208451     0.0308651   -0.8488101    -0.5600212   -0.1619994 
   6.077121771    -0.6009617   -0.1825766     0.0310467   -0.8160456     0.0281294   -0.8426203    -0.5658442   -0.1647981 
   6.084686347    -0.6042575   -0.1816940     0.0300938   -0.8121711     0.0283063   -0.8381566    -0.5718431   -0.1654742 
   6.092250923    -0.6076525   -0.1782748     0.0283943   -0.8073808     0.0281287   -0.8329874    -0.5768479   -0.1654901 
   6.099815498    -0.6113155   -0.1730040     0.0268762   -0.8021253     0.0276553   -0.8273951    -0.5820697   -0.1626823 
   6.107380074    -0.6153203   -0.1670053     0.0254267   -0.7962452     0.0270319   -0.8208963    -0.5867022   -0.1596811 
   6.114944649    -0.6206753   -0.1601794     0.0244102   -0.7905295     0.0270008   -0.8146337    -0.5919384   -0.1539850 
   6.122509225    -0.6268909   -0.1532876     0.0249862   -0.7847823     0.0277291   -0.8093290    -0.5981942   -0.1464179 
   6.130073801    -0.6326333   -0.1446699     0.0260022   -0.7792729     0.0278178   -0.8033840    -0.6041737   -0.1367803 
