! MS46122B
! 1919307/90821646
! 5/18/2022 3:11:38 PM
! C:\USERS\PC_\DESKTOP\CARACTERIZACION\MEDICIONES\BANDA ANCHA\S11_S21_ABS15_1002CL.S2P
! CHANNEL.1
! TR.MEASUREMENT
! CORRECTED.DATA
# GHZ S RI R 50.0
! FREQ.GHZ         S11RE         S11IM         S21RE         S21IM         S12RE         S12IM         S22RE         S22IM         
!; PortSelection: Port_12
   4.950000000    -0.7843458    0.3120079    -0.2081530   -0.4687352    -0.2250305   -0.4788136    -0.7576586    0.3416865 
   4.957564576    -0.7826177    0.3159333    -0.2088746   -0.4681181    -0.2251435   -0.4775085    -0.7520461    0.3491607 
   4.965129151    -0.7845841    0.3197393    -0.2080278   -0.4675294    -0.2236422   -0.4770254    -0.7479691    0.3584813 
   4.972693727    -0.7853791    0.3231981    -0.2064484   -0.4667497    -0.2222903   -0.4759614    -0.7447750    0.3679008 
   4.980258303    -0.7845441    0.3268728    -0.2033054   -0.4671468    -0.2199286   -0.4755944    -0.7412463    0.3762242 
   4.987822878    -0.7831318    0.3303137    -0.2006199   -0.4696347    -0.2181071   -0.4755515    -0.7381933    0.3839988 
   4.995387454    -0.7819841    0.3336043    -0.1978107   -0.4737183    -0.2153880   -0.4769674    -0.7360443    0.3907140 
   5.002952030    -0.7804810    0.3358550    -0.1960754   -0.4797953    -0.2141242   -0.4785731    -0.7346947    0.3953605 
   5.010516605    -0.7776427    0.3373519    -0.1955652   -0.4861222    -0.2123164   -0.4809166    -0.7330560    0.3987924 
   5.018081181    -0.7745450    0.3377693    -0.1963512   -0.4924541    -0.2118929   -0.4829529    -0.7299839    0.4006221 
   5.025645756    -0.7717850    0.3382406    -0.1989745   -0.4984949    -0.2116999   -0.4851298    -0.7265855    0.4017929 
   5.033210332    -0.7670742    0.3402915    -0.2019069   -0.5046398    -0.2119135   -0.4876798    -0.7229813    0.4015585 
   5.040774908    -0.7634352    0.3440514    -0.2072612   -0.5105339    -0.2129248   -0.4899322    -0.7185717    0.4022793 
   5.048339483    -0.7602729    0.3469616    -0.2114982   -0.5164267    -0.2145112   -0.4924913    -0.7149352    0.4030047 
   5.055904059    -0.7570187    0.3513707    -0.2173014   -0.5217380    -0.2163254   -0.4956332    -0.7117926    0.4045522 
   5.063468635    -0.7535744    0.3556442    -0.2228690   -0.5264383    -0.2188499   -0.4978469    -0.7087616    0.4066165 
   5.071033210    -0.7499655    0.3603209    -0.2295929   -0.5296112    -0.2225508   -0.5003573    -0.7065066    0.4092932 
   5.078597786    -0.7460135    0.3657949    -0.2369573   -0.5314438    -0.2268516   -0.5021597    -0.7047096    0.4130017 
   5.086162362    -0.7417262    0.3716751    -0.2444359   -0.5323207    -0.2320178   -0.5039511    -0.7040453    0.4175287 
   5.093726937    -0.7374555    0.3778895    -0.2515466   -0.5326111    -0.2371666   -0.5053355    -0.7041197    0.4216326 
   5.101291513    -0.7343659    0.3840775    -0.2562120   -0.5329489    -0.2414107   -0.5068789    -0.7045762    0.4247081 
   5.108856089    -0.7314070    0.3902414    -0.2605866   -0.5336867    -0.2453674   -0.5092387    -0.7062289    0.4286663 
   5.116420664    -0.7268577    0.3962870    -0.2634552   -0.5345508    -0.2493850   -0.5109513    -0.7094054    0.4317777 
   5.123985240    -0.7210651    0.4020340    -0.2660313   -0.5380505    -0.2533468   -0.5139609    -0.7125701    0.4340819 
   5.131549815    -0.7135262    0.4057090    -0.2691308   -0.5410684    -0.2591139   -0.5174894    -0.7151245    0.4356590 
   5.139114391    -0.7059875    0.4094473    -0.2728654   -0.5466387    -0.2643676   -0.5222059    -0.7179062    0.4357331 
   5.146678967    -0.6968355    0.4132970    -0.2780556   -0.5513589    -0.2715116   -0.5272623    -0.7175898    0.4348986 
   5.154243542    -0.6854076    0.4155431    -0.2845166   -0.5575008    -0.2775958   -0.5317235    -0.7141066    0.4314066 
   5.161808118    -0.6747725    0.4155701    -0.2918918   -0.5635062    -0.2846092   -0.5369133    -0.7093551    0.4289334 
   5.169372694    -0.6633815    0.4139445    -0.3006973   -0.5690206    -0.2909623   -0.5417053    -0.7012706    0.4264905 
   5.176937269    -0.6513844    0.4104922    -0.3118063   -0.5733825    -0.2978065   -0.5461973    -0.6915842    0.4252122 
   5.184501845    -0.6403416    0.4053371    -0.3228442   -0.5762509    -0.3054062   -0.5514092    -0.6787262    0.4255186 
   5.192066421    -0.6314036    0.3997947    -0.3361433   -0.5773107    -0.3141981   -0.5568165    -0.6656723    0.4270533 
   5.199630996    -0.6252812    0.3961642    -0.3497477   -0.5761349    -0.3242471   -0.5618526    -0.6505405    0.4277781 
   5.207195572    -0.6205682    0.3933574    -0.3621569   -0.5734830    -0.3346260   -0.5654356    -0.6349861    0.4282298 
   5.214760148    -0.6169107    0.3937275    -0.3738971   -0.5680041    -0.3456218   -0.5675341    -0.6191354    0.4281696 
   5.222324723    -0.6115790    0.3926921    -0.3842044   -0.5599885    -0.3567476   -0.5687450    -0.6065522    0.4266489 
   5.229889299    -0.6059468    0.3935964    -0.3910916   -0.5525758    -0.3679152   -0.5683771    -0.5974022    0.4278844 
   5.237453875    -0.6004456    0.3936523    -0.3961838   -0.5443604    -0.3775604   -0.5657642    -0.5914389    0.4287684 
   5.245018450    -0.5949773    0.3961329    -0.4013714   -0.5383981    -0.3870279   -0.5630371    -0.5878997    0.4339395 
   5.252583026    -0.5892128    0.3987070    -0.4053199   -0.5315265    -0.3945685   -0.5583153    -0.5866954    0.4407469 
   5.260147601    -0.5801340    0.4009470    -0.4086700   -0.5269038    -0.4005117   -0.5534583    -0.5844038    0.4463230 
   5.267712177    -0.5742752    0.4024510    -0.4093713   -0.5220652    -0.4046238   -0.5492741    -0.5834963    0.4512571 
   5.275276753    -0.5654695    0.4003675    -0.4100904   -0.5178977    -0.4077967   -0.5445530    -0.5814319    0.4519160 
   5.282841328    -0.5580115    0.3966360    -0.4093956   -0.5144790    -0.4086053   -0.5403594    -0.5815103    0.4493950 
   5.290405904    -0.5528308    0.3899761    -0.4096879   -0.5130807    -0.4089998   -0.5378204    -0.5809413    0.4418993 
   5.297970480    -0.5482147    0.3824279    -0.4128544   -0.5131880    -0.4098828   -0.5363593    -0.5817904    0.4333312 
   5.305535055    -0.5462442    0.3774022    -0.4178003   -0.5147636    -0.4121942   -0.5358019    -0.5834122    0.4236676 
   5.313099631    -0.5464487    0.3735822    -0.4256128   -0.5153904    -0.4161889   -0.5358186    -0.5848690    0.4144795 
   5.320664207    -0.5463793    0.3696739    -0.4336241   -0.5121974    -0.4217672   -0.5346866    -0.5845253    0.4063772 
   5.328228782    -0.5468234    0.3670777    -0.4412788   -0.5080245    -0.4290734   -0.5313158    -0.5826256    0.3973761 
   5.335793358    -0.5460781    0.3624052    -0.4481817   -0.5001591    -0.4361717   -0.5253437    -0.5802388    0.3895961 
   5.343357934    -0.5459651    0.3591243    -0.4534555   -0.4918933    -0.4420641   -0.5176242    -0.5761253    0.3831894 
   5.350922509    -0.5478262    0.3559256    -0.4581124   -0.4829686    -0.4458305   -0.5080760    -0.5694671    0.3801010 
   5.358487085    -0.5499794    0.3560410    -0.4592895   -0.4737732    -0.4493016   -0.4981624    -0.5626002    0.3790609 
   5.366051661    -0.5524895    0.3560134    -0.4598016   -0.4659213    -0.4510659   -0.4893779    -0.5530268    0.3812466 
   5.373616236    -0.5560586    0.3585174    -0.4571434   -0.4585451    -0.4511947   -0.4807448    -0.5445865    0.3842733 
   5.381180812    -0.5597332    0.3615862    -0.4538505   -0.4510987    -0.4505304   -0.4745684    -0.5367562    0.3894001 
   5.388745387    -0.5619252    0.3649517    -0.4479056   -0.4459085    -0.4496996   -0.4682913    -0.5300680    0.3952007 
   5.396309963    -0.5648666    0.3665137    -0.4422072   -0.4419831    -0.4483191   -0.4642790    -0.5247759    0.4007579 
   5.403874539    -0.5656087    0.3692910    -0.4344445   -0.4409932    -0.4477741   -0.4598584    -0.5199506    0.4054581 
   5.411439114    -0.5684195    0.3721887    -0.4286512   -0.4427607    -0.4468180   -0.4570341    -0.5163810    0.4072936 
   5.419003690    -0.5696908    0.3746338    -0.4245527   -0.4467985    -0.4475866   -0.4549310    -0.5166444    0.4092952 
   5.426568266    -0.5707093    0.3764914    -0.4237559   -0.4533455    -0.4486162   -0.4544207    -0.5199252    0.4089220 
   5.434132841    -0.5703073    0.3769977    -0.4245359   -0.4583618    -0.4511204   -0.4536088    -0.5236714    0.4104978 
   5.441697417    -0.5697273    0.3749089    -0.4280302   -0.4618022    -0.4538341   -0.4515230    -0.5268102    0.4120966 
   5.449261993    -0.5694937    0.3708231    -0.4312548   -0.4636215    -0.4563945   -0.4483704    -0.5295241    0.4119404 
   5.456826568    -0.5697609    0.3672417    -0.4350853   -0.4633250    -0.4584201   -0.4446792    -0.5296816    0.4091180 
   5.464391144    -0.5711162    0.3638349    -0.4378555   -0.4628882    -0.4583767   -0.4417405    -0.5302204    0.4057242 
   5.471955720    -0.5736679    0.3623785    -0.4399461   -0.4621678    -0.4574652   -0.4406734    -0.5295609    0.3999722 
   5.479520295    -0.5759017    0.3623413    -0.4394768   -0.4626305    -0.4555455   -0.4414528    -0.5287492    0.3954046 
   5.487084871    -0.5775042    0.3637128    -0.4390586   -0.4626109    -0.4545216   -0.4434145    -0.5277413    0.3895231 
   5.494649446    -0.5789597    0.3666755    -0.4385554   -0.4637508    -0.4525687   -0.4466721    -0.5258975    0.3845285 
   5.502214022    -0.5792885    0.3707977    -0.4375932   -0.4649019    -0.4523211   -0.4499539    -0.5252553    0.3832306 
   5.509778598    -0.5807008    0.3767924    -0.4372728   -0.4673963    -0.4521423   -0.4545903    -0.5242658    0.3832505 
   5.517343173    -0.5806618    0.3845914    -0.4373471   -0.4696163    -0.4524228   -0.4584349    -0.5232089    0.3880445 
   5.524907749    -0.5804776    0.3944637    -0.4380230   -0.4720195    -0.4522118   -0.4640272    -0.5210017    0.3940176 
   5.532472325    -0.5780079    0.4048459    -0.4377691   -0.4758129    -0.4540694   -0.4679143    -0.5195481    0.4030568 
   5.540036900    -0.5761784    0.4153073    -0.4370014   -0.4797426    -0.4533151   -0.4740278    -0.5185797    0.4127581 
   5.547601476    -0.5713027    0.4243827    -0.4365935   -0.4841168    -0.4538259   -0.4795585    -0.5169186    0.4233049 
   5.555166052    -0.5675902    0.4322968    -0.4359080   -0.4900705    -0.4542669   -0.4847124    -0.5143362    0.4330583 
   5.562730627    -0.5581774    0.4396822    -0.4372416   -0.4965276    -0.4548337   -0.4902112    -0.5108390    0.4428312 
   5.570295203    -0.5513133    0.4430037    -0.4401065   -0.5039253    -0.4559574   -0.4958607    -0.5065784    0.4520020 
   5.577859779    -0.5435081    0.4493341    -0.4422642   -0.5136084    -0.4589791   -0.4999728    -0.5014587    0.4596312 
   5.585424354    -0.5353606    0.4530167    -0.4480647   -0.5222291    -0.4606398   -0.5062228    -0.4953598    0.4668247 
   5.592988930    -0.5273442    0.4559548    -0.4536527   -0.5309137    -0.4630725   -0.5117392    -0.4882332    0.4719529 
   5.600553506    -0.5189748    0.4582714    -0.4614288   -0.5390877    -0.4657974   -0.5176704    -0.4809373    0.4756939 
   5.608118081    -0.5104291    0.4598382    -0.4704759   -0.5468073    -0.4685903   -0.5233628    -0.4731675    0.4786124 
   5.615682657    -0.5009455    0.4618762    -0.4819704   -0.5533584    -0.4725629   -0.5295202    -0.4664010    0.4800135 
   5.623247232    -0.4909531    0.4644749    -0.4935650   -0.5592149    -0.4792168   -0.5341112    -0.4561130    0.4826783 
   5.630811808    -0.4814167    0.4676146    -0.5073085   -0.5629081    -0.4850928   -0.5406399    -0.4469565    0.4854571 
   5.638376384    -0.4712428    0.4724855    -0.5199163   -0.5661492    -0.4948551   -0.5454935    -0.4375813    0.4892838 
   5.645940959    -0.4622317    0.4776116    -0.5328467   -0.5674406    -0.5053437   -0.5502047    -0.4283550    0.4948162 
   5.653505535    -0.4529341    0.4838173    -0.5452669   -0.5669992    -0.5161220   -0.5535789    -0.4197581    0.5009359 
   5.661070111    -0.4434515    0.4890766    -0.5571859   -0.5658593    -0.5264056   -0.5547500    -0.4132393    0.5075016 
   5.668634686    -0.4327205    0.4939442    -0.5684588   -0.5643291    -0.5366182   -0.5552772    -0.4077286    0.5126781 
   5.676199262    -0.4202816    0.4993429    -0.5797561   -0.5622666    -0.5475510   -0.5545874    -0.4031591    0.5185941 
   5.683763838    -0.4066851    0.5040306    -0.5908718   -0.5611543    -0.5589622   -0.5536143    -0.3987812    0.5238892 
   5.691328413    -0.3915881    0.5087376    -0.6011307   -0.5606907    -0.5708790   -0.5530273    -0.3947494    0.5273727 
   5.698892989    -0.3768052    0.5096561    -0.6118338   -0.5593179    -0.5825330   -0.5525725    -0.3914734    0.5302901 
   5.706457565    -0.3601531    0.5085734    -0.6218865   -0.5569167    -0.5946862   -0.5521181    -0.3873987    0.5305353 
   5.714022140    -0.3426913    0.5047603    -0.6328208   -0.5548560    -0.6067596   -0.5500534    -0.3816882    0.5282529 
   5.721586716    -0.3244279    0.4977917    -0.6451221   -0.5521186    -0.6180255   -0.5489118    -0.3754241    0.5249239 
   5.729151292    -0.3065993    0.4885261    -0.6556793   -0.5496424    -0.6326743   -0.5443678    -0.3659059    0.5168176 
   5.736715867    -0.2902032    0.4779137    -0.6701044   -0.5469026    -0.6466433   -0.5416316    -0.3549179    0.5078964 
   5.744280443    -0.2758331    0.4651658    -0.6827544   -0.5427182    -0.6607394   -0.5382746    -0.3422111    0.4967200 
   5.751845018    -0.2632672    0.4525017    -0.6970663   -0.5376177    -0.6743692   -0.5339664    -0.3282972    0.4849256 
   5.759409594    -0.2535028    0.4388292    -0.7095565   -0.5310879    -0.6872971   -0.5296185    -0.3145289    0.4702170 
   5.766974170    -0.2451450    0.4257157    -0.7213286   -0.5225095    -0.6993009   -0.5240684    -0.3016787    0.4541016 
   5.774538745    -0.2377888    0.4133053    -0.7325284   -0.5133647    -0.7124758   -0.5174046    -0.2881283    0.4389789 
   5.782103321    -0.2322266    0.4027632    -0.7427898   -0.5021727    -0.7258343   -0.5100732    -0.2761827    0.4254815 
   5.789667897    -0.2278017    0.3932434    -0.7530347   -0.4920135    -0.7383367   -0.5020925    -0.2651707    0.4140389 
   5.797232472    -0.2227882    0.3871915    -0.7609203   -0.4803655    -0.7498231   -0.4938643    -0.2542112    0.4047592 
   5.804797048    -0.2198569    0.3820960    -0.7688056   -0.4696516    -0.7607448   -0.4836851    -0.2448119    0.3984421 
   5.812361624    -0.2148952    0.3786613    -0.7724221   -0.4594952    -0.7694916   -0.4727599    -0.2357461    0.3932954 
   5.819926199    -0.2093734    0.3759778    -0.7774171   -0.4480862    -0.7760334   -0.4609116    -0.2269993    0.3891779 
   5.827490775    -0.2027618    0.3725480    -0.7803229   -0.4380314    -0.7804449   -0.4492643    -0.2205604    0.3843836 
   5.835055351    -0.1930188    0.3683101    -0.7844142   -0.4278637    -0.7834421   -0.4374765    -0.2125807    0.3786956 
   5.842619926    -0.1846814    0.3631032    -0.7870999   -0.4208948    -0.7845936   -0.4302629    -0.2083378    0.3730120 
   5.850184502    -0.1761620    0.3574266    -0.7916501   -0.4108234    -0.7870342   -0.4243144    -0.2057588    0.3674707 
   5.857749077    -0.1690934    0.3505077    -0.7948652   -0.4034950    -0.7890409   -0.4220042    -0.2058573    0.3614556 
   5.865313653    -0.1621556    0.3420960    -0.7985213   -0.3935764    -0.7930552   -0.4190218    -0.2048805    0.3544610 
   5.872878229    -0.1570084    0.3329306    -0.8016456   -0.3851846    -0.7978047   -0.4174647    -0.2065034    0.3458522 
   5.880442804    -0.1522125    0.3220902    -0.8033674   -0.3791732    -0.8086835   -0.4055536    -0.2077956    0.3370259 
   5.888007380    -0.1495262    0.3096640    -0.8082108   -0.3694727    -0.8147172   -0.3988324    -0.2094774    0.3268864 
   5.895571956    -0.1500038    0.2978912    -0.8111683   -0.3602530    -0.8190030   -0.3923922    -0.2103521    0.3179090 
   5.903136531    -0.1519943    0.2867948    -0.8138977   -0.3522596    -0.8252872   -0.3802710    -0.2101122    0.3092522 
   5.910701107    -0.1563730    0.2778799    -0.8157660   -0.3436590    -0.8280326   -0.3689996    -0.2093694    0.3017136 
   5.918265683    -0.1621297    0.2717339    -0.8176457   -0.3339430    -0.8301744   -0.3579379    -0.2061594    0.2949596 
   5.925830258    -0.1684985    0.2676930    -0.8187252   -0.3231647    -0.8304058   -0.3495905    -0.2020953    0.2885151 
   5.933394834    -0.1729827    0.2653852    -0.8179627   -0.3164928    -0.8314128   -0.3335570    -0.1965537    0.2844521 
   5.940959410    -0.1770401    0.2652210    -0.8172316   -0.3067974    -0.8291411   -0.3251363    -0.1905401    0.2799892 
   5.948523985    -0.1795687    0.2661972    -0.8159948   -0.2993667    -0.8271495   -0.3148485    -0.1839382    0.2763873 
   5.956088561    -0.1813139    0.2676789    -0.8136628   -0.2941721    -0.8251127   -0.3058393    -0.1786167    0.2744922 
   5.963653137    -0.1813256    0.2702070    -0.8106360   -0.2889737    -0.8221326   -0.3000359    -0.1740725    0.2736895 
   5.971217712    -0.1799251    0.2723503    -0.8091797   -0.2857448    -0.8211417   -0.2917511    -0.1699013    0.2738986 
   5.978782288    -0.1777817    0.2737524    -0.8073148   -0.2818502    -0.8189462   -0.2880225    -0.1672422    0.2752342 
   5.986346863    -0.1746718    0.2740232    -0.8074306   -0.2784981    -0.8190627   -0.2821409    -0.1657937    0.2773814 
   5.993911439    -0.1706887    0.2727619    -0.8081490   -0.2767322    -0.8194457   -0.2775553    -0.1654744    0.2788530 
   6.001476015    -0.1671055    0.2694829    -0.8091282   -0.2749946    -0.8207124   -0.2709035    -0.1649490    0.2796289 
   6.009040590    -0.1640366    0.2644221    -0.8119292   -0.2731535    -0.8224639   -0.2637943    -0.1647787    0.2772102 
   6.016605166    -0.1621116    0.2573833    -0.8143392   -0.2708574    -0.8238311   -0.2589451    -0.1656287    0.2747819 
   6.024169742    -0.1614812    0.2496933    -0.8163983   -0.2676691    -0.8246657   -0.2527746    -0.1666714    0.2695424 
   6.031734317    -0.1614836    0.2415675    -0.8202709   -0.2646644    -0.8255405   -0.2480518    -0.1670975    0.2628492 
   6.039298893    -0.1627655    0.2328291    -0.8231100   -0.2609050    -0.8266848   -0.2428911    -0.1686373    0.2539574 
   6.046863469    -0.1642035    0.2253378    -0.8269483   -0.2561418    -0.8276522   -0.2404213    -0.1691585    0.2435129 
   6.054428044    -0.1662367    0.2182322    -0.8297051   -0.2530659    -0.8312048   -0.2322502    -0.1705917    0.2327038 
   6.061992620    -0.1683017    0.2129402    -0.8342668   -0.2464749    -0.8331309   -0.2305322    -0.1705706    0.2221709 
   6.069557196    -0.1697595    0.2098203    -0.8380776   -0.2411899    -0.8368220   -0.2265864    -0.1695270    0.2119183 
   6.077121771    -0.1702057    0.2084704    -0.8409562   -0.2363512    -0.8392017   -0.2221528    -0.1666204    0.2030723 
   6.084686347    -0.1695996    0.2087999    -0.8443723   -0.2305318    -0.8420691   -0.2177068    -0.1638492    0.1957666 
   6.092250923    -0.1668160    0.2105444    -0.8454269   -0.2257540    -0.8437715   -0.2135053    -0.1599809    0.1901705 
   6.099815498    -0.1623456    0.2137205    -0.8477497   -0.2193426    -0.8459281   -0.2087842    -0.1550311    0.1871189 
   6.107380074    -0.1562449    0.2166918    -0.8493946   -0.2152974    -0.8479258   -0.2046817    -0.1503055    0.1853267 
   6.114944649    -0.1485671    0.2201117    -0.8510472   -0.2099176    -0.8505362   -0.2013010    -0.1448661    0.1853949 
   6.122509225    -0.1400456    0.2219829    -0.8519799   -0.2060634    -0.8524684   -0.1993959    -0.1395016    0.1862576 
   6.130073801    -0.1299630    0.2227127    -0.8542498   -0.2020689    -0.8553523   -0.1960401    -0.1344604    0.1875263 
