! MS46122B
! 1919307/90821646
! 1/19/2022 8:15:07 PM
! G:\MI UNIDAD\MATLAB\DE_EMBED_COAX\TRANSITION_SECTION\S11_S21_ABS1000_100.S2P
! CHANNEL.1
! TR.MEASUREMENT
! CORRECTED.DATA
# GHZ S RI R 50.0
! FREQ.GHZ         S11RE         S11IM         S21RE         S21IM         S12RE         S12IM         S22RE         S22IM         
!; PortSelection: Port_12
   4.926337793    -0.8752697    0.2138172    -0.1058443   -0.4694341    -0.1008110   -0.4632742    -0.8456195    0.1792120 
   4.934174185    -0.8703985    0.2164044    -0.1049167   -0.4695954    -0.1018558   -0.4643577    -0.8471823    0.1829262 
   4.942010576    -0.8656366    0.2192717    -0.1050443   -0.4700538    -0.1023277   -0.4659494    -0.8489707    0.1842946 
   4.949846968    -0.8596101    0.2216294    -0.1051921   -0.4712169    -0.1028469   -0.4672785    -0.8496896    0.1842505 
   4.957683360    -0.8555266    0.2246933    -0.1051798   -0.4719554    -0.1029721   -0.4686311    -0.8495652    0.1844251 
   4.965519752    -0.8516050    0.2275296    -0.1053149   -0.4733732    -0.1035292   -0.4697358    -0.8494203    0.1845217 
   4.973356144    -0.8489034    0.2310152    -0.1056325   -0.4741265    -0.1037024   -0.4710099    -0.8489994    0.1841322 
   4.981192536    -0.8472568    0.2348887    -0.1060932   -0.4753210    -0.1041501   -0.4723293    -0.8469035    0.1845609 
   4.989028928    -0.8468810    0.2378181    -0.1066415   -0.4761235    -0.1042891   -0.4737788    -0.8443763    0.1855425 
   4.996865320    -0.8471192    0.2421069    -0.1066572   -0.4777753    -0.1039981   -0.4756938    -0.8431059    0.1872208 
   5.004701712    -0.8483735    0.2447062    -0.1071906   -0.4792875    -0.1042856   -0.4771512    -0.8416047    0.1898946 
   5.012538104    -0.8506532    0.2466541    -0.1066967   -0.4801497    -0.1035167   -0.4791638    -0.8403012    0.1924566 
   5.020374496    -0.8518124    0.2481213    -0.1063913   -0.4816775    -0.1039072   -0.4812350    -0.8389834    0.1966427 
   5.028210887    -0.8530030    0.2494677    -0.1064439   -0.4827543    -0.1034615   -0.4835144    -0.8378674    0.2013346 
   5.036047279    -0.8523897    0.2518291    -0.1065112   -0.4852556    -0.1045305   -0.4860734    -0.8381681    0.2070305 
   5.043883671    -0.8504201    0.2537311    -0.1069421   -0.4877897    -0.1041624   -0.4889067    -0.8377026    0.2130556 
   5.051720063    -0.8480030    0.2551385    -0.1062087   -0.4913231    -0.1045043   -0.4923001    -0.8381730    0.2180680 
   5.059556455    -0.8438842    0.2578949    -0.1067821   -0.4949726    -0.1048365   -0.4959927    -0.8389043    0.2232467 
   5.067392847    -0.8382059    0.2604807    -0.1064618   -0.4984148    -0.1055502   -0.4995168    -0.8390992    0.2273070 
   5.075229239    -0.8321409    0.2637389    -0.1073599   -0.5025524    -0.1066879   -0.5038817    -0.8382553    0.2305224 
   5.083065631    -0.8232303    0.2680183    -0.1094347   -0.5064481    -0.1090325   -0.5078626    -0.8378089    0.2336549 
   5.090902023    -0.8145157    0.2737982    -0.1118782   -0.5107993    -0.1125155   -0.5118621    -0.8360074    0.2353096 
   5.098738415    -0.8059025    0.2807432    -0.1156497   -0.5151592    -0.1152921   -0.5164429    -0.8327965    0.2357020 
   5.106574807    -0.7976654    0.2864769    -0.1190829   -0.5186049    -0.1194746   -0.5203549    -0.8278698    0.2355990 
   5.114411198    -0.7925175    0.2930317    -0.1208407   -0.5220660    -0.1210021   -0.5231901    -0.8258065    0.2331172 
   5.122247590    -0.7864465    0.2990990    -0.1231291   -0.5258944    -0.1240380   -0.5272940    -0.8234019    0.2341811 
   5.130083982    -0.7798684    0.3048177    -0.1267971   -0.5305845    -0.1291277   -0.5313233    -0.8196015    0.2353748 
   5.137920374    -0.7761821    0.3073957    -0.1301021   -0.5331360    -0.1330583   -0.5342673    -0.8168878    0.2352570 
   5.145756766    -0.7747608    0.3125281    -0.1332417   -0.5374579    -0.1371616   -0.5387433    -0.8149721    0.2364767 
   5.153593158    -0.7738246    0.3150929    -0.1368563   -0.5408041    -0.1414753   -0.5430704    -0.8104166    0.2352514 
   5.161429550    -0.7741597    0.3178413    -0.1413804   -0.5457872    -0.1456469   -0.5472861    -0.8077897    0.2369473 
   5.169265942    -0.7741892    0.3187200    -0.1465614   -0.5494025    -0.1507446   -0.5508042    -0.8031586    0.2397671 
   5.177102334    -0.7734970    0.3205633    -0.1510817   -0.5534434    -0.1559014   -0.5537809    -0.7993495    0.2438085 
   5.184938726    -0.7704876    0.3220833    -0.1560369   -0.5559222    -0.1623367   -0.5557635    -0.7953726    0.2480153 
   5.192775118    -0.7664506    0.3226586    -0.1635969   -0.5581294    -0.1684984   -0.5574186    -0.7921782    0.2516142 
   5.200611509    -0.7616197    0.3242918    -0.1693126   -0.5603936    -0.1759288   -0.5589307    -0.7901706    0.2535336 
   5.208447901    -0.7544366    0.3243782    -0.1760571   -0.5621536    -0.1823678   -0.5591555    -0.7874163    0.2548716 
   5.216284293    -0.7473493    0.3246630    -0.1827300   -0.5632726    -0.1889950   -0.5595192    -0.7828216    0.2541984 
   5.224120685    -0.7384665    0.3222746    -0.1884843   -0.5632571    -0.1948749   -0.5585761    -0.7791433    0.2528069 
   5.231957077    -0.7310172    0.3217590    -0.1950093   -0.5627565    -0.2006952   -0.5575618    -0.7756149    0.2500626 
   5.239793469    -0.7229835    0.3198382    -0.2009822   -0.5610503    -0.2057637   -0.5560220    -0.7717661    0.2462904 
   5.247629861    -0.7173960    0.3204135    -0.2072667   -0.5612384    -0.2117600   -0.5550006    -0.7695065    0.2423581 
   5.255466253    -0.7124466    0.3194676    -0.2128077   -0.5592800    -0.2170947   -0.5534241    -0.7664258    0.2356555 
   5.263302645    -0.7099153    0.3197712    -0.2183768   -0.5586135    -0.2225852   -0.5520192    -0.7638481    0.2298671 
   5.271139037    -0.7101904    0.3196822    -0.2236595   -0.5574389    -0.2275765   -0.5502931    -0.7615151    0.2238426 
   5.278975429    -0.7107764    0.3185978    -0.2291727   -0.5539252    -0.2330486   -0.5471137    -0.7585826    0.2203115 
   5.286811820    -0.7143220    0.3173193    -0.2337370   -0.5510905    -0.2373642   -0.5444342    -0.7573482    0.2170480 
   5.294648212    -0.7164872    0.3139634    -0.2389542   -0.5470494    -0.2420661   -0.5400144    -0.7529096    0.2144595 
   5.302484604    -0.7198532    0.3111933    -0.2448272   -0.5424692    -0.2469054   -0.5364931    -0.7502838    0.2144045 
   5.310320996    -0.7236196    0.3086031    -0.2484336   -0.5381547    -0.2505909   -0.5315965    -0.7477040    0.2150028 
   5.318157388    -0.7270100    0.3052619    -0.2527471   -0.5341467    -0.2544127   -0.5273746    -0.7463929    0.2165781 
   5.325993780    -0.7309504    0.3006639    -0.2556383   -0.5304264    -0.2567444   -0.5229068    -0.7451583    0.2195305 
   5.333830172    -0.7325224    0.2951093    -0.2575829   -0.5249096    -0.2585112   -0.5172227    -0.7440760    0.2199757 
   5.341666564    -0.7329037    0.2912963    -0.2592537   -0.5208007    -0.2598765   -0.5130817    -0.7439247    0.2214839 
   5.349502956    -0.7320009    0.2856990    -0.2612241   -0.5162640    -0.2603237   -0.5086551    -0.7448588    0.2222790 
   5.357339348    -0.7300022    0.2824969    -0.2618999   -0.5116098    -0.2611449   -0.5044443    -0.7461626    0.2218172 
   5.365175740    -0.7275000    0.2800634    -0.2630676   -0.5085298    -0.2614177   -0.5011281    -0.7469896    0.2218653 
   5.373012131    -0.7269912    0.2787622    -0.2632457   -0.5056529    -0.2619346   -0.4973444    -0.7496746    0.2193803 
   5.380848523    -0.7252440    0.2784741    -0.2631862   -0.5020550    -0.2612773   -0.4949052    -0.7521446    0.2185706 
   5.388684915    -0.7251173    0.2793076    -0.2619376   -0.4990914    -0.2611729   -0.4913316    -0.7539613    0.2185449 
   5.396521307    -0.7250682    0.2793500    -0.2620691   -0.4954815    -0.2582172   -0.4888202    -0.7550433    0.2158595 
   5.404357699    -0.7260484    0.2806505    -0.2615745   -0.4930713    -0.2574877   -0.4854192    -0.7562971    0.2155176 
   5.412194091    -0.7289527    0.2819773    -0.2604024   -0.4904746    -0.2563336   -0.4830194    -0.7571640    0.2137497 
   5.420030483    -0.7339202    0.2830411    -0.2601379   -0.4868646    -0.2547513   -0.4807407    -0.7568649    0.2134158 
   5.427866875    -0.7403630    0.2850617    -0.2596233   -0.4844883    -0.2529337   -0.4796120    -0.7565688    0.2138970 
   5.435703267    -0.7468380    0.2861728    -0.2571951   -0.4816425    -0.2512951   -0.4780918    -0.7550995    0.2157903 
   5.443539659    -0.7540920    0.2864196    -0.2548635   -0.4790734    -0.2484699   -0.4772294    -0.7543508    0.2191606 
   5.451376051    -0.7606741    0.2867199    -0.2520677   -0.4768070    -0.2461946   -0.4754961    -0.7534792    0.2215886 
   5.459212442    -0.7657527    0.2879388    -0.2490973   -0.4748322    -0.2445825   -0.4732267    -0.7533118    0.2255640 
   5.467048834    -0.7706809    0.2877824    -0.2459308   -0.4735354    -0.2416055   -0.4723687    -0.7548622    0.2295277 
   5.474885226    -0.7731390    0.2881185    -0.2421902   -0.4728299    -0.2388356   -0.4716496    -0.7566612    0.2342540 
   5.482721618    -0.7754507    0.2887482    -0.2378520   -0.4738739    -0.2346818   -0.4720628    -0.7603320    0.2394608 
   5.490558010    -0.7749901    0.2899694    -0.2335572   -0.4742568    -0.2310855   -0.4728571    -0.7627383    0.2448459 
   5.498394402    -0.7740331    0.2916039    -0.2297817   -0.4761339    -0.2269535   -0.4741435    -0.7650541    0.2508277 
   5.506230794    -0.7716523    0.2944014    -0.2258488   -0.4775644    -0.2231570   -0.4754992    -0.7688147    0.2560496 
   5.514067186    -0.7687383    0.2982485    -0.2228951   -0.4803154    -0.2200454   -0.4782087    -0.7707158    0.2621164 
   5.521903578    -0.7646473    0.3022618    -0.2195655   -0.4824403    -0.2168466   -0.4809174    -0.7724888    0.2653004 
   5.529739970    -0.7627026    0.3073120    -0.2172046   -0.4866545    -0.2143044   -0.4848204    -0.7745816    0.2688332 
   5.537576362    -0.7605602    0.3138267    -0.2139679   -0.4900583    -0.2117274   -0.4888863    -0.7763809    0.2720736 
   5.545412753    -0.7591623    0.3200081    -0.2120007   -0.4939004    -0.2090842   -0.4935720    -0.7776272    0.2753772 
   5.553249145    -0.7598628    0.3262489    -0.2100248   -0.4977194    -0.2063440   -0.4979177    -0.7774448    0.2768798 
   5.561085537    -0.7604375    0.3327662    -0.2073682   -0.5012543    -0.2044104   -0.5023013    -0.7761431    0.2797746 
   5.568921929    -0.7616213    0.3395745    -0.2058110   -0.5049718    -0.2024134   -0.5066850    -0.7747617    0.2832926 
   5.576758321    -0.7628984    0.3471828    -0.2044746   -0.5093251    -0.2017150   -0.5113769    -0.7730665    0.2889218 
   5.584594713    -0.7653133    0.3539920    -0.2030387   -0.5148515    -0.2008183   -0.5171918    -0.7719290    0.2947684 
   5.592431105    -0.7678938    0.3610884    -0.2010444   -0.5204331    -0.1990528   -0.5228561    -0.7701035    0.3011259 
   5.600267497    -0.7698452    0.3671633    -0.1993799   -0.5270331    -0.1980802   -0.5293675    -0.7696808    0.3093162 
   5.608103889    -0.7704945    0.3732693    -0.1989626   -0.5331393    -0.1973317   -0.5361316    -0.7682834    0.3172333 
   5.615940281    -0.7697006    0.3789642    -0.1982924   -0.5403244    -0.1967798   -0.5430705    -0.7670771    0.3257533 
   5.623776673    -0.7659932    0.3851558    -0.1995864   -0.5476965    -0.1979981   -0.5500261    -0.7652662    0.3357750 
   5.631613064    -0.7616380    0.3925336    -0.2007408   -0.5557413    -0.1996414   -0.5579301    -0.7619488    0.3444923 
   5.639449456    -0.7545123    0.3998052    -0.2035182   -0.5643184    -0.2028883   -0.5658172    -0.7595873    0.3539920 
   5.647285848    -0.7468380    0.4088749    -0.2062341   -0.5721806    -0.2064257   -0.5747121    -0.7572004    0.3626136 
   5.655122240    -0.7374919    0.4165276    -0.2094799   -0.5804437    -0.2104332   -0.5827628    -0.7534042    0.3700623 
   5.662958632    -0.7263327    0.4239120    -0.2133652   -0.5867584    -0.2143812   -0.5901600    -0.7498822    0.3770663 
   5.670795024    -0.7147206    0.4315481    -0.2181100   -0.5942608    -0.2207265   -0.5969858    -0.7461364    0.3822960 
   5.678631416    -0.7020933    0.4399998    -0.2259357   -0.6006809    -0.2249269   -0.6034437    -0.7414458    0.3861639 
   5.686467808    -0.6899258    0.4491793    -0.2304968   -0.6078037    -0.2331779   -0.6093103    -0.7356134    0.3890372 
   5.694304200    -0.6793638    0.4586949    -0.2370244   -0.6151051    -0.2399457   -0.6154867    -0.7284325    0.3909497 
   5.702140592    -0.6700177    0.4659774    -0.2427230   -0.6219502    -0.2477026   -0.6226887    -0.7212088    0.3932460 
   5.709976984    -0.6618809    0.4744784    -0.2499296   -0.6274343    -0.2556167   -0.6285788    -0.7123066    0.3944823 
   5.717813375    -0.6550102    0.4808487    -0.2571264   -0.6334984    -0.2633273   -0.6340367    -0.7040529    0.3960310 
   5.725649767    -0.6474298    0.4880106    -0.2667955   -0.6390764    -0.2717389   -0.6385113    -0.6955442    0.3991155 
   5.733486159    -0.6410840    0.4932756    -0.2765063   -0.6432725    -0.2807583   -0.6423910    -0.6864244    0.4006994 
   5.741322551    -0.6345574    0.4983439    -0.2862447   -0.6487346    -0.2920946   -0.6467722    -0.6756559    0.4029960 
   5.749158943    -0.6279776    0.5016214    -0.2971292   -0.6533902    -0.3030969   -0.6505758    -0.6660299    0.4054866 
   5.756995335    -0.6212679    0.5031787    -0.3070548   -0.6561136    -0.3126839   -0.6540579    -0.6561679    0.4081092 
   5.764831727    -0.6136041    0.5026899    -0.3177757   -0.6581333    -0.3231919   -0.6558012    -0.6469758    0.4100027 
   5.772668119    -0.6043109    0.5019749    -0.3274824   -0.6590508    -0.3345853   -0.6552652    -0.6389074    0.4118594 
   5.780504511    -0.5939123    0.4996190    -0.3395216   -0.6576988    -0.3436813   -0.6555188    -0.6320264    0.4128475 
   5.788340903    -0.5824203    0.4970065    -0.3497203   -0.6575165    -0.3546679   -0.6539758    -0.6253186    0.4127550 
   5.796177295    -0.5700608    0.4948893    -0.3601243   -0.6565421    -0.3653226   -0.6526086    -0.6185583    0.4126211 
   5.804013686    -0.5570567    0.4907898    -0.3709612   -0.6550219    -0.3748581   -0.6514046    -0.6138016    0.4103425 
   5.811850078    -0.5448698    0.4873840    -0.3792506   -0.6530157    -0.3842978   -0.6478850    -0.6085001    0.4082723 
   5.819686470    -0.5333752    0.4826554    -0.3881602   -0.6486490    -0.3926431   -0.6444111    -0.6019662    0.4021668 
   5.827522862    -0.5215749    0.4786468    -0.3964397   -0.6455707    -0.4001502   -0.6397398    -0.5978857    0.3967748 
   5.835359254    -0.5127540    0.4742497    -0.4045278   -0.6410190    -0.4087659   -0.6344549    -0.5915753    0.3893944 
   5.843195646    -0.5049643    0.4702305    -0.4130653   -0.6369812    -0.4158829   -0.6307394    -0.5861514    0.3822449 
   5.851032038    -0.4992186    0.4666263    -0.4211299   -0.6315151    -0.4252438   -0.6244412    -0.5793828    0.3756036 
   5.858868430    -0.4972277    0.4619513    -0.4287282   -0.6270394    -0.4305059   -0.6210597    -0.5738244    0.3677671 
   5.866704822    -0.4964661    0.4577524    -0.4353745   -0.6219871    -0.4376566   -0.6143864    -0.5678620    0.3605892 
   5.874541214    -0.4973849    0.4518987    -0.4422862   -0.6151362    -0.4430905   -0.6075321    -0.5620353    0.3532942 
   5.882377606    -0.4987342    0.4467430    -0.4472775   -0.6094906    -0.4488204   -0.6013057    -0.5569929    0.3464803 
   5.890213997    -0.5003706    0.4409614    -0.4547734   -0.6017675    -0.4545926   -0.5938433    -0.5510961    0.3405768 
   5.898050389    -0.5024565    0.4345082    -0.4577024   -0.5974669    -0.4590534   -0.5870809    -0.5483156    0.3377216 
   5.905886781    -0.5036551    0.4288618    -0.4629722   -0.5901169    -0.4626052   -0.5815753    -0.5460399    0.3367144 
   5.913723173    -0.5043355    0.4229672    -0.4667147   -0.5835949    -0.4655647   -0.5752782    -0.5448074    0.3339662 
   5.921559565    -0.5043328    0.4173093    -0.4687986   -0.5775059    -0.4674807   -0.5695194    -0.5457328    0.3342269 
   5.929395957    -0.5031756    0.4108366    -0.4717187   -0.5707216    -0.4680679   -0.5633587    -0.5467844    0.3337906 
   5.937232349    -0.5007370    0.4039455    -0.4736775   -0.5649949    -0.4695033   -0.5578141    -0.5484604    0.3345084 
   5.945068741    -0.4975839    0.3986704    -0.4755554   -0.5589998    -0.4699081   -0.5522851    -0.5498331    0.3346768 
   5.952905133    -0.4952121    0.3921574    -0.4755669   -0.5554298    -0.4705428   -0.5473852    -0.5518652    0.3322846 
   5.960741525    -0.4935412    0.3873388    -0.4769581   -0.5498867    -0.4707216   -0.5441275    -0.5540510    0.3309627 
   5.968577917    -0.4918714    0.3846488    -0.4774410   -0.5455331    -0.4737737   -0.5392143    -0.5544481    0.3290682 
   5.976414308    -0.4938464    0.3794652    -0.4767694   -0.5405002    -0.4704182   -0.5384308    -0.5561325    0.3252327 
   5.984250700    -0.4956954    0.3777870    -0.4783662   -0.5360309    -0.4701931   -0.5355293    -0.5564762    0.3213655 
   5.992087092    -0.4981044    0.3763621    -0.4765024   -0.5330575    -0.4730415   -0.5290858    -0.5563914    0.3168142 
   5.999923484    -0.5022681    0.3759061    -0.4774079   -0.5282306    -0.4723142   -0.5260231    -0.5556607    0.3117616 
   6.007759876    -0.5073969    0.3767323    -0.4768200   -0.5245306    -0.4722202   -0.5228624    -0.5554723    0.3062541 
   6.015596268    -0.5130517    0.3770884    -0.4755740   -0.5211402    -0.4713854   -0.5192375    -0.5538795    0.3026036 
   6.023432660    -0.5192127    0.3780322    -0.4744909   -0.5180392    -0.4705186   -0.5167985    -0.5532784    0.3006882 
   6.031269052    -0.5253850    0.3780679    -0.4724354   -0.5155620    -0.4690239   -0.5143638    -0.5520207    0.3013186 
   6.039105444    -0.5309471    0.3787188    -0.4711510   -0.5128195    -0.4666747   -0.5120397    -0.5527309    0.3023825 
   6.046941836    -0.5352149    0.3783552    -0.4688656   -0.5106129    -0.4648787   -0.5104131    -0.5530321    0.3054352 
   6.054778228    -0.5377758    0.3777942    -0.4681001   -0.5089653    -0.4633420   -0.5086089    -0.5541266    0.3084192 
   6.062614619    -0.5398579    0.3771690    -0.4659866   -0.5069060    -0.4614632   -0.5073767    -0.5558586    0.3135951 
   6.070451011    -0.5407727    0.3770454    -0.4650513   -0.5073700    -0.4604574   -0.5077274    -0.5572595    0.3193917 
   6.078287403    -0.5401954    0.3759913    -0.4629817   -0.5064098    -0.4593431   -0.5079979    -0.5586790    0.3255233 
   6.086123795    -0.5379890    0.3757337    -0.4616900   -0.5070086    -0.4577819   -0.5089803    -0.5601783    0.3311919 
   6.093960187    -0.5355874    0.3752092    -0.4601745   -0.5068097    -0.4565040   -0.5092531    -0.5623779    0.3360859 
   6.101796579    -0.5318602    0.3753676    -0.4578407   -0.5078734    -0.4546833   -0.5103235    -0.5642148    0.3402426 
   6.109632971    -0.5297474    0.3762441    -0.4567963   -0.5091751    -0.4540377   -0.5114285    -0.5660130    0.3436576 
   6.117469363    -0.5279046    0.3789116    -0.4554653   -0.5109818    -0.4536394   -0.5139874    -0.5671650    0.3455622 
   6.125305755    -0.5255136    0.3829934    -0.4550812   -0.5128412    -0.4530811   -0.5161858    -0.5682197    0.3475412 
   6.133142147    -0.5241378    0.3875077    -0.4540257   -0.5157877    -0.4528652   -0.5186359    -0.5676880    0.3486096 
   6.140978539    -0.5236017    0.3922758    -0.4534246   -0.5183641    -0.4510292   -0.5218883    -0.5677088    0.3492863 
   6.148814930    -0.5229937    0.3981519    -0.4536409   -0.5210192    -0.4514494   -0.5241564    -0.5650952    0.3500453 
