! MS46122B
! 1919307/90821646
! 5/16/2022 2:09:34 PM
! C:\USERS\PC_\DESKTOP\CARACTERIZACION\MEDICIONES\BANDA ANCHA\S11_S21_ABS3_502CL.S2P
! CHANNEL.1
! TR.MEASUREMENT
! CORRECTED.DATA
# GHZ S RI R 50.0
! FREQ.GHZ         S11RE         S11IM         S21RE         S21IM         S12RE         S12IM         S22RE         S22IM         
!; PortSelection: Port_12
   4.950000000    -0.3647948   -0.2340272     0.4708415   -0.7691578     0.4902464   -0.7737689    -0.3869875   -0.2246176 
   4.957564576    -0.3650664   -0.2368338     0.4665439   -0.7685480     0.4856357   -0.7744851    -0.3944120   -0.2169392 
   4.965129151    -0.3664188   -0.2439838     0.4626234   -0.7663825     0.4813123   -0.7739649    -0.4027030   -0.2078221 
   4.972693727    -0.3700926   -0.2514189     0.4595245   -0.7642029     0.4768224   -0.7727556    -0.4118607   -0.1976437 
   4.980258303    -0.3749274   -0.2575025     0.4558313   -0.7602237     0.4717928   -0.7705957    -0.4216715   -0.1887442 
   4.987822878    -0.3806462   -0.2610094     0.4543192   -0.7557319     0.4666004   -0.7683039    -0.4302216   -0.1803593 
   4.995387454    -0.3877842   -0.2609625     0.4523050   -0.7513661     0.4619525   -0.7654106    -0.4384049   -0.1745174 
   5.002952030    -0.3941654   -0.2582860     0.4535062   -0.7478705     0.4581377   -0.7629547    -0.4458410   -0.1710294 
   5.010516605    -0.3989653   -0.2530615     0.4555149   -0.7446713     0.4565311   -0.7599313    -0.4519140   -0.1692903 
   5.018081181    -0.4031634   -0.2458881     0.4573504   -0.7418380     0.4542388   -0.7568123    -0.4563013   -0.1690757 
   5.025645756    -0.4046397   -0.2375070     0.4608804   -0.7403761     0.4525490   -0.7544969    -0.4589845   -0.1695073 
   5.033210332    -0.4045192   -0.2276399     0.4626482   -0.7395023     0.4500021   -0.7522263    -0.4608114   -0.1716654 
   5.040774908    -0.4028316   -0.2182400     0.4650698   -0.7406933     0.4482223   -0.7509117    -0.4627833   -0.1729872 
   5.048339483    -0.3996503   -0.2113079     0.4662439   -0.7416391     0.4469252   -0.7497131    -0.4622566   -0.1742222 
   5.055904059    -0.3959709   -0.2058075     0.4680827   -0.7443636     0.4459290   -0.7492574    -0.4616730   -0.1753240 
   5.063468635    -0.3917683   -0.2009635     0.4707881   -0.7467804     0.4456779   -0.7493119    -0.4595498   -0.1756983 
   5.071033210    -0.3876434   -0.1973306     0.4718075   -0.7495504     0.4458986   -0.7495763    -0.4568043   -0.1742860 
   5.078597786    -0.3831801   -0.1956569     0.4728617   -0.7507617     0.4461966   -0.7506649    -0.4536205   -0.1716377 
   5.086162362    -0.3784938   -0.1954702     0.4707389   -0.7536837     0.4458099   -0.7522891    -0.4510532   -0.1666795 
   5.093726937    -0.3746095   -0.1970617     0.4694999   -0.7560904     0.4445246   -0.7540028    -0.4482497   -0.1612638 
   5.101291513    -0.3715656   -0.1997962     0.4674287   -0.7569871     0.4436598   -0.7557528    -0.4458117   -0.1559629 
   5.108856089    -0.3697520   -0.2033319     0.4674417   -0.7582144     0.4438016   -0.7572670    -0.4432935   -0.1500798 
   5.116420664    -0.3687411   -0.2067534     0.4670437   -0.7573730     0.4442534   -0.7581103    -0.4407869   -0.1435402 
   5.123985240    -0.3686296   -0.2084871     0.4683297   -0.7571260     0.4451836   -0.7572749    -0.4376421   -0.1372628 
   5.131549815    -0.3680263   -0.2093658     0.4702010   -0.7555813     0.4459717   -0.7572173    -0.4338122   -0.1319067 
   5.139114391    -0.3680667   -0.2084972     0.4724132   -0.7559618     0.4475641   -0.7577031    -0.4309353   -0.1271397 
   5.146678967    -0.3683952   -0.2050776     0.4742826   -0.7554708     0.4489612   -0.7591059    -0.4264694   -0.1248236 
   5.154243542    -0.3667365   -0.1999437     0.4765467   -0.7572429     0.4508274   -0.7596836    -0.4199082   -0.1244825 
   5.161808118    -0.3654616   -0.1942253     0.4808215   -0.7594472     0.4536289   -0.7606665    -0.4132086   -0.1252224 
   5.169372694    -0.3607109   -0.1882215     0.4843810   -0.7627531     0.4577058   -0.7602192    -0.4047545   -0.1250879 
   5.176937269    -0.3551500   -0.1804147     0.4883310   -0.7662968     0.4614115   -0.7586644    -0.3964885   -0.1245817 
   5.184501845    -0.3480518   -0.1730526     0.4905322   -0.7707849     0.4667398   -0.7570947    -0.3872920   -0.1246687 
   5.192066421    -0.3371459   -0.1669810     0.4931655   -0.7758044     0.4732214   -0.7567353    -0.3799134   -0.1247318 
   5.199630996    -0.3259846   -0.1632431     0.4939848   -0.7799544     0.4809420   -0.7603204    -0.3721894   -0.1250491 
   5.207195572    -0.3137900   -0.1625974     0.4955262   -0.7859241     0.4882586   -0.7666019    -0.3660496   -0.1236555 
   5.214760148    -0.3026813   -0.1656981     0.4958677   -0.7924083     0.4934075   -0.7759647    -0.3591341   -0.1200910 
   5.222324723    -0.2920390   -0.1717593     0.4952832   -0.7998964     0.4959072   -0.7860903    -0.3528723   -0.1164833 
   5.229889299    -0.2828188   -0.1796406     0.4939494   -0.8081298     0.4953704   -0.7956126    -0.3481283   -0.1120136 
   5.237453875    -0.2759354   -0.1893460     0.4896157   -0.8142153     0.4908061   -0.8014736    -0.3418793   -0.1087406 
   5.245018450    -0.2715534   -0.1990626     0.4848789   -0.8216859     0.4848304   -0.8068720    -0.3380001   -0.1042468 
   5.252583026    -0.2706637   -0.2076429     0.4770634   -0.8264691     0.4791700   -0.8098763    -0.3354455   -0.1026401 
   5.260147601    -0.2677158   -0.2151064     0.4699510   -0.8307811     0.4737983   -0.8123876    -0.3339897   -0.1031946 
   5.267712177    -0.2690089   -0.2201613     0.4639899   -0.8312929     0.4704959   -0.8136697    -0.3324991   -0.1065772 
   5.275276753    -0.2673177   -0.2244137     0.4589856   -0.8321467     0.4674374   -0.8137128    -0.3316607   -0.1129538 
   5.282841328    -0.2658843   -0.2275504     0.4560431   -0.8314511     0.4651996   -0.8133379    -0.3318697   -0.1225396 
   5.290405904    -0.2656138   -0.2314585     0.4536785   -0.8309612     0.4645710   -0.8131229    -0.3332021   -0.1353022 
   5.297970480    -0.2644031   -0.2341633     0.4533550   -0.8300167     0.4637125   -0.8135315    -0.3335217   -0.1483497 
   5.305535055    -0.2643108   -0.2348854     0.4523847   -0.8312823     0.4626033   -0.8152728    -0.3341840   -0.1626250 
   5.313099631    -0.2641469   -0.2358224     0.4539939   -0.8341799     0.4625416   -0.8190647    -0.3324690   -0.1767348 
   5.320664207    -0.2633743   -0.2364763     0.4543580   -0.8386528     0.4609782   -0.8238661    -0.3304518   -0.1922884 
   5.328228782    -0.2627588   -0.2380410     0.4557429   -0.8472061     0.4589039   -0.8301929    -0.3273092   -0.2087482 
   5.335793358    -0.2602913   -0.2415804     0.4534236   -0.8545404     0.4546005   -0.8367919    -0.3248294   -0.2231100 
   5.343357934    -0.2605643   -0.2456963     0.4495164   -0.8637385     0.4499117   -0.8416382    -0.3225080   -0.2348761 
   5.350922509    -0.2615732   -0.2512012     0.4412364   -0.8721126     0.4436064   -0.8457576    -0.3196501   -0.2421563 
   5.358487085    -0.2637579   -0.2580315     0.4287474   -0.8784016     0.4366713   -0.8502043    -0.3172413   -0.2483517 
   5.366051661    -0.2692004   -0.2663326     0.4174815   -0.8836029     0.4303967   -0.8550935    -0.3149115   -0.2513999 
   5.373616236    -0.2747089   -0.2746754     0.4058447   -0.8838356     0.4236419   -0.8605984    -0.3141966   -0.2563011 
   5.381180812    -0.2809436   -0.2820268     0.3966294   -0.8832009     0.4178865   -0.8653944    -0.3156760   -0.2586966 
   5.388745387    -0.2883769   -0.2897933     0.3879651   -0.8802233     0.4114101   -0.8698668    -0.3204177   -0.2589012 
   5.396309963    -0.2965858   -0.2994452     0.3808509   -0.8772328     0.4049911   -0.8738984    -0.3262800   -0.2578058 
   5.403874539    -0.3070668   -0.3082138     0.3735139   -0.8715034     0.3961090   -0.8777039    -0.3346983   -0.2533843 
   5.411439114    -0.3204036   -0.3175584     0.3684171   -0.8678605     0.3865062   -0.8813565    -0.3429446   -0.2495910 
   5.419003690    -0.3357094   -0.3243499     0.3635114   -0.8635108     0.3755089   -0.8836057    -0.3509054   -0.2459147 
   5.426568266    -0.3525917   -0.3275789     0.3617443   -0.8616236     0.3639317   -0.8831937    -0.3582466   -0.2439583 
   5.434132841    -0.3684659   -0.3265232     0.3592582   -0.8606406     0.3544803   -0.8793579    -0.3658125   -0.2428451 
   5.441697417    -0.3821148   -0.3228762     0.3564264   -0.8603340     0.3487322   -0.8751281    -0.3735152   -0.2449147 
   5.449261993    -0.3941239   -0.3177179     0.3514791   -0.8601506     0.3459383   -0.8690464    -0.3820161   -0.2479624 
   5.456826568    -0.4043973   -0.3112239     0.3454843   -0.8587268     0.3445005   -0.8653143    -0.3900497   -0.2515538 
   5.464391144    -0.4131974   -0.3038707     0.3374157   -0.8563500     0.3413737   -0.8631319    -0.3988753   -0.2543692 
   5.471955720    -0.4194607   -0.2963169     0.3299929   -0.8526090     0.3384681   -0.8639025    -0.4079186   -0.2566333 
   5.479520295    -0.4229899   -0.2896113     0.3252333   -0.8471342     0.3347245   -0.8634558    -0.4158506   -0.2587513 
   5.487084871    -0.4245267   -0.2838637     0.3210231   -0.8418104     0.3308865   -0.8616479    -0.4225866   -0.2590980 
   5.494649446    -0.4259511   -0.2808327     0.3188170   -0.8358034     0.3272228   -0.8571056    -0.4296598   -0.2583086 
   5.502214022    -0.4291225   -0.2791368     0.3173463   -0.8288997     0.3242428   -0.8518493    -0.4385704   -0.2530372 
   5.509778598    -0.4333281   -0.2793648     0.3152634   -0.8237602     0.3221145   -0.8460974    -0.4477308   -0.2450908 
   5.517343173    -0.4393837   -0.2790881     0.3137154   -0.8183052     0.3196293   -0.8403811    -0.4569460   -0.2341184 
   5.524907749    -0.4460083   -0.2789674     0.3113423   -0.8134507     0.3181305   -0.8343165    -0.4664963   -0.2208349 
   5.532472325    -0.4538212   -0.2772439     0.3101920   -0.8074857     0.3170217   -0.8281799    -0.4747353   -0.2067270 
   5.540036900    -0.4617848   -0.2750797     0.3087281   -0.8015910     0.3161469   -0.8218577    -0.4850391   -0.1913606 
   5.547601476    -0.4693795   -0.2710367     0.3090551   -0.7948748     0.3157783   -0.8150829    -0.4932128   -0.1769889 
   5.555166052    -0.4783958   -0.2661647     0.3099257   -0.7876462     0.3157718   -0.8074062    -0.5013477   -0.1622867 
   5.562730627    -0.4831797   -0.2582002     0.3118585   -0.7802372     0.3163171   -0.7995033    -0.5088667   -0.1487893 
   5.570295203    -0.4906000   -0.2519040     0.3150883   -0.7723280     0.3168619   -0.7917362    -0.5167173   -0.1371124 
   5.577859779    -0.4952838   -0.2414740     0.3186721   -0.7657936     0.3177775   -0.7848713    -0.5241029   -0.1274177 
   5.585424354    -0.4977305   -0.2314140     0.3239791   -0.7610832     0.3189708   -0.7792645    -0.5319161   -0.1186162 
   5.592988930    -0.4993725   -0.2197418     0.3310850   -0.7575034     0.3211140   -0.7742759    -0.5384462   -0.1119139 
   5.600553506    -0.4984211   -0.2083708     0.3386927   -0.7541893     0.3233561   -0.7693648    -0.5427143   -0.1069688 
   5.608118081    -0.4974273   -0.1963612     0.3456741   -0.7529196     0.3264684   -0.7642848    -0.5464908   -0.1019197 
   5.615682657    -0.4945272   -0.1855626     0.3536370   -0.7525560     0.3296438   -0.7600756    -0.5493954   -0.0990716 
   5.623247232    -0.4911618   -0.1741164     0.3597898   -0.7537474     0.3324471   -0.7564973    -0.5488043   -0.0950382 
   5.630811808    -0.4866778   -0.1639695     0.3653081   -0.7565150     0.3357052   -0.7544464    -0.5474880   -0.0915636 
   5.638376384    -0.4818015   -0.1546331     0.3698188   -0.7605813     0.3393184   -0.7538493    -0.5457284   -0.0878709 
   5.645940959    -0.4772284   -0.1466831     0.3747854   -0.7636459     0.3427115   -0.7551081    -0.5431564   -0.0846025 
   5.653505535    -0.4718984   -0.1405363     0.3771961   -0.7687397     0.3468387   -0.7568490    -0.5398943   -0.0795440 
   5.661070111    -0.4676108   -0.1354620     0.3798714   -0.7710142     0.3501948   -0.7591113    -0.5366303   -0.0746258 
   5.668634686    -0.4629595   -0.1325468     0.3822360   -0.7738287     0.3538629   -0.7606913    -0.5340015   -0.0684954 
   5.676199262    -0.4598157   -0.1298500     0.3831649   -0.7757037     0.3560128   -0.7617497    -0.5296916   -0.0623530 
   5.683763838    -0.4566253   -0.1275317     0.3841470   -0.7787359     0.3580217   -0.7637462    -0.5264984   -0.0553804 
   5.691328413    -0.4545614   -0.1247955     0.3872462   -0.7814653     0.3607676   -0.7656066    -0.5211858   -0.0488258 
   5.698892989    -0.4526785   -0.1227008     0.3894399   -0.7837641     0.3634490   -0.7687932    -0.5169493   -0.0440956 
   5.706457565    -0.4504231   -0.1196097     0.3926373   -0.7864508     0.3683440   -0.7723967    -0.5106182   -0.0385017 
   5.714022140    -0.4476141   -0.1150163     0.3964827   -0.7873354     0.3726543   -0.7753588    -0.5032494   -0.0339744 
   5.721586716    -0.4442185   -0.1101315     0.3999374   -0.7896642     0.3782530   -0.7783161    -0.4974663   -0.0296049 
   5.729151292    -0.4394228   -0.1036116     0.4015090   -0.7915778     0.3832337   -0.7806564    -0.4902934   -0.0271812 
   5.736715867    -0.4337906   -0.0962651     0.4050023   -0.7960575     0.3876006   -0.7845063    -0.4819734   -0.0235482 
   5.744280443    -0.4260097   -0.0885569     0.4090268   -0.8003231     0.3929979   -0.7890384    -0.4715673   -0.0209202 
   5.751845018    -0.4168522   -0.0809597     0.4124849   -0.8068842     0.3981662   -0.7953243    -0.4621271   -0.0180370 
   5.759409594    -0.4055718   -0.0744455     0.4170788   -0.8130260     0.4044816   -0.8020945    -0.4509076   -0.0156509 
   5.766974170    -0.3933506   -0.0688551     0.4203776   -0.8194892     0.4099019   -0.8106144    -0.4388003   -0.0130900 
   5.774538745    -0.3801416   -0.0648535     0.4227319   -0.8275487     0.4140430   -0.8190840    -0.4271435   -0.0103057 
   5.782103321    -0.3666074   -0.0620874     0.4215457   -0.8353966     0.4141574   -0.8284315    -0.4159676   -0.0056177 
   5.789667897    -0.3527185   -0.0615227     0.4197447   -0.8457943     0.4116468   -0.8365988    -0.4038206   -0.0007552 
   5.797232472    -0.3385021   -0.0631268     0.4147022   -0.8549740     0.4082672   -0.8437411    -0.3922022    0.0051284 
   5.804797048    -0.3255181   -0.0669519     0.4098586   -0.8642567     0.4036636   -0.8496200    -0.3809648    0.0095728 
   5.812361624    -0.3126418   -0.0712793     0.4064094   -0.8694865     0.4013270   -0.8530416    -0.3699105    0.0134482 
   5.819926199    -0.3010954   -0.0770490     0.3995833   -0.8741937     0.3978776   -0.8554659    -0.3595055    0.0183852 
   5.827490775    -0.2904898   -0.0830816     0.3949365   -0.8768226     0.3962812   -0.8557826    -0.3520707    0.0199989 
   5.835055351    -0.2801770   -0.0899481     0.3880239   -0.8782760     0.3940068   -0.8567059    -0.3456860    0.0220305 
   5.842619926    -0.2718912   -0.0977607     0.3850282   -0.8782266     0.3949774   -0.8567096    -0.3409657    0.0228574 
   5.850184502    -0.2651452   -0.1057582     0.3803652   -0.8802297     0.3929057   -0.8608825    -0.3379441    0.0202704 
   5.857749077    -0.2595320   -0.1127491     0.3786732   -0.8824159     0.3942741   -0.8646351    -0.3341272    0.0179730 
   5.865313653    -0.2558617   -0.1195392     0.3780600   -0.8852201     0.3941343   -0.8691068    -0.3302257    0.0116018 
   5.872878229    -0.2522524   -0.1245846     0.3789290   -0.8890510     0.3938801   -0.8742031    -0.3246996    0.0029514 
   5.880442804    -0.2490522   -0.1267347     0.3771377   -0.8944815     0.3907538   -0.8800433    -0.3196552   -0.0077939 
   5.888007380    -0.2449835   -0.1294371     0.3761843   -0.8995609     0.3874920   -0.8858298    -0.3139779   -0.0224575 
   5.895571956    -0.2402936   -0.1309886     0.3705851   -0.9072015     0.3849431   -0.8902621    -0.3088287   -0.0370726 
   5.903136531    -0.2360773   -0.1338628     0.3663001   -0.9140055     0.3804253   -0.8974063    -0.3046342   -0.0533381 
   5.910701107    -0.2313591   -0.1366731     0.3599870   -0.9202910     0.3744292   -0.9033601    -0.2991824   -0.0702039 
   5.918265683    -0.2273666   -0.1413660     0.3541313   -0.9248253     0.3684444   -0.9098723    -0.2939030   -0.0868803 
   5.925830258    -0.2236797   -0.1468977     0.3459976   -0.9282463     0.3623726   -0.9149544    -0.2886458   -0.1030690 
   5.933394834    -0.2196899   -0.1549163     0.3389730   -0.9307376     0.3553338   -0.9191931    -0.2841795   -0.1161967 
   5.940959410    -0.2170299   -0.1640497     0.3306721   -0.9329152     0.3476125   -0.9229260    -0.2806582   -0.1260737 
   5.948523985    -0.2165695   -0.1764222     0.3218827   -0.9339141     0.3395516   -0.9254382    -0.2773008   -0.1354014 
   5.956088561    -0.2174507   -0.1894566     0.3170048   -0.9339933     0.3317551   -0.9292551    -0.2744461   -0.1421572 
   5.963653137    -0.2215116   -0.2039921     0.3086938   -0.9341661     0.3231173   -0.9327381    -0.2734396   -0.1463821 
   5.971217712    -0.2282917   -0.2174201     0.3047321   -0.9341592     0.3147815   -0.9350544    -0.2724161   -0.1482597 
   5.978782288    -0.2376055   -0.2309387     0.2970487   -0.9340025     0.3047357   -0.9366335    -0.2725771   -0.1489201 
   5.986346863    -0.2486974   -0.2425573     0.2924097   -0.9331305     0.2979780   -0.9360725    -0.2727389   -0.1500302 
   5.993911439    -0.2610810   -0.2524822     0.2872469   -0.9322925     0.2930429   -0.9338107    -0.2743185   -0.1524144 
   6.001476015    -0.2742949   -0.2603253     0.2800010   -0.9319960     0.2865673   -0.9323095    -0.2776582   -0.1541608 
   6.009040590    -0.2882472   -0.2660543     0.2735526   -0.9324384     0.2820568   -0.9320621    -0.2814787   -0.1587386 
   6.016605166    -0.3015589   -0.2707385     0.2675149   -0.9315141     0.2786094   -0.9330828    -0.2877512   -0.1638753 
   6.024169742    -0.3139048   -0.2723530     0.2618842   -0.9304594     0.2747481   -0.9363697    -0.2947493   -0.1696081 
   6.031734317    -0.3255849   -0.2729695     0.2564651   -0.9277751     0.2710972   -0.9396533    -0.3037592   -0.1757463 
   6.039298893    -0.3349476   -0.2728836     0.2514121   -0.9262934     0.2650380   -0.9420643    -0.3130744   -0.1815683 
   6.046863469    -0.3428077   -0.2720652     0.2464000   -0.9231973     0.2589098   -0.9431885    -0.3223999   -0.1875305 
   6.054428044    -0.3501400   -0.2718397     0.2406748   -0.9203308     0.2509862   -0.9431060    -0.3331235   -0.1943396 
   6.061992620    -0.3559214   -0.2714182     0.2347510   -0.9186223     0.2424431   -0.9411955    -0.3429368   -0.1992313 
   6.069557196    -0.3611826   -0.2720339     0.2294458   -0.9177306     0.2353445   -0.9392891    -0.3515766   -0.2017516 
   6.077121771    -0.3669437   -0.2735713     0.2246575   -0.9144562     0.2281891   -0.9360127    -0.3601888   -0.2036269 
   6.084686347    -0.3721445   -0.2750216     0.2193867   -0.9125593     0.2233366   -0.9322448    -0.3687397   -0.2029917 
   6.092250923    -0.3790553   -0.2761407     0.2150690   -0.9075516     0.2186773   -0.9276086    -0.3774021   -0.2007792 
   6.099815498    -0.3866301   -0.2777852     0.2090289   -0.9029353     0.2147797   -0.9220182    -0.3868613   -0.1956064 
   6.107380074    -0.3960533   -0.2774899     0.2049594   -0.8969294     0.2102169   -0.9156935    -0.3962947   -0.1896565 
   6.114944649    -0.4066086   -0.2772546     0.2000236   -0.8909706     0.2063797   -0.9095951    -0.4062306   -0.1812567 
   6.122509225    -0.4175960   -0.2767266     0.1964740   -0.8839175     0.2036552   -0.9030195    -0.4169434   -0.1725423 
   6.130073801    -0.4287047   -0.2731527     0.1944965   -0.8773801     0.2001639   -0.8965439    -0.4276601   -0.1629181 
