! MS46122B
! 1919307/90821646
! 5/18/2022 2:50:49 PM
! C:\USERS\PC_\DESKTOP\CARACTERIZACION\MEDICIONES\S11_S21_ABS10_1002C.S2P
! CHANNEL.1
! TR.MEASUREMENT
! CORRECTED.DATA
# GHZ S RI R 50.0
! FREQ.GHZ         S11RE         S11IM         S21RE         S21IM         S12RE         S12IM         S22RE         S22IM         
!; PortSelection: Port_12
   4.950000000    -0.8625014    0.1788469    -0.0977124   -0.4522806    -0.1072570   -0.4679891    -0.8624709    0.1867998 
   4.957564576    -0.8618506    0.1826352    -0.0972818   -0.4514343    -0.1060915   -0.4669524    -0.8579915    0.1909888 
   4.965129151    -0.8640486    0.1845957    -0.0955806   -0.4503578    -0.1046171   -0.4654957    -0.8542835    0.1979546 
   4.972693727    -0.8654301    0.1859683    -0.0933073   -0.4489393    -0.1029749   -0.4641554    -0.8512141    0.2075789 
   4.980258303    -0.8671700    0.1868836    -0.0904651   -0.4482930    -0.1009074   -0.4629744    -0.8471260    0.2174304 
   4.987822878    -0.8672569    0.1877537    -0.0868381   -0.4483154    -0.0987876   -0.4618288    -0.8427270    0.2285371 
   4.995387454    -0.8678037    0.1881298    -0.0831046   -0.4505581    -0.0968154   -0.4613972    -0.8390955    0.2399579 
   5.002952030    -0.8674998    0.1877369    -0.0801051   -0.4540282    -0.0953163   -0.4608447    -0.8361049    0.2501703 
   5.010516605    -0.8670331    0.1858518    -0.0769611   -0.4581622    -0.0934098   -0.4608236    -0.8335062    0.2596644 
   5.018081181    -0.8664213    0.1834862    -0.0758164   -0.4625531    -0.0922839   -0.4604926    -0.8307222    0.2674299 
   5.025645756    -0.8652596    0.1818799    -0.0753288   -0.4663859    -0.0910562   -0.4605114    -0.8278274    0.2736464 
   5.033210332    -0.8630083    0.1823536    -0.0759181   -0.4708781    -0.0902105   -0.4600612    -0.8253847    0.2779889 
   5.040774908    -0.8619013    0.1838056    -0.0769994   -0.4746391    -0.0894967   -0.4601009    -0.8237901    0.2809210 
   5.048339483    -0.8612399    0.1859143    -0.0781373   -0.4793187    -0.0891738   -0.4604882    -0.8232182    0.2822179 
   5.055904059    -0.8606385    0.1893590    -0.0791535   -0.4832902    -0.0882600   -0.4617268    -0.8239927    0.2821994 
   5.063468635    -0.8599272    0.1929688    -0.0807551   -0.4879614    -0.0881615   -0.4630309    -0.8248960    0.2808497 
   5.071033210    -0.8590345    0.1987226    -0.0824306   -0.4911391    -0.0882132   -0.4646753    -0.8266698    0.2790233 
   5.078597786    -0.8581235    0.2036850    -0.0850237   -0.4948358    -0.0895470   -0.4666326    -0.8286655    0.2768666 
   5.086162362    -0.8559614    0.2095753    -0.0893696   -0.4975145    -0.0910758   -0.4687500    -0.8305934    0.2754909 
   5.093726937    -0.8545665    0.2156698    -0.0928943   -0.4996831    -0.0933020   -0.4712739    -0.8326660    0.2735851 
   5.101291513    -0.8536059    0.2206225    -0.0957015   -0.5020522    -0.0946090   -0.4740963    -0.8346745    0.2721148 
   5.108856089    -0.8529343    0.2252541    -0.0978759   -0.5037619    -0.0956522   -0.4770483    -0.8357618    0.2717270 
   5.116420664    -0.8516019    0.2293282    -0.0980079   -0.5058829    -0.0969814   -0.4796704    -0.8381538    0.2727869 
   5.123985240    -0.8484362    0.2315273    -0.0973415   -0.5086834    -0.0973073   -0.4838663    -0.8390363    0.2748881 
   5.131549815    -0.8443825    0.2319738    -0.0983000   -0.5133915    -0.0997412   -0.4894851    -0.8400048    0.2775212 
   5.139114391    -0.8418991    0.2317385    -0.0989511   -0.5188648    -0.1027517   -0.4954510    -0.8420510    0.2799041 
   5.146678967    -0.8391549    0.2342121    -0.1015664   -0.5247785    -0.1067685   -0.5015998    -0.8422773    0.2829538 
   5.154243542    -0.8341102    0.2348764    -0.1043093   -0.5297102    -0.1103269   -0.5065122    -0.8390036    0.2841719 
   5.161808118    -0.8294563    0.2355267    -0.1076849   -0.5364954    -0.1131229   -0.5118790    -0.8361323    0.2869936 
   5.169372694    -0.8228662    0.2343019    -0.1116812   -0.5422460    -0.1164557   -0.5167003    -0.8311300    0.2898518 
   5.176937269    -0.8162906    0.2336292    -0.1170878   -0.5491911    -0.1185480   -0.5211626    -0.8253853    0.2932748 
   5.184501845    -0.8089485    0.2326184    -0.1239232   -0.5546628    -0.1204947   -0.5259262    -0.8184485    0.2968939 
   5.192066421    -0.8023837    0.2300727    -0.1318710   -0.5592682    -0.1230677   -0.5318438    -0.8122379    0.3005548 
   5.199630996    -0.7983488    0.2292493    -0.1420414   -0.5629142    -0.1265911   -0.5390995    -0.8052062    0.3023374 
   5.207195572    -0.7951301    0.2296451    -0.1524732   -0.5650908    -0.1308301   -0.5462298    -0.7972297    0.3043218 
   5.214760148    -0.7936637    0.2314889    -0.1631246   -0.5648538    -0.1374097   -0.5528173    -0.7873041    0.3047131 
   5.222324723    -0.7899694    0.2328147    -0.1722026   -0.5621282    -0.1446444   -0.5576235    -0.7791277    0.3026937 
   5.229889299    -0.7876681    0.2349226    -0.1803687   -0.5584756    -0.1530270   -0.5614779    -0.7739640    0.3013830 
   5.237453875    -0.7839385    0.2381401    -0.1860650   -0.5540993    -0.1604741   -0.5623108    -0.7699366    0.2995545 
   5.245018450    -0.7809763    0.2422625    -0.1917112   -0.5500097    -0.1686159   -0.5629275    -0.7691967    0.3005154 
   5.252583026    -0.7775657    0.2473399    -0.1975098   -0.5464073    -0.1753320   -0.5617031    -0.7702985    0.3045170 
   5.260147601    -0.7707154    0.2511981    -0.2015059   -0.5430870    -0.1810899   -0.5594544    -0.7711087    0.3083768 
   5.267712177    -0.7664063    0.2542211    -0.2047054   -0.5394177    -0.1852772   -0.5571574    -0.7714998    0.3128389 
   5.275276753    -0.7585379    0.2547268    -0.2068358   -0.5354519    -0.1882102   -0.5536729    -0.7715647    0.3146777 
   5.282841328    -0.7520295    0.2521770    -0.2082302   -0.5319399    -0.1903189   -0.5499430    -0.7723293    0.3152046 
   5.290405904    -0.7476470    0.2459729    -0.2088510   -0.5288994    -0.1905345   -0.5474217    -0.7735689    0.3124782 
   5.297970480    -0.7437575    0.2398912    -0.2102952   -0.5279220    -0.1915888   -0.5456218    -0.7760571    0.3087765 
   5.305535055    -0.7437553    0.2354769    -0.2135923   -0.5280340    -0.1930251   -0.5449799    -0.7788461    0.3033438 
   5.313099631    -0.7460572    0.2323474    -0.2178455   -0.5295295    -0.1958587   -0.5452464    -0.7819081    0.2984166 
   5.320664207    -0.7482286    0.2311781    -0.2237070   -0.5293488    -0.2002580   -0.5448416    -0.7853277    0.2925898 
   5.328228782    -0.7510669    0.2316334    -0.2310185   -0.5276900    -0.2065413   -0.5440610    -0.7868835    0.2848113 
   5.335793358    -0.7515325    0.2311990    -0.2382492   -0.5224991    -0.2138488   -0.5400624    -0.7887567    0.2763286 
   5.343357934    -0.7514266    0.2325034    -0.2439531   -0.5167615    -0.2212896   -0.5349489    -0.7890258    0.2689084 
   5.350922509    -0.7525833    0.2320030    -0.2494636   -0.5087507    -0.2264136   -0.5270962    -0.7865729    0.2630906 
   5.358487085    -0.7529081    0.2351420    -0.2528924   -0.5015639    -0.2328001   -0.5187060    -0.7831972    0.2598431 
   5.366051661    -0.7550905    0.2367432    -0.2545933   -0.4935808    -0.2358811   -0.5107740    -0.7771175    0.2591000 
   5.373616236    -0.7575399    0.2397247    -0.2547497   -0.4860597    -0.2387412   -0.5025761    -0.7709017    0.2587488 
   5.381180812    -0.7592929    0.2432814    -0.2529299   -0.4776574    -0.2394330   -0.4961782    -0.7648720    0.2615502 
   5.388745387    -0.7616901    0.2460618    -0.2498970   -0.4707873    -0.2395125   -0.4896659    -0.7587855    0.2654506 
   5.396309963    -0.7634234    0.2463698    -0.2449877   -0.4643544    -0.2394093   -0.4849292    -0.7534702    0.2709894 
   5.403874539    -0.7656549    0.2471824    -0.2395526   -0.4587527    -0.2388061   -0.4801648    -0.7475848    0.2774049 
   5.411439114    -0.7696525    0.2474723    -0.2327799   -0.4556748    -0.2392353   -0.4763404    -0.7422600    0.2834985 
   5.419003690    -0.7740034    0.2479868    -0.2269221   -0.4545563    -0.2393395   -0.4732532    -0.7382584    0.2893817 
   5.426568266    -0.7788950    0.2488683    -0.2221381   -0.4565331    -0.2404482   -0.4713012    -0.7377515    0.2927217 
   5.434132841    -0.7819989    0.2490662    -0.2186498   -0.4592445    -0.2413017   -0.4694667    -0.7385108    0.2978226 
   5.441697417    -0.7842358    0.2481002    -0.2173321   -0.4617707    -0.2428649   -0.4672103    -0.7409555    0.3025606 
   5.449261993    -0.7857049    0.2458630    -0.2181445   -0.4625066    -0.2440818   -0.4636505    -0.7446693    0.3059354 
   5.456826568    -0.7874388    0.2431336    -0.2184917   -0.4620230    -0.2448857   -0.4593276    -0.7479991    0.3073487 
   5.464391144    -0.7890152    0.2403243    -0.2196443   -0.4602449    -0.2442850   -0.4550123    -0.7512653    0.3069248 
   5.471955720    -0.7920871    0.2386466    -0.2181723   -0.4583496    -0.2419125   -0.4522136    -0.7545071    0.3029396 
   5.479520295    -0.7945257    0.2369642    -0.2162510   -0.4562967    -0.2376264   -0.4500945    -0.7575314    0.2981063 
   5.487084871    -0.7970081    0.2378994    -0.2126074   -0.4546870    -0.2327681   -0.4493910    -0.7596796    0.2907905 
   5.494649446    -0.7993720    0.2390143    -0.2086835   -0.4532193    -0.2275761   -0.4500199    -0.7629849    0.2828821 
   5.502214022    -0.8016739    0.2414963    -0.2043628   -0.4529478    -0.2217881   -0.4511810    -0.7657840    0.2767035 
   5.509778598    -0.8049518    0.2447133    -0.2000953   -0.4526914    -0.2176038   -0.4534946    -0.7699114    0.2729691 
   5.517343173    -0.8082792    0.2493686    -0.1963799   -0.4534453    -0.2123799   -0.4557572    -0.7712826    0.2728818 
   5.524907749    -0.8114804    0.2560421    -0.1924808   -0.4539732    -0.2076559   -0.4587573    -0.7730693    0.2748812 
   5.532472325    -0.8134576    0.2632061    -0.1877205   -0.4559537    -0.2039086   -0.4613882    -0.7737677    0.2798039 
   5.540036900    -0.8164356    0.2702036    -0.1833308   -0.4574339    -0.1988242   -0.4647384    -0.7744021    0.2868432 
   5.547601476    -0.8172106    0.2759414    -0.1777584   -0.4598060    -0.1936943   -0.4678987    -0.7744650    0.2955542 
   5.555166052    -0.8197177    0.2811354    -0.1727678   -0.4627592    -0.1893743   -0.4705277    -0.7732495    0.3055707 
   5.562730627    -0.8172334    0.2853728    -0.1671710   -0.4664414    -0.1843553   -0.4731362    -0.7718086    0.3171977 
   5.570295203    -0.8181435    0.2863221    -0.1635409   -0.4711711    -0.1799514   -0.4762135    -0.7702118    0.3292424 
   5.577859779    -0.8174788    0.2899868    -0.1584168   -0.4774511    -0.1772396   -0.4782922    -0.7690154    0.3410085 
   5.585424354    -0.8168058    0.2915380    -0.1556483   -0.4846608    -0.1728777   -0.4813854    -0.7681996    0.3526155 
   5.592988930    -0.8167807    0.2935641    -0.1521410   -0.4917109    -0.1691389   -0.4847412    -0.7669234    0.3634547 
   5.600553506    -0.8162494    0.2944406    -0.1497832   -0.4999003    -0.1651275   -0.4879370    -0.7663193    0.3714137 
   5.608118081    -0.8157380    0.2970222    -0.1488050   -0.5075155    -0.1615396   -0.4914842    -0.7655566    0.3789487 
   5.615682657    -0.8149915    0.2993866    -0.1488228   -0.5164018    -0.1579059   -0.4952182    -0.7655985    0.3842759 
   5.623247232    -0.8128847    0.3044302    -0.1494502   -0.5245021    -0.1561771   -0.4992903    -0.7639231    0.3890136 
   5.630811808    -0.8110361    0.3098702    -0.1528786   -0.5324026    -0.1529605   -0.5045611    -0.7631418    0.3927938 
   5.638376384    -0.8087832    0.3168496    -0.1559589   -0.5410720    -0.1535625   -0.5103218    -0.7629258    0.3962764 
   5.645940959    -0.8075553    0.3256684    -0.1585328   -0.5485488    -0.1536816   -0.5168117    -0.7631401    0.4005002 
   5.653505535    -0.8055246    0.3344482    -0.1631355   -0.5552516    -0.1548567   -0.5239175    -0.7635379    0.4049604 
   5.661070111    -0.8038504    0.3430986    -0.1665938   -0.5604883    -0.1562691   -0.5300205    -0.7649570    0.4092558 
   5.668634686    -0.8009866    0.3511939    -0.1700975   -0.5665050    -0.1580037   -0.5360598    -0.7668409    0.4130650 
   5.676199262    -0.7972100    0.3596253    -0.1744244   -0.5718349    -0.1611433   -0.5414448    -0.7689955    0.4170836 
   5.683763838    -0.7921693    0.3686952    -0.1790355   -0.5778713    -0.1649228   -0.5475753    -0.7705446    0.4222255 
   5.691328413    -0.7873235    0.3773153    -0.1817203   -0.5845555    -0.1692274   -0.5547996    -0.7715257    0.4262168 
   5.698892989    -0.7820956    0.3839754    -0.1861220   -0.5910708    -0.1741026   -0.5616331    -0.7729295    0.4305983 
   5.706457565    -0.7758812    0.3893501    -0.1898846   -0.5975038    -0.1790807   -0.5700037    -0.7726131    0.4361183 
   5.714022140    -0.7681835    0.3936856    -0.1947768   -0.6043101    -0.1844934   -0.5770896    -0.7707595    0.4407737 
   5.721586716    -0.7592663    0.3959334    -0.2013438   -0.6108302    -0.1888921   -0.5848932    -0.7692877    0.4467500 
   5.729151292    -0.7492040    0.3972999    -0.2068693   -0.6175826    -0.1970188   -0.5913520    -0.7654074    0.4510472 
   5.736715867    -0.7399638    0.3980063    -0.2152688   -0.6254601    -0.2037789   -0.5990407    -0.7588120    0.4560134 
   5.744280443    -0.7303171    0.3969875    -0.2235993   -0.6331932    -0.2126180   -0.6077895    -0.7496762    0.4606563 
   5.751845018    -0.7215428    0.3966696    -0.2342154   -0.6410223    -0.2210943   -0.6165937    -0.7390395    0.4659823 
   5.759409594    -0.7127488    0.3952371    -0.2453824   -0.6463867    -0.2295677   -0.6250221    -0.7272202    0.4681965 
   5.766974170    -0.7042930    0.3935904    -0.2562024   -0.6504157    -0.2385170   -0.6324474    -0.7140192    0.4690211 
   5.774538745    -0.6950927    0.3933173    -0.2693894   -0.6522476    -0.2490949   -0.6383711    -0.7003099    0.4683352 
   5.782103321    -0.6870529    0.3933190    -0.2817885   -0.6527084    -0.2619705   -0.6426965    -0.6862523    0.4684134 
   5.789667897    -0.6785585    0.3934864    -0.2956866   -0.6520070    -0.2735781   -0.6458889    -0.6728994    0.4672122 
   5.797232472    -0.6696947    0.3951770    -0.3074881   -0.6504025    -0.2858706   -0.6478826    -0.6598679    0.4666440 
   5.804797048    -0.6618463    0.3966965    -0.3192431   -0.6475449    -0.2956081   -0.6489258    -0.6489411    0.4673530 
   5.812361624    -0.6525273    0.3977208    -0.3271674   -0.6437540    -0.3050626   -0.6480393    -0.6376276    0.4673979 
   5.819926199    -0.6432518    0.3978638    -0.3367293   -0.6377335    -0.3123861   -0.6467714    -0.6269854    0.4685157 
   5.827490775    -0.6336086    0.3974580    -0.3434979   -0.6323463    -0.3186087   -0.6443489    -0.6185429    0.4695074 
   5.835055351    -0.6230177    0.3960055    -0.3503767   -0.6267685    -0.3246226   -0.6418205    -0.6084989    0.4699878 
   5.842619926    -0.6151501    0.3930587    -0.3555083   -0.6224566    -0.3297136   -0.6405590    -0.6006657    0.4709232 
   5.850184502    -0.6083400    0.3909793    -0.3629825   -0.6182364    -0.3351863   -0.6407387    -0.5958372    0.4701128 
   5.857749077    -0.6027781    0.3883431    -0.3685430   -0.6156436    -0.3403748   -0.6419602    -0.5936608    0.4696128 
   5.865313653    -0.5979562    0.3858200    -0.3739377   -0.6127984    -0.3460141   -0.6428539    -0.5917811    0.4673053 
   5.872878229    -0.5928666    0.3825994    -0.3816873   -0.6083502    -0.3516551   -0.6444593    -0.5921197    0.4615945 
   5.880442804    -0.5864838    0.3800824    -0.3869632   -0.6056775    -0.3657059   -0.6410859    -0.5933758    0.4567179 
   5.888007380    -0.5810530    0.3745225    -0.3964213   -0.5997918    -0.3747151   -0.6378099    -0.5969080    0.4484387 
   5.895571956    -0.5766219    0.3696340    -0.4031965   -0.5947734    -0.3824110   -0.6335958    -0.6009794    0.4423249 
   5.903136531    -0.5741692    0.3635198    -0.4096181   -0.5894422    -0.3929471   -0.6258140    -0.6051823    0.4360546 
   5.910701107    -0.5734960    0.3591051    -0.4160141   -0.5827496    -0.4009825   -0.6167217    -0.6081069    0.4283880 
   5.918265683    -0.5747489    0.3547720    -0.4205275   -0.5754207    -0.4070683   -0.6074511    -0.6095609    0.4213869 
   5.925830258    -0.5771480    0.3523229    -0.4266846   -0.5655983    -0.4106322   -0.5985885    -0.6097519    0.4143978 
   5.933394834    -0.5779830    0.3504675    -0.4272699   -0.5582547    -0.4175443   -0.5855437    -0.6065058    0.4090972 
   5.940959410    -0.5802121    0.3500133    -0.4312201   -0.5480970    -0.4187425   -0.5764841    -0.6020998    0.4025039 
   5.948523985    -0.5817416    0.3497153    -0.4308718   -0.5398788    -0.4207518   -0.5669644    -0.5949801    0.3966448 
   5.956088561    -0.5835569    0.3495280    -0.4296129   -0.5316702    -0.4222122   -0.5584422    -0.5884663    0.3913653 
   5.963653137    -0.5859600    0.3507314    -0.4266886   -0.5246981    -0.4247037   -0.5492774    -0.5801546    0.3888177 
   5.971217712    -0.5879601    0.3528970    -0.4238583   -0.5184882    -0.4260312   -0.5414013    -0.5720345    0.3875319 
   5.978782288    -0.5903217    0.3535873    -0.4200810   -0.5132005    -0.4259052   -0.5344273    -0.5651500    0.3862906 
   5.986346863    -0.5919840    0.3542168    -0.4176099   -0.5086941    -0.4258778   -0.5280471    -0.5602285    0.3869739 
   5.993911439    -0.5933203    0.3541343    -0.4145006   -0.5053937    -0.4267676   -0.5218118    -0.5572175    0.3884535 
   6.001476015    -0.5944412    0.3526957    -0.4119114   -0.5031219    -0.4272034   -0.5156482    -0.5557774    0.3908662 
   6.009040590    -0.5963401    0.3515847    -0.4097814   -0.5012546    -0.4290783   -0.5101947    -0.5540633    0.3934680 
   6.016605166    -0.5989311    0.3476211    -0.4072671   -0.5002646    -0.4294280   -0.5051959    -0.5550386    0.3962656 
   6.024169742    -0.6015756    0.3446764    -0.4056688   -0.4983422    -0.4300945   -0.5001182    -0.5550013    0.3986859 
   6.031734317    -0.6056475    0.3400303    -0.4035939   -0.4972592    -0.4295569   -0.4959029    -0.5566648    0.3993986 
   6.039298893    -0.6087400    0.3360500    -0.4027405   -0.4955525    -0.4281524   -0.4914031    -0.5595047    0.3986855 
   6.046863469    -0.6139563    0.3309797    -0.4009847   -0.4939827    -0.4254506   -0.4890174    -0.5627961    0.3943789 
   6.054428044    -0.6177526    0.3284945    -0.3995513   -0.4930355    -0.4258602   -0.4840506    -0.5680351    0.3888870 
   6.061992620    -0.6215791    0.3261087    -0.3994074   -0.4901920    -0.4232000   -0.4828188    -0.5726413    0.3822632 
   6.069557196    -0.6256360    0.3254453    -0.3986719   -0.4900467    -0.4214790   -0.4820531    -0.5759752    0.3751589 
   6.077121771    -0.6292284    0.3261666    -0.3965187   -0.4880589    -0.4193672   -0.4809498    -0.5784300    0.3686191 
   6.084686347    -0.6313357    0.3277298    -0.3949263   -0.4873039    -0.4166543   -0.4810132    -0.5817853    0.3625461 
   6.092250923    -0.6339139    0.3318384    -0.3920512   -0.4849473    -0.4135324   -0.4808464    -0.5836076    0.3581554 
   6.099815498    -0.6353169    0.3364604    -0.3893510   -0.4839901    -0.4094477   -0.4806357    -0.5846488    0.3555894 
   6.107380074    -0.6369634    0.3425750    -0.3857275   -0.4833325    -0.4062495   -0.4803764    -0.5846775    0.3551977 
   6.114944649    -0.6380300    0.3496485    -0.3826531   -0.4829255    -0.4024043   -0.4815924    -0.5840268    0.3582075 
   6.122509225    -0.6391082    0.3562112    -0.3785204   -0.4839867    -0.3977800   -0.4835512    -0.5830591    0.3631571 
   6.130073801    -0.6390431    0.3640507    -0.3745836   -0.4857968    -0.3938200   -0.4850571    -0.5813885    0.3705214 
