! MS46122B
! 1919307/90821646
! 7/29/2022 1:47:20 PM
! C:\USERS\PC_\DESKTOP\MEDICIONES\BANCHA ESTRECHA\6_65_GHZ\S11_S21_ABS15_502CL.S2P
! CHANNEL.1
! TR.MEASUREMENT
! CORRECTED.DATA
# GHZ S RI R 50.0
! FREQ.GHZ         S11RE         S11IM         S21RE         S21IM         S12RE         S12IM         S22RE         S22IM         
!; PortSelection: Port_12
   6.000000000    -0.5367666    0.2369032    -0.4150205   -0.6225873    -0.4050005   -0.6210845    -0.5115772    0.2341532 
   6.002500000    -0.5360088    0.2386753    -0.4141086   -0.6225258    -0.4051313   -0.6195636    -0.5119388    0.2339879 
   6.005000000    -0.5373693    0.2389337    -0.4144509   -0.6210248    -0.4058694   -0.6180095    -0.5119170    0.2337521 
   6.007500000    -0.5387505    0.2384714    -0.4143385   -0.6188977    -0.4069290   -0.6164987    -0.5119956    0.2334131 
   6.010000000    -0.5400890    0.2383770    -0.4154000   -0.6169534    -0.4075161   -0.6149043    -0.5118600    0.2332323 
   6.012500000    -0.5417629    0.2371911    -0.4155194   -0.6156356    -0.4079783   -0.6130155    -0.5118788    0.2336168 
   6.015000000    -0.5432798    0.2359038    -0.4155036   -0.6140229    -0.4084916   -0.6111729    -0.5121503    0.2334886 
   6.017500000    -0.5449513    0.2353017    -0.4158262   -0.6128843    -0.4091175   -0.6092663    -0.5127304    0.2337315 
   6.020000000    -0.5464961    0.2347003    -0.4154387   -0.6112738    -0.4089828   -0.6074817    -0.5127978    0.2332389 
   6.022500000    -0.5479929    0.2342785    -0.4160552   -0.6092738    -0.4093238   -0.6061259    -0.5131519    0.2341529 
   6.025000000    -0.5495839    0.2343823    -0.4158698   -0.6073855    -0.4096848   -0.6041391    -0.5136791    0.2332553 
   6.027500000    -0.5514114    0.2338611    -0.4158848   -0.6057799    -0.4091751   -0.6023775    -0.5136505    0.2333755 
   6.030000000    -0.5532388    0.2329911    -0.4154290   -0.6039069    -0.4088418   -0.6004927    -0.5134759    0.2331699 
   6.032500000    -0.5549586    0.2326525    -0.4152852   -0.6027870    -0.4085430   -0.5992382    -0.5138570    0.2326646 
   6.035000000    -0.5563852    0.2323145    -0.4147048   -0.6016083    -0.4081564   -0.5972342    -0.5147373    0.2326500 
   6.037500000    -0.5578629    0.2320756    -0.4156135   -0.5994165    -0.4072169   -0.5954413    -0.5155674    0.2323232 
   6.040000000    -0.5591785    0.2324540    -0.4147163   -0.5977306    -0.4063862   -0.5940028    -0.5165979    0.2318730 
   6.042500000    -0.5607682    0.2322719    -0.4131946   -0.5964689    -0.4060225   -0.5924962    -0.5170357    0.2312594 
   6.045000000    -0.5615450    0.2322283    -0.4126395   -0.5951157    -0.4057522   -0.5892805    -0.5182697    0.2300129 
   6.047500000    -0.5635247    0.2319874    -0.4117075   -0.5939750    -0.4052305   -0.5884424    -0.5190318    0.2291348 
   6.050000000    -0.5648271    0.2319322    -0.4120068   -0.5919478    -0.4034781   -0.5871230    -0.5201358    0.2283900 
   6.052500000    -0.5662859    0.2322312    -0.4114318   -0.5905705    -0.4026677   -0.5856617    -0.5215332    0.2272899 
   6.055000000    -0.5672029    0.2326207    -0.4118378   -0.5894107    -0.4016551   -0.5842856    -0.5229604    0.2261375 
   6.057500000    -0.5680332    0.2336215    -0.4109164   -0.5881772    -0.4011586   -0.5826237    -0.5242381    0.2256563 
   6.060000000    -0.5692419    0.2341230    -0.4100129   -0.5869290    -0.4009342   -0.5816558    -0.5249523    0.2248182 
   6.062500000    -0.5701039    0.2344920    -0.4094251   -0.5858555    -0.3997943   -0.5805245    -0.5261613    0.2235581 
   6.065000000    -0.5705993    0.2350973    -0.4086225   -0.5850648    -0.3984244   -0.5799189    -0.5271060    0.2226306 
   6.067500000    -0.5710676    0.2354658    -0.4088302   -0.5844475    -0.3976160   -0.5796354    -0.5286430    0.2225977 
   6.070000000    -0.5714828    0.2363749    -0.4079743   -0.5836274    -0.3967188   -0.5788127    -0.5298507    0.2218840 
   6.072500000    -0.5717194    0.2382047    -0.4073452   -0.5830578    -0.3955494   -0.5778745    -0.5305926    0.2211258 
   6.075000000    -0.5719628    0.2389868    -0.4061193   -0.5819718    -0.3948900   -0.5771049    -0.5312456    0.2205876 
   6.077500000    -0.5723761    0.2399628    -0.4046776   -0.5817147    -0.3944148   -0.5766854    -0.5325508    0.2203803 
   6.080000000    -0.5722107    0.2413336    -0.4042997   -0.5808095    -0.3931600   -0.5763424    -0.5338330    0.2196556 
   6.082500000    -0.5721817    0.2422388    -0.4041233   -0.5803554    -0.3920272   -0.5760521    -0.5351284    0.2198551 
   6.085000000    -0.5718868    0.2431347    -0.4028771   -0.5802888    -0.3905747   -0.5760238    -0.5366293    0.2200726 
   6.087500000    -0.5713088    0.2454055    -0.4019552   -0.5798252    -0.3899844   -0.5761549    -0.5369636    0.2204995 
   6.090000000    -0.5708789    0.2466491    -0.4011391   -0.5792920    -0.3885513   -0.5757786    -0.5383438    0.2206093 
   6.092500000    -0.5704714    0.2481486    -0.3995904   -0.5790129    -0.3876975   -0.5748548    -0.5393974    0.2209112 
   6.095000000    -0.5701208    0.2496868    -0.3989744   -0.5780935    -0.3868370   -0.5747645    -0.5406807    0.2213483 
   6.097500000    -0.5693095    0.2511047    -0.3990184   -0.5777476    -0.3853880   -0.5746695    -0.5419718    0.2216208 
   6.100000000    -0.5685633    0.2527223    -0.3978599   -0.5777764    -0.3842293   -0.5743946    -0.5435349    0.2231051 
   6.102500000    -0.5676128    0.2550497    -0.3968418   -0.5778673    -0.3836048   -0.5746013    -0.5438767    0.2243341 
   6.105000000    -0.5669712    0.2568789    -0.3965086   -0.5778205    -0.3827816   -0.5748516    -0.5450172    0.2254952 
   6.107500000    -0.5661960    0.2587072    -0.3954085   -0.5773599    -0.3820196   -0.5744978    -0.5458792    0.2263433 
   6.110000000    -0.5649130    0.2609558    -0.3940987   -0.5777445    -0.3822871   -0.5735534    -0.5467107    0.2283345 
   6.112500000    -0.5648888    0.2620317    -0.3960454   -0.5767665    -0.3800780   -0.5754419    -0.5478163    0.2295249 
   6.115000000    -0.5642443    0.2641639    -0.3944095   -0.5770896    -0.3803092   -0.5753080    -0.5490423    0.2315334 
   6.117500000    -0.5633834    0.2660637    -0.3933056   -0.5772925    -0.3802272   -0.5752054    -0.5495085    0.2336347 
   6.120000000    -0.5628549    0.2673627    -0.3930092   -0.5773507    -0.3787561   -0.5759569    -0.5506545    0.2352627 
   6.122500000    -0.5622854    0.2690931    -0.3915113   -0.5779429    -0.3785758   -0.5758555    -0.5515559    0.2371953 
   6.125000000    -0.5615798    0.2709687    -0.3917214   -0.5781127    -0.3778684   -0.5765094    -0.5525545    0.2389693 
   6.127500000    -0.5606737    0.2732116    -0.3912700   -0.5782366    -0.3773106   -0.5769261    -0.5531710    0.2413319 
   6.130000000    -0.5601424    0.2752302    -0.3911403   -0.5790239    -0.3766731   -0.5772943    -0.5538056    0.2442331 
   6.132500000    -0.5600343    0.2766229    -0.3905961   -0.5794131    -0.3764167   -0.5779969    -0.5548961    0.2456490 
   6.135000000    -0.5597479    0.2778949    -0.3890677   -0.5794472    -0.3757171   -0.5784899    -0.5557529    0.2477169 
   6.137500000    -0.5596837    0.2790782    -0.3891309   -0.5795007    -0.3747683   -0.5787924    -0.5565459    0.2498370 
   6.140000000    -0.5594513    0.2803112    -0.3887186   -0.5796568    -0.3743621   -0.5789149    -0.5571001    0.2520723 
   6.142500000    -0.5589722    0.2825426    -0.3883488   -0.5802536    -0.3733283   -0.5794079    -0.5577287    0.2542445 
   6.145000000    -0.5589392    0.2834019    -0.3873457   -0.5807783    -0.3726873   -0.5795985    -0.5579832    0.2568889 
   6.147500000    -0.5588545    0.2847648    -0.3867624   -0.5807819    -0.3723274   -0.5804104    -0.5587475    0.2586326 
   6.150000000    -0.5588851    0.2859558    -0.3863839   -0.5810576    -0.3716807   -0.5803365    -0.5596868    0.2600330 
   6.152500000    -0.5590314    0.2873043    -0.3868021   -0.5810050    -0.3716889   -0.5803128    -0.5599010    0.2619783 
   6.155000000    -0.5588408    0.2886694    -0.3866680   -0.5813049    -0.3712578   -0.5808370    -0.5602507    0.2638965 
   6.157500000    -0.5587345    0.2903931    -0.3858799   -0.5813622    -0.3706355   -0.5808944    -0.5603818    0.2659567 
   6.160000000    -0.5589518    0.2916693    -0.3857722   -0.5816157    -0.3701819   -0.5813144    -0.5608487    0.2680537 
   6.162500000    -0.5590652    0.2925510    -0.3847419   -0.5821054    -0.3700990   -0.5820951    -0.5613363    0.2692133 
   6.165000000    -0.5594403    0.2938190    -0.3852634   -0.5824415    -0.3698441   -0.5824229    -0.5620010    0.2705322 
   6.167500000    -0.5597620    0.2947891    -0.3851485   -0.5825139    -0.3693464   -0.5828958    -0.5618726    0.2713892 
   6.170000000    -0.5599153    0.2965165    -0.3848317   -0.5829502    -0.3690922   -0.5835128    -0.5615205    0.2724064 
   6.172500000    -0.5600522    0.2979583    -0.3846771   -0.5837222    -0.3687841   -0.5843297    -0.5617231    0.2745393 
   6.175000000    -0.5603234    0.2993218    -0.3839209   -0.5840900    -0.3683548   -0.5851086    -0.5618209    0.2757345 
   6.177500000    -0.5606423    0.3005013    -0.3836926   -0.5845855    -0.3685921   -0.5857095    -0.5623961    0.2767766 
   6.180000000    -0.5607938    0.3017245    -0.3839990   -0.5846457    -0.3680823   -0.5865161    -0.5620669    0.2774190 
   6.182500000    -0.5608201    0.3028491    -0.3834404   -0.5852154    -0.3675064   -0.5878469    -0.5622349    0.2779495 
   6.185000000    -0.5608391    0.3043279    -0.3823541   -0.5858148    -0.3667068   -0.5882508    -0.5621170    0.2783282 
   6.187500000    -0.5606744    0.3060345    -0.3822007   -0.5862106    -0.3663708   -0.5889966    -0.5616004    0.2796701 
   6.190000000    -0.5605973    0.3070749    -0.3815128   -0.5869997    -0.3661572   -0.5897081    -0.5614527    0.2800586 
   6.192500000    -0.5601813    0.3085596    -0.3805347   -0.5871131    -0.3656013   -0.5903782    -0.5615073    0.2801087 
   6.195000000    -0.5598003    0.3094643    -0.3810535   -0.5876940    -0.3649898   -0.5912588    -0.5609502    0.2803524 
   6.197500000    -0.5589880    0.3104199    -0.3796917   -0.5886415    -0.3641848   -0.5926557    -0.5607117    0.2798755 
   6.200000000    -0.5585610    0.3117456    -0.3790919   -0.5891997    -0.3635611   -0.5936416    -0.5604680    0.2802956 
   6.202500000    -0.5582377    0.3129171    -0.3782774   -0.5902247    -0.3627228   -0.5944331    -0.5597954    0.2806278 
   6.205000000    -0.5575030    0.3139502    -0.3777248   -0.5911071    -0.3621312   -0.5954469    -0.5594552    0.2806583 
   6.207500000    -0.5560048    0.3156738    -0.3774644   -0.5924707    -0.3624207   -0.5966160    -0.5590549    0.2811176 
   6.210000000    -0.5548147    0.3171036    -0.3776434   -0.5929268    -0.3621622   -0.5981406    -0.5585564    0.2811770 
   6.212500000    -0.5541992    0.3187948    -0.3772147   -0.5943837    -0.3616139   -0.5993238    -0.5580919    0.2815841 
   6.215000000    -0.5544339    0.3204846    -0.3765605   -0.5959936    -0.3615224   -0.6008132    -0.5579662    0.2820737 
   6.217500000    -0.5541230    0.3224580    -0.3764713   -0.5972167    -0.3609891   -0.6024930    -0.5571714    0.2829313 
   6.220000000    -0.5513530    0.3242601    -0.3756232   -0.5990552    -0.3608123   -0.6040929    -0.5573053    0.2835409 
   6.222500000    -0.5482301    0.3269528    -0.3751578   -0.6007232    -0.3609790   -0.6057136    -0.5575562    0.2842737 
   6.225000000    -0.5477188    0.3293051    -0.3759078   -0.6025363    -0.3611626   -0.6074650    -0.5573674    0.2851255 
   6.227500000    -0.5473647    0.3297504    -0.3753778   -0.6039807    -0.3610874   -0.6093100    -0.5566665    0.2859531 
   6.230000000    -0.5464239    0.3308078    -0.3753568   -0.6061994    -0.3613385   -0.6118985    -0.5579692    0.2877361 
   6.232500000    -0.5452945    0.3339161    -0.3748479   -0.6078368    -0.3616644   -0.6137347    -0.5571783    0.2894701 
   6.235000000    -0.5437782    0.3366027    -0.3752064   -0.6098177    -0.3617056   -0.6157209    -0.5576072    0.2906167 
   6.237500000    -0.5420926    0.3386739    -0.3746231   -0.6118134    -0.3623374   -0.6179637    -0.5580605    0.2922703 
   6.240000000    -0.5410298    0.3413032    -0.3762523   -0.6134679    -0.3628988   -0.6201463    -0.5578613    0.2940815 
   6.242500000    -0.5399203    0.3433164    -0.3764726   -0.6155946    -0.3641479   -0.6218691    -0.5573293    0.2964425 
   6.245000000    -0.5385341    0.3457150    -0.3770078   -0.6170901    -0.3648011   -0.6240078    -0.5569329    0.2996694 
   6.247500000    -0.5368286    0.3491191    -0.3776433   -0.6184359    -0.3656833   -0.6259721    -0.5569984    0.3023880 
   6.250000000    -0.5354248    0.3513392    -0.3780865   -0.6203462    -0.3663298   -0.6278514    -0.5568581    0.3048451 
   6.252500000    -0.5336326    0.3535976    -0.3791974   -0.6219839    -0.3674670   -0.6302557    -0.5569161    0.3070778 
   6.255000000    -0.5326077    0.3560377    -0.3807118   -0.6236965    -0.3686329   -0.6324003    -0.5566739    0.3098583 
   6.257500000    -0.5308682    0.3580141    -0.3816561   -0.6257780    -0.3699805   -0.6337110    -0.5567759    0.3125314 
   6.260000000    -0.5289956    0.3603023    -0.3830775   -0.6277354    -0.3711834   -0.6350772    -0.5564668    0.3148361 
   6.262500000    -0.5276034    0.3627684    -0.3840728   -0.6291052    -0.3720878   -0.6368289    -0.5553837    0.3184961 
   6.265000000    -0.5258946    0.3648181    -0.3848698   -0.6300835    -0.3737572   -0.6383300    -0.5547479    0.3210459 
   6.267500000    -0.5237956    0.3666774    -0.3866774   -0.6316172    -0.3751500   -0.6400021    -0.5541731    0.3240433 
   6.270000000    -0.5221364    0.3681042    -0.3892078   -0.6332123    -0.3767849   -0.6412529    -0.5537462    0.3267373 
   6.272500000    -0.5198315    0.3695321    -0.3900694   -0.6350114    -0.3786623   -0.6420497    -0.5528450    0.3291653 
   6.275000000    -0.5177934    0.3705153    -0.3913540   -0.6365721    -0.3800942   -0.6430809    -0.5516598    0.3316110 
   6.277500000    -0.5158035    0.3715099    -0.3926322   -0.6378428    -0.3816938   -0.6443536    -0.5504793    0.3346205 
   6.280000000    -0.5143509    0.3730213    -0.3947058   -0.6387419    -0.3836061   -0.6459315    -0.5495477    0.3369550 
   6.282500000    -0.5122818    0.3742407    -0.3964953   -0.6401539    -0.3853185   -0.6470612    -0.5486023    0.3387965 
   6.285000000    -0.5099550    0.3756863    -0.3982274   -0.6415358    -0.3871246   -0.6479762    -0.5472215    0.3407672 
   6.287500000    -0.5080725    0.3762260    -0.3995818   -0.6425778    -0.3890033   -0.6487900    -0.5458040    0.3421772 
   6.290000000    -0.5061576    0.3766386    -0.4007647   -0.6435017    -0.3907613   -0.6499813    -0.5442958    0.3437509 
   6.292500000    -0.5043929    0.3774418    -0.4025187   -0.6445345    -0.3922305   -0.6513476    -0.5426643    0.3462111 
   6.295000000    -0.5026985    0.3775371    -0.4045142   -0.6461559    -0.3934133   -0.6527079    -0.5415146    0.3484359 
   6.297500000    -0.5007740    0.3774997    -0.4055602   -0.6469957    -0.3954617   -0.6537406    -0.5401796    0.3499465 
   6.300000000    -0.4986198    0.3778119    -0.4067013   -0.6474342    -0.3967113   -0.6549678    -0.5382707    0.3514559 
   6.302500000    -0.4965183    0.3777085    -0.4082920   -0.6476086    -0.3980824   -0.6557287    -0.5360928    0.3529201 
   6.305000000    -0.4947326    0.3782714    -0.4101064   -0.6486286    -0.3996358   -0.6571137    -0.5338848    0.3545190 
   6.307500000    -0.4927837    0.3780948    -0.4119931   -0.6496445    -0.4012641   -0.6582288    -0.5319974    0.3561307 
   6.310000000    -0.4908258    0.3773658    -0.4136170   -0.6505349    -0.4028509   -0.6594475    -0.5301092    0.3568790 
   6.312500000    -0.4890922    0.3773066    -0.4153522   -0.6522345    -0.4045753   -0.6602790    -0.5281423    0.3576094 
   6.315000000    -0.4871168    0.3773141    -0.4164439   -0.6522772    -0.4062390   -0.6616384    -0.5263333    0.3582652 
   6.317500000    -0.4850310    0.3763361    -0.4170506   -0.6536539    -0.4087972   -0.6619373    -0.5239140    0.3587541 
   6.320000000    -0.4835404    0.3757697    -0.4214682   -0.6530407    -0.4078973   -0.6646674    -0.5217941    0.3594177 
   6.322500000    -0.4812177    0.3754086    -0.4223278   -0.6545800    -0.4114844   -0.6649119    -0.5190020    0.3601575 
   6.325000000    -0.4792062    0.3749647    -0.4240314   -0.6554893    -0.4135709   -0.6657671    -0.5166945    0.3605173 
   6.327500000    -0.4770293    0.3744594    -0.4259988   -0.6567377    -0.4155003   -0.6663640    -0.5142182    0.3604608 
   6.330000000    -0.4747636    0.3743021    -0.4279806   -0.6576248    -0.4174066   -0.6677018    -0.5108011    0.3617239 
   6.332500000    -0.4728095    0.3738118    -0.4292527   -0.6582422    -0.4192822   -0.6685058    -0.5080295    0.3620950 
   6.335000000    -0.4702996    0.3730574    -0.4316750   -0.6589669    -0.4212968   -0.6690580    -0.5051228    0.3620628 
   6.337500000    -0.4679016    0.3725438    -0.4336283   -0.6593637    -0.4237891   -0.6704947    -0.5016255    0.3620089 
   6.340000000    -0.4653276    0.3724585    -0.4351708   -0.6604572    -0.4258099   -0.6709704    -0.4989184    0.3618717 
   6.342500000    -0.4627702    0.3723032    -0.4372699   -0.6608012    -0.4284388   -0.6709889    -0.4957024    0.3620633 
   6.345000000    -0.4595765    0.3732705    -0.4396142   -0.6617879    -0.4308680   -0.6719489    -0.4922870    0.3628927 
   6.347500000    -0.4569693    0.3733238    -0.4412631   -0.6624945    -0.4327140   -0.6729383    -0.4894080    0.3627971 
   6.350000000    -0.4540544    0.3731309    -0.4429759   -0.6628028    -0.4346180   -0.6734911    -0.4870808    0.3624418 
   6.352500000    -0.4512179    0.3732213    -0.4451497   -0.6628360    -0.4364999   -0.6737717    -0.4841588    0.3626400 
   6.355000000    -0.4481940    0.3736549    -0.4470828   -0.6632606    -0.4389412   -0.6741863    -0.4813297    0.3624953 
   6.357500000    -0.4449554    0.3739490    -0.4483053   -0.6637248    -0.4412483   -0.6744595    -0.4780110    0.3627572 
   6.360000000    -0.4415546    0.3753528    -0.4503999   -0.6639583    -0.4438429   -0.6744306    -0.4745170    0.3632817 
   6.362500000    -0.4385809    0.3758885    -0.4521299   -0.6641259    -0.4462348   -0.6747790    -0.4713221    0.3636772 
   6.365000000    -0.4355285    0.3761118    -0.4542681   -0.6641517    -0.4481811   -0.6753995    -0.4687888    0.3638988 
   6.367500000    -0.4331763    0.3767560    -0.4567499   -0.6635261    -0.4498404   -0.6754944    -0.4661662    0.3637219 
   6.370000000    -0.4300109    0.3774315    -0.4581654   -0.6635696    -0.4524097   -0.6755788    -0.4635456    0.3636777 
   6.372500000    -0.4267185    0.3778634    -0.4603884   -0.6636090    -0.4546469   -0.6756406    -0.4610496    0.3632947 
   6.375000000    -0.4230070    0.3786759    -0.4617846   -0.6639323    -0.4564451   -0.6750366    -0.4580976    0.3638667 
   6.377500000    -0.4198302    0.3791852    -0.4631193   -0.6639317    -0.4583784   -0.6744320    -0.4555890    0.3637761 
   6.380000000    -0.4170935    0.3800144    -0.4659808   -0.6636398    -0.4606797   -0.6744542    -0.4534459    0.3637460 
   6.382500000    -0.4142281    0.3804893    -0.4687742   -0.6636257    -0.4623780   -0.6746944    -0.4515746    0.3636089 
   6.385000000    -0.4113032    0.3808246    -0.4703654   -0.6635799    -0.4649203   -0.6744646    -0.4493318    0.3632315 
   6.387500000    -0.4081780    0.3808408    -0.4726559   -0.6640107    -0.4668584   -0.6742666    -0.4473149    0.3632228 
   6.390000000    -0.4053235    0.3810682    -0.4747950   -0.6631801    -0.4685239   -0.6744849    -0.4453963    0.3627780 
