! MS46122B
! 1919307/90821646
! 7/29/2022 1:56:53 PM
! C:\USERS\PC_\DESKTOP\MEDICIONES\BANCHA ESTRECHA\6_65_GHZ\S11_S21_ABS8_1002CL.S2P
! CHANNEL.1
! TR.MEASUREMENT
! CORRECTED.DATA
# GHZ S RI R 50.0
! FREQ.GHZ         S11RE         S11IM         S21RE         S21IM         S12RE         S12IM         S22RE         S22IM         
!; PortSelection: Port_12
   6.000000000    -0.6490209    0.2725541    -0.3341846   -0.5720866    -0.3249573   -0.5697272    -0.6144720    0.2589160 
   6.002500000    -0.6486091    0.2737345    -0.3327441   -0.5718114    -0.3252617   -0.5682603    -0.6151901    0.2588158 
   6.005000000    -0.6497951    0.2736802    -0.3329666   -0.5703310    -0.3259085   -0.5663571    -0.6147977    0.2581410 
   6.007500000    -0.6508567    0.2730055    -0.3325641   -0.5688756    -0.3266403   -0.5648842    -0.6145614    0.2577524 
   6.010000000    -0.6521735    0.2724397    -0.3338572   -0.5670388    -0.3269562   -0.5636775    -0.6145580    0.2578167 
   6.012500000    -0.6532951    0.2713378    -0.3337490   -0.5657390    -0.3275731   -0.5619881    -0.6142790    0.2577123 
   6.015000000    -0.6549534    0.2701919    -0.3334327   -0.5640464    -0.3280553   -0.5602251    -0.6133924    0.2576141 
   6.017500000    -0.6564411    0.2691189    -0.3337656   -0.5629717    -0.3283628   -0.5583646    -0.6136590    0.2576911 
   6.020000000    -0.6576036    0.2684069    -0.3333205   -0.5614340    -0.3282092   -0.5567029    -0.6138297    0.2575743 
   6.022500000    -0.6583751    0.2677877    -0.3333192   -0.5593835    -0.3283117   -0.5553253    -0.6137447    0.2578763 
   6.025000000    -0.6601959    0.2677231    -0.3336565   -0.5578055    -0.3281298   -0.5533533    -0.6138165    0.2571910 
   6.027500000    -0.6617204    0.2669130    -0.3333961   -0.5559578    -0.3279105   -0.5513029    -0.6137437    0.2571306 
   6.030000000    -0.6632168    0.2659822    -0.3327738   -0.5544917    -0.3277853   -0.5497684    -0.6137115    0.2568710 
   6.032500000    -0.6650454    0.2650449    -0.3323493   -0.5532946    -0.3271880   -0.5489028    -0.6136165    0.2570232 
   6.035000000    -0.6661237    0.2644524    -0.3318315   -0.5520689    -0.3265542   -0.5470597    -0.6141150    0.2562467 
   6.037500000    -0.6674535    0.2637794    -0.3318779   -0.5500198    -0.3257650   -0.5448416    -0.6145321    0.2560812 
   6.040000000    -0.6687976    0.2637511    -0.3316662   -0.5482891    -0.3248650   -0.5433288    -0.6152641    0.2552463 
   6.042500000    -0.6699427    0.2636459    -0.3302017   -0.5471727    -0.3242396   -0.5417168    -0.6157182    0.2546854 
   6.045000000    -0.6706115    0.2627276    -0.3288625   -0.5455154    -0.3239843   -0.5389629    -0.6164597    0.2531403 
   6.047500000    -0.6724831    0.2622493    -0.3277613   -0.5443037    -0.3233311   -0.5380487    -0.6172220    0.2522089 
   6.050000000    -0.6736858    0.2620555    -0.3284535   -0.5428430    -0.3215265   -0.5368217    -0.6179203    0.2513148 
   6.052500000    -0.6751856    0.2619064    -0.3277173   -0.5415871    -0.3205313   -0.5354131    -0.6193498    0.2501709 
   6.055000000    -0.6760199    0.2617863    -0.3278951   -0.5402943    -0.3196056   -0.5338853    -0.6202629    0.2486373 
   6.057500000    -0.6766593    0.2627629    -0.3270546   -0.5390648    -0.3186525   -0.5325836    -0.6216403    0.2478521 
   6.060000000    -0.6779140    0.2628454    -0.3259209   -0.5379410    -0.3185446   -0.5313659    -0.6226622    0.2472626 
   6.062500000    -0.6786039    0.2629234    -0.3253077   -0.5367478    -0.3173765   -0.5300729    -0.6231933    0.2457968 
   6.065000000    -0.6794267    0.2628210    -0.3245016   -0.5355387    -0.3158601   -0.5294103    -0.6242014    0.2452046 
   6.067500000    -0.6797616    0.2628616    -0.3235461   -0.5350370    -0.3148692   -0.5288286    -0.6253996    0.2439862 
   6.070000000    -0.6801475    0.2632326    -0.3230148   -0.5342680    -0.3139873   -0.5281390    -0.6262761    0.2437501 
   6.072500000    -0.6799947    0.2644516    -0.3225152   -0.5338100    -0.3127045   -0.5271415    -0.6273099    0.2422193 
   6.075000000    -0.6805936    0.2652925    -0.3213805   -0.5328501    -0.3117149   -0.5264925    -0.6281052    0.2418605 
   6.077500000    -0.6811981    0.2657661    -0.3198293   -0.5322994    -0.3110277   -0.5259398    -0.6289086    0.2416026 
   6.080000000    -0.6814219    0.2665871    -0.3193024   -0.5312217    -0.3097035   -0.5254114    -0.6302724    0.2411363 
   6.082500000    -0.6812373    0.2672094    -0.3181100   -0.5307950    -0.3084154   -0.5250521    -0.6315237    0.2408732 
   6.085000000    -0.6809596    0.2678113    -0.3175914   -0.5308450    -0.3071971   -0.5249133    -0.6329030    0.2409290 
   6.087500000    -0.6801775    0.2692670    -0.3167499   -0.5304370    -0.3059400   -0.5247262    -0.6343408    0.2407849 
   6.090000000    -0.6799735    0.2708256    -0.3155814   -0.5299392    -0.3048020   -0.5241385    -0.6352947    0.2409286 
   6.092500000    -0.6798747    0.2719302    -0.3140341   -0.5294397    -0.3037564   -0.5235505    -0.6359997    0.2412697 
   6.095000000    -0.6799431    0.2730340    -0.3129845   -0.5287814    -0.3025644   -0.5233427    -0.6373623    0.2415304 
   6.097500000    -0.6790291    0.2741583    -0.3123634   -0.5278962    -0.3011097   -0.5235328    -0.6392287    0.2420620 
   6.100000000    -0.6784955    0.2753507    -0.3119713   -0.5280551    -0.2997915   -0.5231612    -0.6405860    0.2427893 
   6.102500000    -0.6775124    0.2768124    -0.3106368   -0.5281916    -0.2985584   -0.5229370    -0.6419766    0.2435191 
   6.105000000    -0.6772338    0.2790451    -0.3099787   -0.5279940    -0.2978873   -0.5228274    -0.6430321    0.2449676 
   6.107500000    -0.6767087    0.2806873    -0.3087861   -0.5275239    -0.2971404   -0.5226484    -0.6435381    0.2456798 
   6.110000000    -0.6756493    0.2823106    -0.3073525   -0.5277525    -0.2966525   -0.5217336    -0.6451260    0.2475893 
   6.112500000    -0.6759356    0.2830296    -0.3087399   -0.5268579    -0.2947016   -0.5235825    -0.6464208    0.2491530 
   6.115000000    -0.6754587    0.2851339    -0.3072482   -0.5270434    -0.2943385   -0.5230921    -0.6476322    0.2506318 
   6.117500000    -0.6750168    0.2864099    -0.3058565   -0.5270025    -0.2936543   -0.5228251    -0.6489211    0.2525041 
   6.120000000    -0.6744742    0.2876854    -0.3053004   -0.5272075    -0.2924965   -0.5233283    -0.6497537    0.2541987 
   6.122500000    -0.6742197    0.2889943    -0.3039519   -0.5275511    -0.2920367   -0.5234039    -0.6510301    0.2559091 
   6.125000000    -0.6737171    0.2904291    -0.3030990   -0.5276682    -0.2911346   -0.5242568    -0.6525186    0.2575652 
   6.127500000    -0.6730278    0.2920472    -0.3032799   -0.5276713    -0.2905743   -0.5245041    -0.6539480    0.2603314 
   6.130000000    -0.6731681    0.2939136    -0.3024443   -0.5280641    -0.2894310   -0.5249560    -0.6552087    0.2624135 
   6.132500000    -0.6727684    0.2953193    -0.3014781   -0.5281585    -0.2884017   -0.5249060    -0.6563219    0.2639723 
   6.135000000    -0.6728930    0.2961809    -0.3002577   -0.5285885    -0.2876373   -0.5253940    -0.6569210    0.2661745 
   6.137500000    -0.6730183    0.2969359    -0.2993017   -0.5287280    -0.2867737   -0.5256758    -0.6581108    0.2682153 
   6.140000000    -0.6728343    0.2977471    -0.2991536   -0.5287439    -0.2860954   -0.5260889    -0.6594160    0.2708718 
   6.142500000    -0.6724076    0.2994322    -0.2984121   -0.5289243    -0.2849235   -0.5264772    -0.6605688    0.2728425 
   6.145000000    -0.6727220    0.3005542    -0.2970234   -0.5292623    -0.2839144   -0.5263747    -0.6616262    0.2745849 
   6.147500000    -0.6729689    0.3016470    -0.2964109   -0.5296261    -0.2829388   -0.5266259    -0.6624413    0.2768554 
   6.150000000    -0.6732991    0.3025427    -0.2958176   -0.5299000    -0.2822543   -0.5268539    -0.6630625    0.2781973 
   6.152500000    -0.6736168    0.3033846    -0.2949266   -0.5299764    -0.2819223   -0.5268878    -0.6638036    0.2801564 
   6.155000000    -0.6732529    0.3044551    -0.2955107   -0.5299106    -0.2811525   -0.5272839    -0.6649310    0.2826202 
   6.157500000    -0.6736523    0.3056707    -0.2944408   -0.5299203    -0.2803901   -0.5272602    -0.6661373    0.2846234 
   6.160000000    -0.6744255    0.3070363    -0.2939148   -0.5300610    -0.2797675   -0.5275325    -0.6668533    0.2859020 
   6.162500000    -0.6748123    0.3077103    -0.2928357   -0.5304925    -0.2789202   -0.5280185    -0.6667491    0.2876534 
   6.165000000    -0.6756350    0.3085113    -0.2922988   -0.5307667    -0.2787138   -0.5285220    -0.6679892    0.2887576 
   6.167500000    -0.6760283    0.3091509    -0.2926141   -0.5308280    -0.2778567   -0.5287461    -0.6684517    0.2896899 
   6.170000000    -0.6764833    0.3105458    -0.2920311   -0.5309395    -0.2772678   -0.5292863    -0.6690320    0.2909907 
   6.172500000    -0.6770101    0.3117471    -0.2912752   -0.5316857    -0.2765226   -0.5302389    -0.6702309    0.2929280 
   6.175000000    -0.6781207    0.3129726    -0.2903594   -0.5320061    -0.2756625   -0.5307762    -0.6703464    0.2941839 
   6.177500000    -0.6790184    0.3138450    -0.2898876   -0.5324993    -0.2754112   -0.5315037    -0.6709689    0.2953742 
   6.180000000    -0.6796096    0.3147910    -0.2893220   -0.5323836    -0.2748619   -0.5320221    -0.6714544    0.2957355 
   6.182500000    -0.6799453    0.3154535    -0.2890578   -0.5328637    -0.2738437   -0.5330682    -0.6721488    0.2961365 
   6.185000000    -0.6802468    0.3163618    -0.2877588   -0.5334836    -0.2728950   -0.5333830    -0.6729481    0.2970613 
   6.187500000    -0.6808510    0.3180673    -0.2871116   -0.5337474    -0.2722435   -0.5341908    -0.6734661    0.2974561 
   6.190000000    -0.6813824    0.3189147    -0.2859542   -0.5345575    -0.2713887   -0.5351106    -0.6729198    0.2985300 
   6.192500000    -0.6816086    0.3198557    -0.2847075   -0.5344209    -0.2708380   -0.5356923    -0.6735889    0.2983136 
   6.195000000    -0.6819379    0.3203959    -0.2841931   -0.5348745    -0.2698707   -0.5362891    -0.6736768    0.2984780 
   6.197500000    -0.6815258    0.3210042    -0.2833825   -0.5356978    -0.2686657   -0.5372130    -0.6738302    0.2977705 
   6.200000000    -0.6816148    0.3218932    -0.2824247   -0.5363432    -0.2676263   -0.5382677    -0.6745217    0.2981938 
   6.202500000    -0.6821840    0.3227811    -0.2812162   -0.5372310    -0.2665231   -0.5392203    -0.6749841    0.2979381 
   6.205000000    -0.6818156    0.3240985    -0.2805031   -0.5379315    -0.2656611   -0.5400880    -0.6744503    0.2985491 
   6.207500000    -0.6809973    0.3255394    -0.2797409   -0.5388549    -0.2648450   -0.5411182    -0.6746390    0.2986691 
   6.210000000    -0.6801409    0.3262854    -0.2786931   -0.5392705    -0.2647363   -0.5424496    -0.6750599    0.2986744 
   6.212500000    -0.6802939    0.3278249    -0.2787244   -0.5406688    -0.2638702   -0.5434321    -0.6751065    0.2989163 
   6.215000000    -0.6821389    0.3293842    -0.2773888   -0.5422630    -0.2630284   -0.5449001    -0.6763900    0.2995507 
   6.217500000    -0.6824212    0.3304824    -0.2767280   -0.5434657    -0.2620457   -0.5463992    -0.6766667    0.2998081 
   6.220000000    -0.6801597    0.3323160    -0.2754617   -0.5448679    -0.2614281   -0.5478019    -0.6760889    0.3007230 
   6.222500000    -0.6773468    0.3350489    -0.2745264   -0.5464038    -0.2606318   -0.5491850    -0.6769324    0.3011732 
   6.225000000    -0.6778204    0.3372836    -0.2740157   -0.5481666    -0.2604227   -0.5507818    -0.6777415    0.3020294 
   6.227500000    -0.6784778    0.3373709    -0.2739747   -0.5495077    -0.2601543   -0.5525805    -0.6784665    0.3026606 
   6.230000000    -0.6788198    0.3382176    -0.2733996   -0.5515323    -0.2596857   -0.5544916    -0.6801752    0.3046898 
   6.232500000    -0.6790472    0.3409559    -0.2721146   -0.5532454    -0.2592823   -0.5562527    -0.6811583    0.3055263 
   6.235000000    -0.6778346    0.3441395    -0.2719332   -0.5549270    -0.2588459   -0.5581483    -0.6821364    0.3070163 
   6.237500000    -0.6769652    0.3463407    -0.2709404   -0.5567186    -0.2585335   -0.5602325    -0.6829491    0.3085981 
   6.240000000    -0.6767771    0.3487355    -0.2706634   -0.5589151    -0.2579395   -0.5623138    -0.6835623    0.3103815 
   6.242500000    -0.6765395    0.3506098    -0.2712534   -0.5604028    -0.2589820   -0.5640688    -0.6845240    0.3131187 
   6.245000000    -0.6761320    0.3530532    -0.2715969   -0.5621094    -0.2588291   -0.5660957    -0.6853980    0.3162486 
   6.247500000    -0.6750124    0.3561204    -0.2713041   -0.5634478    -0.2589436   -0.5680860    -0.6867383    0.3191414 
   6.250000000    -0.6743779    0.3586527    -0.2710534   -0.5652968    -0.2592108   -0.5701110    -0.6877390    0.3209755 
   6.252500000    -0.6734710    0.3612356    -0.2717027   -0.5669823    -0.2591151   -0.5722122    -0.6881850    0.3237714 
   6.255000000    -0.6732484    0.3638425    -0.2713593   -0.5691152    -0.2593300   -0.5742532    -0.6888955    0.3266578 
   6.257500000    -0.6724038    0.3659315    -0.2728430   -0.5707875    -0.2601168   -0.5762029    -0.6904633    0.3297716 
   6.260000000    -0.6715993    0.3679749    -0.2732636   -0.5723965    -0.2607954   -0.5776768    -0.6912780    0.3325048 
   6.262500000    -0.6710269    0.3706947    -0.2735620   -0.5738722    -0.2612494   -0.5798414    -0.6916959    0.3358656 
   6.265000000    -0.6701735    0.3729992    -0.2740526   -0.5754741    -0.2618609   -0.5816645    -0.6916807    0.3389362 
   6.267500000    -0.6689702    0.3750240    -0.2744253   -0.5771302    -0.2621668   -0.5832655    -0.6917735    0.3423938 
   6.270000000    -0.6680062    0.3766497    -0.2765058   -0.5783670    -0.2633721   -0.5849892    -0.6925521    0.3451795 
   6.272500000    -0.6668691    0.3780894    -0.2766716   -0.5802103    -0.2647054   -0.5863541    -0.6924261    0.3477474 
   6.275000000    -0.6656244    0.3792419    -0.2772770   -0.5819461    -0.2655067   -0.5878167    -0.6921690    0.3504719 
   6.277500000    -0.6642958    0.3811898    -0.2782783   -0.5832230    -0.2662792   -0.5890771    -0.6915399    0.3537706 
   6.280000000    -0.6634290    0.3824203    -0.2788509   -0.5849548    -0.2670913   -0.5910051    -0.6914837    0.3564167 
   6.282500000    -0.6622854    0.3840303    -0.2805654   -0.5861140    -0.2687670   -0.5927356    -0.6915300    0.3587276 
   6.285000000    -0.6610604    0.3854139    -0.2814076   -0.5877949    -0.2700185   -0.5936158    -0.6908596    0.3612557 
   6.287500000    -0.6599499    0.3863464    -0.2822557   -0.5889797    -0.2714316   -0.5948319    -0.6907126    0.3631761 
   6.290000000    -0.6586417    0.3875038    -0.2830383   -0.5903211    -0.2722394   -0.5963449    -0.6896062    0.3649911 
   6.292500000    -0.6576687    0.3885668    -0.2836091   -0.5921367    -0.2728959   -0.5981831    -0.6891562    0.3678789 
   6.295000000    -0.6566482    0.3888824    -0.2853172   -0.5932822    -0.2740971   -0.5999043    -0.6887592    0.3704403 
   6.297500000    -0.6556165    0.3892458    -0.2857614   -0.5943353    -0.2749978   -0.6013401    -0.6885076    0.3724236 
   6.300000000    -0.6544170    0.3897260    -0.2863380   -0.5952712    -0.2763786   -0.6025823    -0.6872279    0.3745421 
   6.302500000    -0.6530196    0.3903643    -0.2875601   -0.5965094    -0.2770751   -0.6036850    -0.6858417    0.3764279 
   6.305000000    -0.6520690    0.3911941    -0.2880827   -0.5977348    -0.2778189   -0.6052758    -0.6849353    0.3787057 
   6.307500000    -0.6506370    0.3916379    -0.2901847   -0.5989689    -0.2789602   -0.6067913    -0.6836179    0.3805151 
   6.310000000    -0.6495730    0.3912960    -0.2911318   -0.6001751    -0.2801234   -0.6084675    -0.6826454    0.3817907 
   6.312500000    -0.6487288    0.3914147    -0.2916678   -0.6013564    -0.2813244   -0.6095117    -0.6815616    0.3829808 
   6.315000000    -0.6477274    0.3914960    -0.2928028   -0.6025331    -0.2824048   -0.6110147    -0.6805509    0.3840280 
   6.317500000    -0.6462317    0.3912132    -0.2926712   -0.6039698    -0.2841819   -0.6114400    -0.6793849    0.3850591 
   6.320000000    -0.6455498    0.3908806    -0.2962079   -0.6040230    -0.2828361   -0.6138272    -0.6782171    0.3861167 
   6.322500000    -0.6440611    0.3912666    -0.2966332   -0.6058862    -0.2855312   -0.6147812    -0.6766924    0.3873932 
   6.325000000    -0.6428573    0.3910443    -0.2978170   -0.6069746    -0.2869616   -0.6157929    -0.6751655    0.3881399 
   6.327500000    -0.6416155    0.3908552    -0.2986788   -0.6085658    -0.2883450   -0.6168296    -0.6734475    0.3884830 
   6.330000000    -0.6403759    0.3909073    -0.3001125   -0.6098998    -0.2896026   -0.6183809    -0.6717946    0.3901877 
   6.332500000    -0.6390646    0.3911618    -0.3011179   -0.6108513    -0.2910205   -0.6195914    -0.6689147    0.3915695 
   6.335000000    -0.6379303    0.3913331    -0.3018581   -0.6122658    -0.2924257   -0.6206969    -0.6669245    0.3922099 
   6.337500000    -0.6362393    0.3910891    -0.3041131   -0.6127789    -0.2936871   -0.6223357    -0.6645105    0.3923962 
   6.340000000    -0.6345729    0.3914640    -0.3053736   -0.6141433    -0.2948748   -0.6231067    -0.6625485    0.3927617 
   6.342500000    -0.6324271    0.3918566    -0.3066591   -0.6151651    -0.2973689   -0.6239572    -0.6601944    0.3935229 
   6.345000000    -0.6300920    0.3929267    -0.3081344   -0.6166175    -0.2990720   -0.6253985    -0.6581715    0.3950967 
   6.347500000    -0.6279180    0.3941741    -0.3095480   -0.6174825    -0.2997515   -0.6268371    -0.6557063    0.3955434 
   6.350000000    -0.6264512    0.3948095    -0.3102661   -0.6183091    -0.3016152   -0.6275839    -0.6532202    0.3960396 
   6.352500000    -0.6243495    0.3956188    -0.3116014   -0.6188157    -0.3031120   -0.6283955    -0.6512343    0.3965673 
   6.355000000    -0.6221070    0.3962412    -0.3136536   -0.6198629    -0.3046410   -0.6298847    -0.6491712    0.3970658 
   6.357500000    -0.6193989    0.3972005    -0.3145117   -0.6206074    -0.3058918   -0.6304839    -0.6463054    0.3980641 
   6.360000000    -0.6163938    0.3984848    -0.3156302   -0.6215136    -0.3080038   -0.6312775    -0.6440373    0.3993181 
   6.362500000    -0.6142979    0.4001773    -0.3170064   -0.6221867    -0.3102167   -0.6319388    -0.6417679    0.4003680 
   6.365000000    -0.6118145    0.4016329    -0.3183432   -0.6227456    -0.3114668   -0.6330495    -0.6392735    0.4016190 
   6.367500000    -0.6099923    0.4030009    -0.3194673   -0.6230459    -0.3128780   -0.6338499    -0.6368684    0.4020003 
   6.370000000    -0.6076240    0.4044445    -0.3217789   -0.6231605    -0.3145174   -0.6343391    -0.6349469    0.4025993 
   6.372500000    -0.6048360    0.4058535    -0.3230203   -0.6234654    -0.3162288   -0.6350253    -0.6329039    0.4032292 
   6.375000000    -0.6022428    0.4071502    -0.3238512   -0.6239871    -0.3178126   -0.6355326    -0.6309713    0.4041982 
   6.377500000    -0.5998736    0.4084468    -0.3253979   -0.6248860    -0.3197212   -0.6360624    -0.6290314    0.4050775 
   6.380000000    -0.5975074    0.4105456    -0.3267497   -0.6255034    -0.3214667   -0.6367645    -0.6265680    0.4060439 
   6.382500000    -0.5951260    0.4117123    -0.3286391   -0.6259750    -0.3226230   -0.6373641    -0.6249596    0.4066146 
   6.385000000    -0.5928230    0.4130071    -0.3305344   -0.6259973    -0.3242945   -0.6379443    -0.6231516    0.4069949 
   6.387500000    -0.5904208    0.4141855    -0.3314669   -0.6271909    -0.3263837   -0.6382904    -0.6210540    0.4076635 
   6.390000000    -0.5882971    0.4152595    -0.3334227   -0.6272683    -0.3277026   -0.6392812    -0.6193917    0.4078286 
