! MS46122B
! 1919307/90821646
! 7/29/2022 12:43:25 PM
! C:\USERS\PC_\DESKTOP\MEDICIONES\BANCHA ESTRECHA\55_6GHZ\S11_S21_ABS8_502CL.S2P
! CHANNEL.1
! TR.MEASUREMENT
! CORRECTED.DATA
# GHZ S RI R 50.0
! FREQ.GHZ         S11RE         S11IM         S21RE         S21IM         S12RE         S12IM         S22RE         S22IM         
!; PortSelection: Port_12
   5.500000000    -0.7796852    0.0301510    -0.0589001   -0.6237668    -0.0529858   -0.6236842    -0.7149073   -0.0655068 
   5.502500000    -0.7783139    0.0316917    -0.0593205   -0.6246764    -0.0520011   -0.6223648    -0.7159639   -0.0650021 
   5.505000000    -0.7788090    0.0329917    -0.0577578   -0.6241574    -0.0504167   -0.6206702    -0.7169290   -0.0636085 
   5.507500000    -0.7792125    0.0343553    -0.0561181   -0.6231408    -0.0489751   -0.6198115    -0.7186068   -0.0622552 
   5.510000000    -0.7795125    0.0358296    -0.0544904   -0.6224184    -0.0473595   -0.6187819    -0.7199922   -0.0609486 
   5.512500000    -0.7801731    0.0371878    -0.0530195   -0.6217793    -0.0463730   -0.6179766    -0.7216282   -0.0595433 
   5.515000000    -0.7809690    0.0384065    -0.0519324   -0.6209879    -0.0449649   -0.6169471    -0.7238763   -0.0564414 
   5.517500000    -0.7814083    0.0403745    -0.0512626   -0.6205462    -0.0435516   -0.6161975    -0.7259185   -0.0545171 
   5.520000000    -0.7818756    0.0419630    -0.0495169   -0.6196220    -0.0422852   -0.6157947    -0.7279371   -0.0519870 
   5.522500000    -0.7816703    0.0436432    -0.0477677   -0.6196327    -0.0400789   -0.6157183    -0.7299328   -0.0499540 
   5.525000000    -0.7820467    0.0457569    -0.0467031   -0.6191008    -0.0398479   -0.6151301    -0.7319248   -0.0465992 
   5.527500000    -0.7820596    0.0473879    -0.0458116   -0.6187256    -0.0367090   -0.6148610    -0.7334436   -0.0442413 
   5.530000000    -0.7823001    0.0493725    -0.0444229   -0.6180661    -0.0363983   -0.6148576    -0.7354243   -0.0407708 
   5.532500000    -0.7824122    0.0515628    -0.0433380   -0.6181999    -0.0348586   -0.6142392    -0.7372918   -0.0380383 
   5.535000000    -0.7823505    0.0527764    -0.0417837   -0.6176653    -0.0333566   -0.6143371    -0.7388663   -0.0343688 
   5.537500000    -0.7824141    0.0548974    -0.0400837   -0.6173535    -0.0315875   -0.6141465    -0.7407592   -0.0315536 
   5.540000000    -0.7824851    0.0568432    -0.0385600   -0.6173680    -0.0293793   -0.6138933    -0.7426656   -0.0280486 
   5.542500000    -0.7823867    0.0587309    -0.0368755   -0.6171947    -0.0278715   -0.6137943    -0.7442116   -0.0250359 
   5.545000000    -0.7820001    0.0598827    -0.0364789   -0.6170640    -0.0262711   -0.6139327    -0.7460029   -0.0219787 
   5.547500000    -0.7813622    0.0614895    -0.0349478   -0.6168869    -0.0246250   -0.6139336    -0.7472485   -0.0192423 
   5.550000000    -0.7807061    0.0631529    -0.0334348   -0.6167421    -0.0231044   -0.6136873    -0.7481748   -0.0161110 
   5.552500000    -0.7810060    0.0639927    -0.0320687   -0.6167161    -0.0214640   -0.6138077    -0.7490364   -0.0124540 
   5.555000000    -0.7817365    0.0656335    -0.0300633   -0.6163651    -0.0197238   -0.6137035    -0.7496223   -0.0097646 
   5.557500000    -0.7817947    0.0667153    -0.0290900   -0.6164084    -0.0181522   -0.6140085    -0.7504125   -0.0063475 
   5.560000000    -0.7805310    0.0680550    -0.0280023   -0.6158593    -0.0166665   -0.6141552    -0.7512332   -0.0035425 
   5.562500000    -0.7785764    0.0694133    -0.0266393   -0.6157471    -0.0154080   -0.6139371    -0.7527950   -0.0001638 
   5.565000000    -0.7788397    0.0712391    -0.0257946   -0.6155859    -0.0137099   -0.6142883    -0.7535725    0.0025115 
   5.567500000    -0.7793402    0.0706663    -0.0243500   -0.6157197    -0.0120986   -0.6142542    -0.7541043    0.0052732 
   5.570000000    -0.7786232    0.0703777    -0.0233459   -0.6159188    -0.0106641   -0.6146668    -0.7546514    0.0083379 
   5.572500000    -0.7780866    0.0719143    -0.0219090   -0.6158085    -0.0095006   -0.6150099    -0.7557112    0.0110927 
   5.575000000    -0.7783173    0.0732600    -0.0204887   -0.6161005    -0.0081771   -0.6151004    -0.7558325    0.0134758 
   5.577500000    -0.7783274    0.0742980    -0.0193472   -0.6162676    -0.0071693   -0.6157854    -0.7568762    0.0159461 
   5.580000000    -0.7780443    0.0750676    -0.0182490   -0.6169083    -0.0059321   -0.6160408    -0.7573743    0.0182728 
   5.582500000    -0.7773607    0.0756542    -0.0167931   -0.6170720    -0.0048821   -0.6169698    -0.7576115    0.0204066 
   5.585000000    -0.7770101    0.0767410    -0.0162177   -0.6179568    -0.0031893   -0.6175390    -0.7581341    0.0224796 
   5.587500000    -0.7768688    0.0774897    -0.0145051   -0.6183414    -0.0020003   -0.6182679    -0.7583154    0.0237488 
   5.590000000    -0.7766100    0.0780697    -0.0123806   -0.6188356    -0.0009083   -0.6189116    -0.7587705    0.0262926 
   5.592500000    -0.7762513    0.0789144    -0.0114249   -0.6193393     0.0008666   -0.6194866    -0.7584745    0.0283101 
   5.595000000    -0.7760072    0.0795762    -0.0092576   -0.6197689     0.0027242   -0.6200901    -0.7583537    0.0299588 
   5.597500000    -0.7757552    0.0810540    -0.0076284   -0.6203426     0.0036744   -0.6207884    -0.7585140    0.0316578 
   5.600000000    -0.7756532    0.0813210    -0.0068303   -0.6207979     0.0058407   -0.6217372    -0.7578579    0.0327252 
   5.602500000    -0.7754174    0.0821350    -0.0050513   -0.6213791     0.0068003   -0.6219797    -0.7576520    0.0340682 
   5.605000000    -0.7746139    0.0827449    -0.0029987   -0.6219103     0.0085006   -0.6227419    -0.7579013    0.0357237 
   5.607500000    -0.7740636    0.0839128    -0.0017689   -0.6225001     0.0098214   -0.6235882    -0.7580892    0.0367411 
   5.610000000    -0.7739372    0.0852695     0.0000876   -0.6231490     0.0113525   -0.6241438    -0.7574242    0.0385608 
   5.612500000    -0.7734401    0.0860622     0.0008610   -0.6240458     0.0129236   -0.6249078    -0.7576465    0.0394062 
   5.615000000    -0.7732083    0.0870509     0.0019894   -0.6251906     0.0141466   -0.6261665    -0.7577207    0.0403248 
   5.617500000    -0.7724846    0.0884988     0.0037830   -0.6259171     0.0150303   -0.6265604    -0.7572880    0.0415757 
   5.620000000    -0.7714933    0.0898761     0.0045770   -0.6265904     0.0161810   -0.6274523    -0.7567375    0.0439051 
   5.622500000    -0.7711024    0.0919317     0.0055270   -0.6277140     0.0182957   -0.6281934    -0.7558743    0.0457229 
   5.625000000    -0.7703309    0.0935354     0.0083605   -0.6288285     0.0181252   -0.6293420    -0.7555084    0.0473532 
   5.627500000    -0.7692952    0.0948729     0.0082823   -0.6301907     0.0200468   -0.6301666    -0.7548699    0.0482921 
   5.630000000    -0.7685954    0.0964849     0.0098070   -0.6317012     0.0212582   -0.6312414    -0.7549540    0.0504821 
   5.632500000    -0.7677004    0.0985438     0.0109129   -0.6329550     0.0219141   -0.6328169    -0.7542162    0.0525911 
   5.635000000    -0.7667440    0.1009242     0.0125604   -0.6342899     0.0235488   -0.6341584    -0.7540736    0.0544366 
   5.637500000    -0.7658763    0.1032751     0.0134895   -0.6359711     0.0242624   -0.6358616    -0.7539910    0.0562843 
   5.640000000    -0.7653618    0.1055992     0.0153246   -0.6375956     0.0257358   -0.6371067    -0.7537373    0.0581210 
   5.642500000    -0.7645323    0.1074183     0.0155321   -0.6392634     0.0269565   -0.6387178    -0.7542687    0.0606438 
   5.645000000    -0.7634034    0.1095915     0.0171754   -0.6408014     0.0276015   -0.6404223    -0.7542037    0.0623839 
   5.647500000    -0.7627854    0.1122767     0.0184231   -0.6426796     0.0285092   -0.6423900    -0.7537243    0.0648422 
   5.650000000    -0.7616081    0.1151077     0.0195360   -0.6442086     0.0296806   -0.6443357    -0.7530157    0.0674812 
   5.652500000    -0.7607527    0.1178122     0.0208895   -0.6460354     0.0308894   -0.6464679    -0.7529653    0.0701865 
   5.655000000    -0.7598054    0.1197331     0.0215929   -0.6477560     0.0319965   -0.6482241    -0.7536294    0.0722886 
   5.657500000    -0.7587296    0.1216823     0.0224011   -0.6499245     0.0335190   -0.6500501    -0.7539064    0.0748002 
   5.660000000    -0.7572874    0.1234716     0.0236086   -0.6514485     0.0342587   -0.6525147    -0.7539192    0.0772095 
   5.662500000    -0.7563937    0.1261925     0.0247197   -0.6530457     0.0343360   -0.6540207    -0.7541395    0.0802271 
   5.665000000    -0.7549728    0.1279495     0.0256389   -0.6547813     0.0357039   -0.6560696    -0.7545687    0.0817816 
   5.667500000    -0.7533298    0.1298075     0.0262567   -0.6568283     0.0368012   -0.6579351    -0.7551703    0.0843379 
   5.670000000    -0.7518991    0.1313557     0.0268308   -0.6591663     0.0382536   -0.6601027    -0.7553382    0.0863520 
   5.672500000    -0.7505960    0.1332504     0.0275046   -0.6609803     0.0389129   -0.6619766    -0.7555189    0.0884783 
   5.675000000    -0.7485109    0.1350261     0.0276441   -0.6634265     0.0388706   -0.6644214    -0.7555441    0.0912153 
   5.677500000    -0.7471141    0.1369522     0.0276819   -0.6651704     0.0390331   -0.6660971    -0.7556102    0.0938638 
   5.680000000    -0.7456626    0.1390522     0.0282938   -0.6674827     0.0390257   -0.6683581    -0.7555539    0.0959687 
   5.682500000    -0.7438250    0.1407987     0.0283817   -0.6698642     0.0389774   -0.6706792    -0.7555797    0.0986214 
   5.685000000    -0.7416622    0.1433644     0.0273382   -0.6722172     0.0396315   -0.6729552    -0.7561676    0.1001879 
   5.687500000    -0.7399399    0.1449673     0.0278856   -0.6746258     0.0395841   -0.6756557    -0.7559911    0.1021237 
   5.690000000    -0.7383141    0.1467752     0.0279540   -0.6770710     0.0393032   -0.6778353    -0.7546005    0.1044288 
   5.692500000    -0.7363014    0.1479890     0.0283665   -0.6793258     0.0383295   -0.6801637    -0.7544194    0.1067923 
   5.695000000    -0.7346753    0.1496420     0.0287023   -0.6817470     0.0382221   -0.6825596    -0.7538642    0.1080592 
   5.697500000    -0.7331247    0.1503695     0.0288822   -0.6839224     0.0381114   -0.6853427    -0.7532780    0.1093201 
   5.700000000    -0.7315018    0.1509310     0.0277915   -0.6864679     0.0377562   -0.6879099    -0.7523421    0.1113908 
   5.702500000    -0.7296730    0.1515738     0.0280091   -0.6886940     0.0374420   -0.6907256    -0.7516735    0.1128669 
   5.705000000    -0.7276863    0.1524096     0.0276032   -0.6907536     0.0367647   -0.6934165    -0.7502425    0.1151228 
   5.707500000    -0.7253935    0.1528385     0.0271725   -0.6929241     0.0359254   -0.6959290    -0.7486712    0.1161372 
   5.710000000    -0.7234004    0.1534240     0.0275396   -0.6945103     0.0353352   -0.6977805    -0.7467603    0.1177478 
   5.712500000    -0.7220710    0.1539095     0.0268388   -0.6965628     0.0353119   -0.7000495    -0.7449678    0.1190263 
   5.715000000    -0.7196885    0.1546783     0.0261407   -0.6983687     0.0346209   -0.7021102    -0.7432981    0.1208544 
   5.717500000    -0.7176349    0.1550076     0.0256545   -0.7008672     0.0337524   -0.7045135    -0.7412217    0.1222775 
   5.720000000    -0.7153977    0.1550714     0.0247037   -0.7027104     0.0346140   -0.7066309    -0.7393116    0.1233213 
   5.722500000    -0.7129508    0.1551156     0.0255095   -0.7041176     0.0320846   -0.7082361    -0.7376906    0.1242756 
   5.725000000    -0.7104534    0.1547014     0.0244039   -0.7055360     0.0322053   -0.7097096    -0.7356789    0.1252761 
   5.727500000    -0.7080640    0.1549813     0.0235919   -0.7076616     0.0310261   -0.7110419    -0.7329420    0.1263587 
   5.730000000    -0.7061865    0.1551556     0.0219447   -0.7092152     0.0306318   -0.7130238    -0.7305217    0.1267108 
   5.732500000    -0.7036625    0.1550300     0.0215835   -0.7112104     0.0296567   -0.7148017    -0.7277166    0.1274555 
   5.735000000    -0.7015197    0.1550953     0.0206749   -0.7132903     0.0282381   -0.7166523    -0.7250296    0.1279281 
   5.737500000    -0.6992451    0.1548486     0.0201677   -0.7149756     0.0275483   -0.7184353    -0.7217400    0.1283363 
   5.740000000    -0.6971658    0.1551674     0.0194122   -0.7177382     0.0266350   -0.7202367    -0.7188690    0.1286387 
   5.742500000    -0.6952918    0.1553566     0.0181896   -0.7193429     0.0257237   -0.7220749    -0.7154095    0.1287375 
   5.745000000    -0.6930673    0.1551081     0.0182903   -0.7215670     0.0240820   -0.7240537    -0.7116752    0.1287714 
   5.747500000    -0.6909567    0.1552591     0.0172581   -0.7235113     0.0229491   -0.7258570    -0.7088574    0.1295712 
   5.750000000    -0.6886579    0.1557497     0.0169440   -0.7255520     0.0221283   -0.7279585    -0.7057925    0.1301935 
   5.752500000    -0.6868756    0.1561592     0.0156054   -0.7284454     0.0211550   -0.7299496    -0.7023546    0.1297045 
   5.755000000    -0.6845265    0.1558850     0.0148986   -0.7297586     0.0200128   -0.7319288    -0.6987604    0.1295828 
   5.757500000    -0.6821491    0.1555530     0.0139608   -0.7319990     0.0206138   -0.7337729    -0.6953924    0.1292492 
   5.760000000    -0.6797582    0.1556307     0.0140191   -0.7339886     0.0192379   -0.7362454    -0.6925895    0.1298470 
   5.762500000    -0.6777555    0.1561570     0.0137956   -0.7361896     0.0189103   -0.7386028    -0.6897545    0.1289859 
   5.765000000    -0.6755551    0.1566265     0.0125836   -0.7389763     0.0179915   -0.7404453    -0.6864893    0.1284739 
   5.767500000    -0.6728004    0.1567673     0.0107349   -0.7404545     0.0174780   -0.7425461    -0.6835244    0.1276311 
   5.770000000    -0.6707619    0.1572584     0.0109543   -0.7424847     0.0156285   -0.7446741    -0.6806916    0.1266462 
   5.772500000    -0.6683908    0.1573896     0.0081647   -0.7445203     0.0169865   -0.7462363    -0.6778914    0.1267214 
   5.775000000    -0.6656862    0.1584912     0.0075217   -0.7464324     0.0147593   -0.7484792    -0.6751186    0.1261421 
   5.777500000    -0.6630062    0.1593901     0.0065204   -0.7483754     0.0126365   -0.7508340    -0.6727949    0.1257173 
   5.780000000    -0.6608753    0.1600744     0.0037044   -0.7506174     0.0107282   -0.7528818    -0.6709100    0.1254051 
   5.782500000    -0.6586971    0.1607518     0.0017352   -0.7526419     0.0087798   -0.7548050    -0.6688301    0.1245065 
   5.785000000    -0.6563546    0.1615074    -0.0002942   -0.7550680     0.0073479   -0.7567819    -0.6667027    0.1233525 
   5.787500000    -0.6537684    0.1622600    -0.0019516   -0.7573522     0.0047173   -0.7591599    -0.6654645    0.1228943 
   5.790000000    -0.6515200    0.1631251    -0.0040780   -0.7592367     0.0028278   -0.7614445    -0.6632692    0.1215120 
   5.792500000    -0.6481438    0.1638120    -0.0075457   -0.7611464    -0.0001000   -0.7637237    -0.6608437    0.1209612 
   5.795000000    -0.6450918    0.1656169    -0.0098723   -0.7632029    -0.0025165   -0.7656950    -0.6583552    0.1200321 
   5.797500000    -0.6420937    0.1667299    -0.0123951   -0.7657295    -0.0050150   -0.7674726    -0.6558368    0.1188415 
   5.800000000    -0.6386380    0.1672928    -0.0153107   -0.7675136    -0.0086427   -0.7699013    -0.6542810    0.1179005 
   5.802500000    -0.6356710    0.1681206    -0.0176385   -0.7695936    -0.0109225   -0.7713324    -0.6524825    0.1167188 
   5.805000000    -0.6324443    0.1687364    -0.0204449   -0.7707191    -0.0137409   -0.7729232    -0.6505923    0.1151101 
   5.807500000    -0.6285498    0.1691262    -0.0237522   -0.7718928    -0.0176742   -0.7740147    -0.6480216    0.1125682 
   5.810000000    -0.6243045    0.1695257    -0.0278810   -0.7724486    -0.0204583   -0.7745044    -0.6460186    0.1112789 
   5.812500000    -0.6194388    0.1701103    -0.0303522   -0.7735400    -0.0233905   -0.7749679    -0.6436451    0.1086021 
   5.815000000    -0.6147175    0.1691318    -0.0334547   -0.7732531    -0.0272478   -0.7748891    -0.6406991    0.1070620 
   5.817500000    -0.6100108    0.1672157    -0.0366473   -0.7723582    -0.0304536   -0.7745987    -0.6385870    0.1043577 
   5.820000000    -0.6051968    0.1646266    -0.0383646   -0.7708670    -0.0327459   -0.7731612    -0.6367279    0.1018287 
   5.822500000    -0.6015595    0.1614343    -0.0397006   -0.7692349    -0.0356819   -0.7707644    -0.6356452    0.0993709 
   5.825000000    -0.5996706    0.1576287    -0.0424633   -0.7676083    -0.0331160   -0.7688395    -0.6353585    0.0957374 
   5.827500000    -0.5987416    0.1542933    -0.0413949   -0.7665527    -0.0356095   -0.7672749    -0.6356604    0.0938603 
   5.830000000    -0.5982955    0.1518907    -0.0410168   -0.7661985    -0.0349425   -0.7670111    -0.6342377    0.0929529 
   5.832500000    -0.5982916    0.1507135    -0.0414442   -0.7669861    -0.0357848   -0.7677903    -0.6327717    0.0919811 
   5.835000000    -0.5973642    0.1506594    -0.0423667   -0.7675646    -0.0372206   -0.7688624    -0.6308736    0.0910194 
   5.837500000    -0.5964684    0.1505684    -0.0435638   -0.7698259    -0.0376619   -0.7695944    -0.6285600    0.0898499 
   5.840000000    -0.5950350    0.1508794    -0.0448571   -0.7709338    -0.0389522   -0.7705356    -0.6262994    0.0890569 
   5.842500000    -0.5931211    0.1509705    -0.0462730   -0.7717240    -0.0409577   -0.7709759    -0.6238551    0.0878606 
   5.845000000    -0.5910427    0.1506296    -0.0492182   -0.7726834    -0.0442065   -0.7724315    -0.6217876    0.0860808 
   5.847500000    -0.5888116    0.1496888    -0.0504353   -0.7738009    -0.0447307   -0.7734070    -0.6190392    0.0838481 
   5.850000000    -0.5866902    0.1487714    -0.0533148   -0.7754549    -0.0475064   -0.7741712    -0.6170624    0.0813711 
   5.852500000    -0.5844555    0.1479632    -0.0541281   -0.7762952    -0.0479780   -0.7748283    -0.6146072    0.0791410 
   5.855000000    -0.5825420    0.1466378    -0.0563739   -0.7773510    -0.0493480   -0.7758796    -0.6128308    0.0773660 
   5.857500000    -0.5809572    0.1452239    -0.0582863   -0.7778549    -0.0510698   -0.7765501    -0.6106325    0.0753016 
   5.860000000    -0.5794405    0.1435685    -0.0603707   -0.7792302    -0.0531424   -0.7773326    -0.6089476    0.0729663 
   5.862500000    -0.5779883    0.1423011    -0.0617846   -0.7806164    -0.0549410   -0.7786025    -0.6066450    0.0711351 
   5.865000000    -0.5767291    0.1404880    -0.0640837   -0.7813476    -0.0554345   -0.7790515    -0.6040642    0.0686503 
   5.867500000    -0.5756461    0.1384577    -0.0643831   -0.7822922    -0.0574710   -0.7803071    -0.6013209    0.0653130 
   5.870000000    -0.5746955    0.1369270    -0.0673985   -0.7826924    -0.0598756   -0.7815083    -0.5991580    0.0628070 
   5.872500000    -0.5736379    0.1348755    -0.0677107   -0.7842144    -0.0606032   -0.7822827    -0.5970159    0.0604730 
   5.875000000    -0.5728189    0.1333969    -0.0705284   -0.7845450    -0.0621197   -0.7825183    -0.5955704    0.0588196 
   5.877500000    -0.5720997    0.1322911    -0.0723476   -0.7858999    -0.0646333   -0.7842330    -0.5936528    0.0565411 
   5.880000000    -0.5714384    0.1318657    -0.0753543   -0.7867567    -0.0685962   -0.7850146    -0.5917177    0.0550771 
   5.882500000    -0.5710315    0.1303098    -0.0775640   -0.7869758    -0.0685412   -0.7861640    -0.5902801    0.0526019 
   5.885000000    -0.5700315    0.1291833    -0.0798783   -0.7880566    -0.0737744   -0.7869547    -0.5882896    0.0506014 
   5.887500000    -0.5701869    0.1276650    -0.0831233   -0.7895414    -0.0738822   -0.7883317    -0.5863361    0.0481910 
   5.890000000    -0.5702364    0.1269996    -0.0854033   -0.7903689    -0.0798726   -0.7887470    -0.5846747    0.0464626 
