! MS46122B
! 1919307/90821646
! 7/29/2022 1:58:16 PM
! C:\USERS\PC_\DESKTOP\MEDICIONES\BANCHA ESTRECHA\6_65_GHZ\S11_S21_ABS8_502CL.S2P
! CHANNEL.1
! TR.MEASUREMENT
! CORRECTED.DATA
# GHZ S RI R 50.0
! FREQ.GHZ         S11RE         S11IM         S21RE         S21IM         S12RE         S12IM         S22RE         S22IM         
!; PortSelection: Port_12
   6.000000000    -0.6189860    0.0882906    -0.1833511   -0.7419779    -0.1762007   -0.7372437    -0.6022544    0.0033487 
   6.002500000    -0.6209164    0.0916351    -0.1834885   -0.7396257    -0.1767966   -0.7359650    -0.6031219    0.0030684 
   6.005000000    -0.6231844    0.0916876    -0.1845810   -0.7381796    -0.1782091   -0.7344318    -0.6035536    0.0034266 
   6.007500000    -0.6250325    0.0911889    -0.1849631   -0.7367719    -0.1802385   -0.7331435    -0.6044875    0.0034006 
   6.010000000    -0.6270720    0.0901544    -0.1861564   -0.7350848    -0.1813469   -0.7316800    -0.6050328    0.0029658 
   6.012500000    -0.6292076    0.0890826    -0.1868157   -0.7334580    -0.1829162   -0.7301345    -0.6058524    0.0033300 
   6.015000000    -0.6309149    0.0884722    -0.1881807   -0.7314794    -0.1843719   -0.7285337    -0.6062912    0.0035030 
   6.017500000    -0.6329104    0.0876603    -0.1894819   -0.7305995    -0.1858401   -0.7267910    -0.6074682    0.0042899 
   6.020000000    -0.6349384    0.0871439    -0.1901332   -0.7292488    -0.1870017   -0.7249209    -0.6080981    0.0048821 
   6.022500000    -0.6368325    0.0864336    -0.1910557   -0.7266825    -0.1882356   -0.7233030    -0.6089975    0.0051472 
   6.025000000    -0.6392092    0.0858677    -0.1909845   -0.7248089    -0.1892379   -0.7211626    -0.6097783    0.0047900 
   6.027500000    -0.6414862    0.0857563    -0.1920879   -0.7230251    -0.1901439   -0.7193360    -0.6102509    0.0050126 
   6.030000000    -0.6434076    0.0851253    -0.1932607   -0.7210679    -0.1903821   -0.7172561    -0.6113614    0.0058555 
   6.032500000    -0.6456962    0.0845140    -0.1935793   -0.7196260    -0.1910324   -0.7158514    -0.6120479    0.0058554 
   6.035000000    -0.6476694    0.0841174    -0.1939646   -0.7180967    -0.1913542   -0.7135507    -0.6124607    0.0064676 
   6.037500000    -0.6496234    0.0836348    -0.1944561   -0.7161391    -0.1922989   -0.7109289    -0.6135336    0.0062345 
   6.040000000    -0.6517175    0.0833384    -0.1942928   -0.7137008    -0.1918709   -0.7088698    -0.6147733    0.0060196 
   6.042500000    -0.6538596    0.0835074    -0.1941869   -0.7117620    -0.1917628   -0.7065591    -0.6162531    0.0057198 
   6.045000000    -0.6549903    0.0833630    -0.1937399   -0.7099184    -0.1934374   -0.7032956    -0.6166340    0.0048700 
   6.047500000    -0.6574922    0.0833717    -0.1935218   -0.7081208    -0.1933801   -0.7016634    -0.6177068    0.0044670 
   6.050000000    -0.6595880    0.0828057    -0.1956943   -0.7057944    -0.1916673   -0.6995329    -0.6197314    0.0042670 
   6.052500000    -0.6617656    0.0830849    -0.1955443   -0.7039799    -0.1916856   -0.6972732    -0.6213193    0.0034292 
   6.055000000    -0.6629975    0.0833420    -0.1953039   -0.7027270    -0.1919926   -0.6949725    -0.6221111    0.0023606 
   6.057500000    -0.6647446    0.0839851    -0.1960677   -0.7003821    -0.1915382   -0.6929904    -0.6244710    0.0018351 
   6.060000000    -0.6665624    0.0850804    -0.1960395   -0.6987442    -0.1915053   -0.6910393    -0.6260906    0.0019210 
   6.062500000    -0.6678469    0.0857454    -0.1960719   -0.6970552    -0.1912626   -0.6889052    -0.6273099    0.0005533 
   6.065000000    -0.6689813    0.0861137    -0.1954538   -0.6957375    -0.1904839   -0.6871228    -0.6280237    0.0005318 
   6.067500000    -0.6702379    0.0866612    -0.1948962   -0.6946171    -0.1901555   -0.6858695    -0.6290451   -0.0003652 
   6.070000000    -0.6712311    0.0875900    -0.1944956   -0.6931913    -0.1899248   -0.6843601    -0.6303888   -0.0006536 
   6.072500000    -0.6722374    0.0885555    -0.1948732   -0.6916189    -0.1891681   -0.6825582    -0.6318626   -0.0012580 
   6.075000000    -0.6729850    0.0895148    -0.1949724   -0.6898792    -0.1883111   -0.6808474    -0.6333666   -0.0013219 
   6.077500000    -0.6739724    0.0913298    -0.1936192   -0.6886255    -0.1875318   -0.6797275    -0.6349125   -0.0016437 
   6.080000000    -0.6746168    0.0924494    -0.1933872   -0.6872647    -0.1872944   -0.6782141    -0.6354786   -0.0012614 
   6.082500000    -0.6749997    0.0936156    -0.1921803   -0.6861740    -0.1865804   -0.6770469    -0.6368165   -0.0014109 
   6.085000000    -0.6752305    0.0948987    -0.1912575   -0.6852954    -0.1854612   -0.6761324    -0.6382663   -0.0015441 
   6.087500000    -0.6754175    0.0965624    -0.1913077   -0.6838229    -0.1840801   -0.6752632    -0.6396470   -0.0014043 
   6.090000000    -0.6754158    0.0978537    -0.1910304   -0.6825966    -0.1829039   -0.6738046    -0.6418068   -0.0004194 
   6.092500000    -0.6755458    0.1005144    -0.1896258   -0.6812723    -0.1819634   -0.6723999    -0.6432990   -0.0000807 
   6.095000000    -0.6758456    0.1021820    -0.1889355   -0.6799498    -0.1812575   -0.6717464    -0.6440036    0.0010479 
   6.097500000    -0.6755158    0.1037859    -0.1881218   -0.6787458    -0.1802442   -0.6700362    -0.6456357    0.0013328 
   6.100000000    -0.6753614    0.1059687    -0.1868815   -0.6779124    -0.1791718   -0.6687946    -0.6470699    0.0021846 
   6.102500000    -0.6751344    0.1075669    -0.1871346   -0.6770545    -0.1777897   -0.6679543    -0.6487242    0.0030400 
   6.105000000    -0.6749578    0.1099028    -0.1863737   -0.6762229    -0.1766008   -0.6672407    -0.6507100    0.0050783 
   6.107500000    -0.6746501    0.1126886    -0.1854753   -0.6746033    -0.1759171   -0.6661220    -0.6520454    0.0060157 
   6.110000000    -0.6739819    0.1146306    -0.1840668   -0.6740291    -0.1762078   -0.6646254    -0.6532721    0.0078334 
   6.112500000    -0.6743991    0.1163552    -0.1849786   -0.6730858    -0.1736527   -0.6653281    -0.6547217    0.0101052 
   6.115000000    -0.6743372    0.1185694    -0.1840469   -0.6721842    -0.1730918   -0.6643032    -0.6563430    0.0112839 
   6.117500000    -0.6741412    0.1201209    -0.1829266   -0.6711889    -0.1730833   -0.6633130    -0.6576694    0.0129924 
   6.120000000    -0.6737223    0.1220429    -0.1824287   -0.6707118    -0.1713113   -0.6628793    -0.6593077    0.0150932 
   6.122500000    -0.6738827    0.1242238    -0.1807089   -0.6701956    -0.1704465   -0.6623526    -0.6605325    0.0178850 
   6.125000000    -0.6735517    0.1262477    -0.1802152   -0.6695529    -0.1697644   -0.6624026    -0.6621566    0.0194484 
   6.127500000    -0.6731449    0.1282701    -0.1790936   -0.6692260    -0.1695898   -0.6616494    -0.6636309    0.0216885 
   6.130000000    -0.6726152    0.1299921    -0.1787599   -0.6690519    -0.1684514   -0.6614365    -0.6649925    0.0239339 
   6.132500000    -0.6727199    0.1319216    -0.1781582   -0.6684119    -0.1670325   -0.6610901    -0.6661228    0.0252997 
   6.135000000    -0.6725473    0.1335512    -0.1764828   -0.6678945    -0.1658030   -0.6607189    -0.6680247    0.0282516 
   6.137500000    -0.6724790    0.1349123    -0.1757085   -0.6674860    -0.1646584   -0.6606706    -0.6685922    0.0311955 
   6.140000000    -0.6723089    0.1363551    -0.1743557   -0.6669970    -0.1639858   -0.6601081    -0.6699144    0.0337623 
   6.142500000    -0.6723348    0.1379912    -0.1734952   -0.6664488    -0.1631994   -0.6591569    -0.6709669    0.0355193 
   6.145000000    -0.6723654    0.1391471    -0.1725498   -0.6661119    -0.1620621   -0.6589944    -0.6721771    0.0377910 
   6.147500000    -0.6725487    0.1412174    -0.1718310   -0.6657053    -0.1608058   -0.6586623    -0.6733028    0.0398990 
   6.150000000    -0.6726806    0.1422541    -0.1708418   -0.6652589    -0.1593924   -0.6578786    -0.6750148    0.0421023 
   6.152500000    -0.6731623    0.1436393    -0.1702919   -0.6646885    -0.1590276   -0.6575688    -0.6754202    0.0451790 
   6.155000000    -0.6733307    0.1452745    -0.1695282   -0.6644560    -0.1580059   -0.6573897    -0.6765375    0.0475925 
   6.157500000    -0.6735592    0.1464513    -0.1690549   -0.6637017    -0.1576565   -0.6563001    -0.6779023    0.0494607 
   6.160000000    -0.6742616    0.1480274    -0.1687625   -0.6632669    -0.1566559   -0.6560677    -0.6787123    0.0511522 
   6.162500000    -0.6745791    0.1493303    -0.1672061   -0.6628346    -0.1554589   -0.6558393    -0.6795823    0.0528757 
   6.165000000    -0.6752786    0.1505299    -0.1670879   -0.6625765    -0.1542473   -0.6554999    -0.6808556    0.0547267 
   6.167500000    -0.6759623    0.1514540    -0.1659144   -0.6623284    -0.1536726   -0.6550255    -0.6812615    0.0566956 
   6.170000000    -0.6767458    0.1525991    -0.1657280   -0.6620814    -0.1536072   -0.6547934    -0.6820302    0.0579656 
   6.172500000    -0.6774750    0.1536547    -0.1655627   -0.6620322    -0.1525247   -0.6550339    -0.6828717    0.0598290 
   6.175000000    -0.6783072    0.1552707    -0.1645163   -0.6616504    -0.1513993   -0.6549200    -0.6834991    0.0609391 
   6.177500000    -0.6790907    0.1566524    -0.1638830   -0.6615013    -0.1501796   -0.6549969    -0.6839312    0.0626227 
   6.180000000    -0.6797230    0.1576447    -0.1628867   -0.6613199    -0.1492535   -0.6547789    -0.6844770    0.0640376 
   6.182500000    -0.6801354    0.1589612    -0.1617632   -0.6611124    -0.1483843   -0.6548793    -0.6853302    0.0649184 
   6.185000000    -0.6806913    0.1596338    -0.1615036   -0.6607636    -0.1475995   -0.6543965    -0.6857104    0.0655531 
   6.187500000    -0.6812529    0.1609314    -0.1605550   -0.6605116    -0.1463851   -0.6550477    -0.6859119    0.0660874 
   6.190000000    -0.6817945    0.1622656    -0.1591126   -0.6604319    -0.1451492   -0.6551847    -0.6858425    0.0669263 
   6.192500000    -0.6818591    0.1638147    -0.1574489   -0.6597146    -0.1435210   -0.6546972    -0.6859254    0.0676838 
   6.195000000    -0.6820705    0.1647253    -0.1564289   -0.6597887    -0.1422191   -0.6544630    -0.6864967    0.0687758 
   6.197500000    -0.6823287    0.1657896    -0.1546604   -0.6593207    -0.1409632   -0.6547211    -0.6864116    0.0684326 
   6.200000000    -0.6823295    0.1666407    -0.1543056   -0.6589926    -0.1397242   -0.6548157    -0.6864858    0.0685648 
   6.202500000    -0.6822041    0.1674473    -0.1529289   -0.6590874    -0.1382074   -0.6548609    -0.6862204    0.0685722 
   6.205000000    -0.6822965    0.1690680    -0.1518438   -0.6590402    -0.1370536   -0.6550472    -0.6857232    0.0689577 
   6.207500000    -0.6817880    0.1711975    -0.1504769   -0.6594701    -0.1355290   -0.6555775    -0.6857767    0.0699189 
   6.210000000    -0.6810420    0.1724846    -0.1488424   -0.6592076    -0.1340928   -0.6562030    -0.6864709    0.0705964 
   6.212500000    -0.6814084    0.1741067    -0.1475298   -0.6597562    -0.1327197   -0.6565042    -0.6867056    0.0710703 
   6.215000000    -0.6829895    0.1751722    -0.1468252   -0.6603237    -0.1317524   -0.6572614    -0.6870449    0.0706101 
   6.217500000    -0.6830487    0.1764643    -0.1456264   -0.6609485    -0.1303305   -0.6579055    -0.6869312    0.0712128 
   6.220000000    -0.6815642    0.1786530    -0.1436802   -0.6614885    -0.1288188   -0.6587280    -0.6871351    0.0715268 
   6.222500000    -0.6784924    0.1818479    -0.1424367   -0.6621128    -0.1276315   -0.6593275    -0.6876900    0.0727740 
   6.225000000    -0.6789867    0.1841470    -0.1406666   -0.6634502    -0.1263015   -0.6604744    -0.6882606    0.0741149 
   6.227500000    -0.6796837    0.1845360    -0.1389881   -0.6641871    -0.1247412   -0.6615379    -0.6889554    0.0749842 
   6.230000000    -0.6800161    0.1854039    -0.1381630   -0.6652468    -0.1238326   -0.6629509    -0.6899506    0.0754155 
   6.232500000    -0.6797920    0.1877544    -0.1370028   -0.6666189    -0.1229201   -0.6641413    -0.6905650    0.0762465 
   6.235000000    -0.6787099    0.1907976    -0.1358392   -0.6676812    -0.1216859   -0.6654189    -0.6921520    0.0775918 
   6.237500000    -0.6777286    0.1932012    -0.1339918   -0.6689031    -0.1204210   -0.6670511    -0.6932861    0.0790365 
   6.240000000    -0.6778167    0.1962696    -0.1329874   -0.6702935    -0.1190394   -0.6683109    -0.6935456    0.0810994 
   6.242500000    -0.6775800    0.1982558    -0.1318536   -0.6717510    -0.1185420   -0.6697891    -0.6936282    0.0836676 
   6.245000000    -0.6770693    0.2006831    -0.1308564   -0.6728953    -0.1176687   -0.6715052    -0.6944957    0.0860940 
   6.247500000    -0.6760671    0.2032896    -0.1310638   -0.6739984    -0.1173399   -0.6730248    -0.6959216    0.0882336 
   6.250000000    -0.6754634    0.2055629    -0.1298424   -0.6753763    -0.1164781   -0.6747293    -0.6966911    0.0899399 
   6.252500000    -0.6745047    0.2089238    -0.1294518   -0.6766315    -0.1156450   -0.6767865    -0.6981406    0.0926628 
   6.255000000    -0.6742493    0.2115016    -0.1285073   -0.6782616    -0.1146372   -0.6785960    -0.6990281    0.0952729 
   6.257500000    -0.6733608    0.2135008    -0.1277371   -0.6800364    -0.1139631   -0.6800739    -0.6999211    0.0983839 
   6.260000000    -0.6724911    0.2158457    -0.1273399   -0.6813179    -0.1136203   -0.6813750    -0.7006972    0.1006214 
   6.262500000    -0.6720144    0.2177957    -0.1280360   -0.6826178    -0.1133277   -0.6830884    -0.7012315    0.1033927 
   6.265000000    -0.6710964    0.2201824    -0.1273487   -0.6839238    -0.1135361   -0.6845022    -0.7015737    0.1059784 
   6.267500000    -0.6699842    0.2228932    -0.1270799   -0.6852852    -0.1130704   -0.6859373    -0.7022743    0.1092259 
   6.270000000    -0.6688872    0.2243746    -0.1273183   -0.6865464    -0.1126635   -0.6876088    -0.7030284    0.1125660 
   6.272500000    -0.6676495    0.2256447    -0.1266305   -0.6879928    -0.1125168   -0.6887209    -0.7031105    0.1150248 
   6.275000000    -0.6666651    0.2267369    -0.1275421   -0.6895081    -0.1128972   -0.6904172    -0.7032632    0.1177732 
   6.277500000    -0.6654609    0.2279426    -0.1274343   -0.6909234    -0.1131375   -0.6915001    -0.7028337    0.1205019 
   6.280000000    -0.6644840    0.2295821    -0.1274170   -0.6929223    -0.1134118   -0.6930732    -0.7031549    0.1225055 
   6.282500000    -0.6634828    0.2312925    -0.1271156   -0.6939194    -0.1134386   -0.6945871    -0.7033895    0.1245025 
   6.285000000    -0.6624455    0.2324450    -0.1272831   -0.6951484    -0.1135391   -0.6956335    -0.7032052    0.1275424 
   6.287500000    -0.6614526    0.2334765    -0.1282596   -0.6965045    -0.1144841   -0.6971336    -0.7028853    0.1294709 
   6.290000000    -0.6602399    0.2339300    -0.1283091   -0.6980641    -0.1146267   -0.6983529    -0.7025239    0.1312446 
   6.292500000    -0.6592408    0.2350463    -0.1281731   -0.7000550    -0.1147790   -0.6999037    -0.7024127    0.1336669 
   6.295000000    -0.6583855    0.2355597    -0.1280352   -0.7008345    -0.1146241   -0.7011337    -0.7020688    0.1355097 
   6.297500000    -0.6576005    0.2360164    -0.1278552   -0.7016289    -0.1150132   -0.7027876    -0.7017863    0.1374108 
   6.300000000    -0.6564509    0.2364564    -0.1287072   -0.7026812    -0.1151217   -0.7043262    -0.7011351    0.1401698 
   6.302500000    -0.6552556    0.2364524    -0.1290652   -0.7037083    -0.1151395   -0.7052596    -0.7001118    0.1421036 
   6.305000000    -0.6541082    0.2373246    -0.1292518   -0.7049976    -0.1153533   -0.7067048    -0.6990825    0.1436456 
   6.307500000    -0.6531523    0.2378296    -0.1292894   -0.7063193    -0.1155488   -0.7078905    -0.6981695    0.1452168 
   6.310000000    -0.6522595    0.2378385    -0.1295735   -0.7075323    -0.1151978   -0.7095602    -0.6973084    0.1462872 
   6.312500000    -0.6513314    0.2378220    -0.1303571   -0.7086699    -0.1155140   -0.7113601    -0.6965852    0.1481399 
   6.315000000    -0.6503758    0.2375832    -0.1306220   -0.7097186    -0.1154690   -0.7129135    -0.6957483    0.1489846 
   6.317500000    -0.6490532    0.2376232    -0.1293280   -0.7109311    -0.1165765   -0.7135313    -0.6945203    0.1498880 
   6.320000000    -0.6483374    0.2372352    -0.1329602   -0.7117296    -0.1139456   -0.7155989    -0.6934555    0.1506440 
   6.322500000    -0.6471288    0.2374943    -0.1315637   -0.7130989    -0.1162191   -0.7166188    -0.6919687    0.1510140 
   6.325000000    -0.6458948    0.2371732    -0.1321896   -0.7145234    -0.1165022   -0.7179514    -0.6908613    0.1525098 
   6.327500000    -0.6446602    0.2371673    -0.1333259   -0.7160454    -0.1168388   -0.7194243    -0.6893439    0.1528676 
   6.330000000    -0.6434327    0.2366304    -0.1336753   -0.7174906    -0.1174015   -0.7213363    -0.6881205    0.1538544 
   6.332500000    -0.6423663    0.2362731    -0.1338513   -0.7183418    -0.1182942   -0.7222511    -0.6863768    0.1546087 
   6.335000000    -0.6408154    0.2369614    -0.1339762   -0.7197077    -0.1189600   -0.7237647    -0.6841723    0.1555756 
   6.337500000    -0.6390153    0.2368059    -0.1346316   -0.7207749    -0.1190980   -0.7256193    -0.6822799    0.1563277 
   6.340000000    -0.6375023    0.2370409    -0.1348417   -0.7222725    -0.1197914   -0.7265857    -0.6808475    0.1571920 
   6.342500000    -0.6358304    0.2374126    -0.1368894   -0.7234492    -0.1208819   -0.7275991    -0.6786959    0.1575441 
   6.345000000    -0.6337813    0.2379103    -0.1370620   -0.7252078    -0.1216359   -0.7290413    -0.6770102    0.1584190 
   6.347500000    -0.6320276    0.2382629    -0.1375484   -0.7262215    -0.1227483   -0.7305059    -0.6749052    0.1587856 
   6.350000000    -0.6303075    0.2391074    -0.1380280   -0.7271811    -0.1234669   -0.7319567    -0.6734468    0.1592910 
   6.352500000    -0.6280652    0.2400853    -0.1380331   -0.7282129    -0.1242108   -0.7330261    -0.6717675    0.1605805 
   6.355000000    -0.6256872    0.2408852    -0.1387094   -0.7293487    -0.1247120   -0.7348607    -0.6698056    0.1614875 
   6.357500000    -0.6234999    0.2417983    -0.1393214   -0.7299708    -0.1257419   -0.7357947    -0.6677973    0.1628392 
   6.360000000    -0.6212442    0.2429188    -0.1407374   -0.7314066    -0.1266269   -0.7368504    -0.6652380    0.1632772 
   6.362500000    -0.6192035    0.2440149    -0.1413542   -0.7323843    -0.1276800   -0.7382292    -0.6633570    0.1643413 
   6.365000000    -0.6171826    0.2449244    -0.1421557   -0.7331500    -0.1285749   -0.7399133    -0.6618015    0.1654818 
   6.367500000    -0.6156951    0.2466434    -0.1428359   -0.7336531    -0.1298306   -0.7409155    -0.6606123    0.1666061 
   6.370000000    -0.6133637    0.2481193    -0.1433314   -0.7341891    -0.1307875   -0.7422115    -0.6581702    0.1680057 
   6.372500000    -0.6108626    0.2493333    -0.1442707   -0.7347256    -0.1316609   -0.7436437    -0.6564004    0.1688248 
   6.375000000    -0.6084593    0.2505791    -0.1456467   -0.7354145    -0.1322481   -0.7443048    -0.6547028    0.1695272 
   6.377500000    -0.6064817    0.2518631    -0.1462030   -0.7366058    -0.1332020   -0.7448419    -0.6528559    0.1703802 
   6.380000000    -0.6045582    0.2528578    -0.1470122   -0.7375609    -0.1347164   -0.7467134    -0.6514173    0.1710040 
   6.382500000    -0.6024646    0.2547191    -0.1481931   -0.7379393    -0.1355887   -0.7470144    -0.6501510    0.1724113 
   6.385000000    -0.6006621    0.2559992    -0.1487491   -0.7384139    -0.1369651   -0.7478523    -0.6481437    0.1738982 
   6.387500000    -0.5986890    0.2566144    -0.1501543   -0.7398684    -0.1380926   -0.7491592    -0.6467669    0.1737004 
   6.390000000    -0.5967035    0.2576417    -0.1512935   -0.7402758    -0.1384385   -0.7502880    -0.6451781    0.1743348 
