! MS46122B
! 1919307/90821646
! 5/25/2022 2:23:16 PM
! C:\USERS\PC_\DESKTOP\CARACTERIZACION\MEDICIONES\BANCHA ESTRECHA\5_55GHZ\S11_S21_ABS8_502CL.S2P
! CHANNEL.1
! TR.MEASUREMENT
! CORRECTED.DATA
# GHZ S RI R 50.0
! FREQ.GHZ         S11RE         S11IM         S21RE         S21IM         S12RE         S12IM         S22RE         S22IM         
!; PortSelection: Port_12
   5.000000000    -0.7625540    0.0036335     0.0830025   -0.6126556     0.1386528   -0.6123102    -0.7309917   -0.0696372 
   5.002500000    -0.7637718   -0.0003046     0.0793950   -0.6101943     0.1383962   -0.6133323    -0.7310615   -0.0687301 
   5.005000000    -0.7643697   -0.0023415     0.0794524   -0.6094393     0.1389197   -0.6144626    -0.7308158   -0.0683334 
   5.007500000    -0.7653127   -0.0036065     0.0796713   -0.6087532     0.1395651   -0.6155786    -0.7309581   -0.0685244 
   5.010000000    -0.7660866   -0.0050660     0.0806034   -0.6080171     0.1407035   -0.6164751    -0.7307200   -0.0680047 
   5.012500000    -0.7671772   -0.0063359     0.0813191   -0.6071183     0.1414860   -0.6174631    -0.7306988   -0.0682772 
   5.015000000    -0.7676833   -0.0076921     0.0823937   -0.6060712     0.1418748   -0.6182663    -0.7301342   -0.0678040 
   5.017500000    -0.7682877   -0.0085097     0.0829793   -0.6048940     0.1421646   -0.6191739    -0.7302551   -0.0675519 
   5.020000000    -0.7690952   -0.0095812     0.0830009   -0.6041942     0.1424310   -0.6199310    -0.7297503   -0.0674720 
   5.022500000    -0.7695880   -0.0099742     0.0838556   -0.6031409     0.1427126   -0.6208391    -0.7290155   -0.0678203 
   5.025000000    -0.7696962   -0.0102352     0.0846336   -0.6019711     0.1428090   -0.6214243    -0.7282106   -0.0676703 
   5.027500000    -0.7700390   -0.0108869     0.0853631   -0.6011316     0.1428541   -0.6218654    -0.7281205   -0.0680653 
   5.030000000    -0.7698267   -0.0113179     0.0862067   -0.5997601     0.1431352   -0.6226045    -0.7278588   -0.0684689 
   5.032500000    -0.7695709   -0.0115641     0.0867760   -0.5987021     0.1433359   -0.6233537    -0.7272564   -0.0689838 
   5.035000000    -0.7699939   -0.0113754     0.0872278   -0.5976467     0.1431684   -0.6240382    -0.7273283   -0.0688715 
   5.037500000    -0.7705278   -0.0110006     0.0884405   -0.5965756     0.1432353   -0.6241717    -0.7275419   -0.0687467 
   5.040000000    -0.7705030   -0.0110506     0.0888768   -0.5957721     0.1431678   -0.6248727    -0.7277512   -0.0688161 
   5.042500000    -0.7709820   -0.0112255     0.0902045   -0.5952443     0.1430615   -0.6252953    -0.7276092   -0.0684095 
   5.045000000    -0.7710305   -0.0116036     0.0915242   -0.5945559     0.1434248   -0.6255087    -0.7278554   -0.0684909 
   5.047500000    -0.7714740   -0.0120766     0.0920836   -0.5940968     0.1436500   -0.6262021    -0.7286310   -0.0677447 
   5.050000000    -0.7719059   -0.0121507     0.0936618   -0.5937440     0.1441156   -0.6271446    -0.7285367   -0.0680763 
   5.052500000    -0.7722638   -0.0125509     0.0952369   -0.5931175     0.1447360   -0.6276641    -0.7289124   -0.0677959 
   5.055000000    -0.7725024   -0.0129479     0.0972407   -0.5928770     0.1447742   -0.6285846    -0.7298316   -0.0672905 
   5.057500000    -0.7730870   -0.0137270     0.0989922   -0.5926399     0.1460023   -0.6294950    -0.7300966   -0.0671641 
   5.060000000    -0.7732028   -0.0141317     0.1011618   -0.5922129     0.1463384   -0.6299941    -0.7300359   -0.0658557 
   5.062500000    -0.7738558   -0.0146707     0.1015913   -0.5924099     0.1471225   -0.6308684    -0.7303004   -0.0651831 
   5.065000000    -0.7740777   -0.0154259     0.1040338   -0.5920792     0.1476247   -0.6316518    -0.7303367   -0.0647059 
   5.067500000    -0.7744712   -0.0157942     0.1054494   -0.5918027     0.1482895   -0.6324881    -0.7310752   -0.0633650 
   5.070000000    -0.7748442   -0.0162173     0.1076120   -0.5915521     0.1487509   -0.6335366    -0.7307975   -0.0617940 
   5.072500000    -0.7752258   -0.0166335     0.1096131   -0.5914310     0.1496027   -0.6343991    -0.7305526   -0.0610036 
   5.075000000    -0.7755663   -0.0174354     0.1116133   -0.5915062     0.1501298   -0.6356170    -0.7306516   -0.0599769 
   5.077500000    -0.7759348   -0.0180224     0.1127481   -0.5920365     0.1506487   -0.6366968    -0.7311088   -0.0584454 
   5.080000000    -0.7760299   -0.0186226     0.1140590   -0.5924378     0.1510309   -0.6382412    -0.7311827   -0.0576201 
   5.082500000    -0.7761018   -0.0184154     0.1161063   -0.5927415     0.1514147   -0.6394538    -0.7313160   -0.0559713 
   5.085000000    -0.7766768   -0.0186900     0.1175173   -0.5932810     0.1515295   -0.6409615    -0.7314849   -0.0540182 
   5.087500000    -0.7768805   -0.0192719     0.1194106   -0.5941689     0.1517657   -0.6429262    -0.7318146   -0.0530887 
   5.090000000    -0.7771711   -0.0193793     0.1202222   -0.5950922     0.1519838   -0.6445182    -0.7321090   -0.0517415 
   5.092500000    -0.7780477   -0.0192364     0.1221552   -0.5958522     0.1520757   -0.6465724    -0.7321687   -0.0507183 
   5.095000000    -0.7782577   -0.0194788     0.1233516   -0.5971457     0.1524417   -0.6485457    -0.7319046   -0.0498165 
   5.097500000    -0.7781323   -0.0192819     0.1248484   -0.5983360     0.1523359   -0.6505456    -0.7323514   -0.0491661 
   5.100000000    -0.7779122   -0.0194862     0.1263493   -0.5997475     0.1528136   -0.6526465    -0.7328962   -0.0482750 
   5.102500000    -0.7778466   -0.0201691     0.1274491   -0.6013687     0.1531716   -0.6549945    -0.7330737   -0.0467710 
   5.105000000    -0.7778304   -0.0202527     0.1290250   -0.6023620     0.1529555   -0.6574610    -0.7327541   -0.0461263 
   5.107500000    -0.7778692   -0.0200016     0.1298375   -0.6037824     0.1529092   -0.6596931    -0.7331769   -0.0450742 
   5.110000000    -0.7769765   -0.0199544     0.1315106   -0.6053581     0.1527893   -0.6614678    -0.7336283   -0.0446387 
   5.112500000    -0.7761841   -0.0194985     0.1322116   -0.6068532     0.1524977   -0.6638007    -0.7345497   -0.0431066 
   5.115000000    -0.7749958   -0.0194321     0.1332821   -0.6083149     0.1517282   -0.6659987    -0.7348487   -0.0419866 
   5.117500000    -0.7735540   -0.0195056     0.1342442   -0.6097935     0.1515828   -0.6676925    -0.7352603   -0.0413824 
   5.120000000    -0.7720293   -0.0199271     0.1354601   -0.6111798     0.1504536   -0.6696863    -0.7354419   -0.0396622 
   5.122500000    -0.7706717   -0.0200675     0.1364999   -0.6119897     0.1497321   -0.6716385    -0.7358335   -0.0388027 
   5.125000000    -0.7686237   -0.0202774     0.1370988   -0.6132507     0.1485033   -0.6733530    -0.7356700   -0.0377598 
   5.127500000    -0.7669837   -0.0201737     0.1372390   -0.6146222     0.1469255   -0.6752239    -0.7357469   -0.0368102 
   5.130000000    -0.7645586   -0.0207212     0.1379302   -0.6159999     0.1461405   -0.6768481    -0.7359186   -0.0355407 
   5.132500000    -0.7622483   -0.0204504     0.1388123   -0.6170847     0.1443883   -0.6790305    -0.7363102   -0.0345392 
   5.135000000    -0.7596823   -0.0200215     0.1393787   -0.6183920     0.1429779   -0.6807699    -0.7365482   -0.0341348 
   5.137500000    -0.7578090   -0.0204970     0.1404267   -0.6196878     0.1418805   -0.6822482    -0.7368083   -0.0325855 
   5.140000000    -0.7554205   -0.0211941     0.1409600   -0.6200197     0.1402966   -0.6837412    -0.7365125   -0.0321638 
   5.142500000    -0.7535731   -0.0210544     0.1410912   -0.6213140     0.1385805   -0.6851976    -0.7364610   -0.0316769 
   5.145000000    -0.7523929   -0.0207304     0.1415794   -0.6226582     0.1371737   -0.6867904    -0.7362520   -0.0309109 
   5.147500000    -0.7497119   -0.0206900     0.1419357   -0.6233578     0.1355308   -0.6878330    -0.7349710   -0.0303603 
   5.150000000    -0.7478516   -0.0200629     0.1433767   -0.6245207     0.1339257   -0.6890122    -0.7341011   -0.0308292 
   5.152500000    -0.7460657   -0.0197628     0.1435188   -0.6252510     0.1323968   -0.6901969    -0.7327654   -0.0311964 
   5.155000000    -0.7441744   -0.0200554     0.1451875   -0.6263303     0.1311859   -0.6911573    -0.7319850   -0.0310818 
   5.157500000    -0.7427995   -0.0197951     0.1453947   -0.6272264     0.1295595   -0.6923767    -0.7307964   -0.0317226 
   5.160000000    -0.7412676   -0.0194876     0.1462742   -0.6288802     0.1281843   -0.6930779    -0.7290850   -0.0320474 
   5.162500000    -0.7396048   -0.0195872     0.1474451   -0.6294060     0.1272527   -0.6936322    -0.7270069   -0.0323209 
   5.165000000    -0.7387819   -0.0189397     0.1486205   -0.6303086     0.1266756   -0.6943268    -0.7251629   -0.0323778 
   5.167500000    -0.7372677   -0.0186465     0.1504060   -0.6310946     0.1254120   -0.6947311    -0.7229859   -0.0330772 
   5.170000000    -0.7357772   -0.0178327     0.1523373   -0.6325827     0.1242573   -0.6948244    -0.7207699   -0.0331801 
   5.172500000    -0.7345826   -0.0169958     0.1544292   -0.6337755     0.1229126   -0.6947823    -0.7184730   -0.0337962 
   5.175000000    -0.7334009   -0.0158858     0.1552007   -0.6350647     0.1222839   -0.6946983    -0.7157772   -0.0340693 
   5.177500000    -0.7326195   -0.0138797     0.1571773   -0.6365101     0.1212436   -0.6948629    -0.7134855   -0.0353632 
   5.180000000    -0.7312644   -0.0123506     0.1597785   -0.6375593     0.1204373   -0.6940137    -0.7106544   -0.0363825 
   5.182500000    -0.7299346   -0.0109186     0.1614152   -0.6391919     0.1195836   -0.6939474    -0.7083214   -0.0374473 
   5.185000000    -0.7284904   -0.0088780     0.1641561   -0.6412482     0.1193041   -0.6937147    -0.7052705   -0.0387942 
   5.187500000    -0.7273164   -0.0070555     0.1655129   -0.6447465     0.1189038   -0.6935435    -0.7039906   -0.0413077 
   5.190000000    -0.7254040   -0.0047438     0.1677346   -0.6468098     0.1185265   -0.6932718    -0.7012439   -0.0433618 
   5.192500000    -0.7236980   -0.0033601     0.1695356   -0.6503568     0.1185744   -0.6931612    -0.6997921   -0.0461091 
   5.195000000    -0.7218063   -0.0010229     0.1717013   -0.6531141     0.1187512   -0.6934914    -0.6987148   -0.0491526 
   5.197500000    -0.7205108    0.0011698     0.1731160   -0.6565974     0.1189480   -0.6944717    -0.6978821   -0.0524914 
   5.200000000    -0.7189254    0.0035421     0.1733068   -0.6610428     0.1194097   -0.6956960    -0.6974941   -0.0559345 
   5.202500000    -0.7169365    0.0057625     0.1751429   -0.6649896     0.1202415   -0.6971983    -0.6975604   -0.0587812 
   5.205000000    -0.7145045    0.0077602     0.1766034   -0.6693951     0.1210380   -0.6985908    -0.6979972   -0.0616371 
   5.207500000    -0.7119570    0.0098933     0.1770327   -0.6736107     0.1209866   -0.7003235    -0.6987048   -0.0644101 
   5.210000000    -0.7101409    0.0123339     0.1769595   -0.6788055     0.1214767   -0.7027159    -0.6997618   -0.0668882 
   5.212500000    -0.7077807    0.0140197     0.1763950   -0.6833058     0.1211851   -0.7053312    -0.7001736   -0.0686680 
   5.215000000    -0.7058267    0.0155181     0.1766089   -0.6883665     0.1207519   -0.7086328    -0.7013834   -0.0704673 
   5.217500000    -0.7031747    0.0167361     0.1760920   -0.6933246     0.1199603   -0.7115903    -0.7032915   -0.0714224 
   5.220000000    -0.7002518    0.0176823     0.1754558   -0.6978825     0.1188112   -0.7147140    -0.7043459   -0.0720950 
   5.222500000    -0.6970934    0.0195636     0.1728878   -0.7036141     0.1169236   -0.7176542    -0.7047344   -0.0721647 
   5.225000000    -0.6940823    0.0198124     0.1715168   -0.7082008     0.1150264   -0.7202807    -0.7061679   -0.0730160 
   5.227500000    -0.6912508    0.0208098     0.1683089   -0.7132494     0.1125839   -0.7232351    -0.7066469   -0.0727866 
   5.230000000    -0.6880717    0.0205796     0.1662150   -0.7172714     0.1094672   -0.7255426    -0.7073418   -0.0722035 
   5.232500000    -0.6842464    0.0205759     0.1627699   -0.7214417     0.1061711   -0.7273192    -0.7069932   -0.0719905 
   5.235000000    -0.6809285    0.0205181     0.1580491   -0.7255753     0.1025687   -0.7287251    -0.7066727   -0.0719750 
   5.237500000    -0.6791702    0.0209442     0.1541102   -0.7291490     0.0990609   -0.7299668    -0.7062805   -0.0711645 
   5.240000000    -0.6779130    0.0209104     0.1499159   -0.7323496     0.0949651   -0.7310218    -0.7054595   -0.0707723 
   5.242500000    -0.6756858    0.0212528     0.1455596   -0.7354780     0.0913606   -0.7321253    -0.7056963   -0.0695008 
   5.245000000    -0.6721877    0.0211892     0.1408549   -0.7377004     0.0877179   -0.7326830    -0.7050665   -0.0693516 
   5.247500000    -0.6692511    0.0207181     0.1366365   -0.7391528     0.0835100   -0.7329356    -0.7050236   -0.0683510 
   5.250000000    -0.6671299    0.0212027     0.1302325   -0.7412738     0.0797178   -0.7327415    -0.7048523   -0.0679966 
   5.252500000    -0.6671832    0.0221801     0.1261140   -0.7423711     0.0753778   -0.7324551    -0.7046190   -0.0675160 
   5.255000000    -0.6656842    0.0228244     0.1216804   -0.7433617     0.0721132   -0.7317203    -0.7040765   -0.0671337 
   5.257500000    -0.6628462    0.0237817     0.1171250   -0.7439710     0.0685005   -0.7309585    -0.7035770   -0.0671428 
   5.260000000    -0.6602842    0.0251757     0.1126595   -0.7441869     0.0649381   -0.7299453    -0.7027649   -0.0659866 
   5.262500000    -0.6581866    0.0260750     0.1089555   -0.7430679     0.0617234   -0.7285764    -0.7013956   -0.0660249 
   5.265000000    -0.6564328    0.0273612     0.1047004   -0.7420244     0.0587173   -0.7268800    -0.7002745   -0.0661002 
   5.267500000    -0.6547326    0.0284018     0.1005285   -0.7418983     0.0556548   -0.7255227    -0.6988205   -0.0667667 
   5.270000000    -0.6520627    0.0302240     0.0974099   -0.7409003     0.0531072   -0.7233732    -0.6976101   -0.0665074 
   5.272500000    -0.6490791    0.0321419     0.0946598   -0.7396062     0.0505657   -0.7214310    -0.6957739   -0.0673306 
   5.275000000    -0.6455976    0.0335217     0.0916759   -0.7378449     0.0487884   -0.7182764    -0.6925733   -0.0675992 
   5.277500000    -0.6415656    0.0345582     0.0891470   -0.7357895     0.0466209   -0.7151655    -0.6902502   -0.0683168 
   5.280000000    -0.6376430    0.0357843     0.0861992   -0.7330747     0.0444132   -0.7119940    -0.6880154   -0.0690258 
   5.282500000    -0.6335664    0.0357968     0.0831236   -0.7307373     0.0425850   -0.7092354    -0.6860859   -0.0718894 
   5.285000000    -0.6289802    0.0349366     0.0804691   -0.7277592     0.0415712   -0.7051718    -0.6828956   -0.0748050 
   5.287500000    -0.6246483    0.0326375     0.0783740   -0.7230359     0.0400496   -0.6996412    -0.6801322   -0.0799132 
   5.290000000    -0.6211701    0.0268300     0.0785132   -0.7161500     0.0407668   -0.6930033    -0.6782799   -0.0860481 
   5.292500000    -0.6220138    0.0209763     0.0826337   -0.7100384     0.0451995   -0.6860878    -0.6791393   -0.0923945 
   5.295000000    -0.6260027    0.0191435     0.0894682   -0.7067257     0.0516044   -0.6826056    -0.6818908   -0.0953376 
   5.297500000    -0.6289319    0.0214150     0.0940816   -0.7072365     0.0572873   -0.6822110    -0.6847773   -0.0962017 
   5.300000000    -0.6294565    0.0251558     0.0986603   -0.7090640     0.0622321   -0.6830907    -0.6858341   -0.0978392 
   5.302500000    -0.6284664    0.0277584     0.1016934   -0.7123848     0.0662803   -0.6850599    -0.6854443   -0.0995835 
   5.305000000    -0.6270995    0.0295058     0.1046509   -0.7148374     0.0698548   -0.6870375    -0.6851043   -0.1018721 
   5.307500000    -0.6257120    0.0303792     0.1066246   -0.7184586     0.0728500   -0.6898294    -0.6852023   -0.1041676 
   5.310000000    -0.6245193    0.0312935     0.1077002   -0.7221567     0.0757210   -0.6931342    -0.6864349   -0.1073015 
   5.312500000    -0.6243545    0.0317404     0.1092667   -0.7256984     0.0776904   -0.6973445    -0.6877990   -0.1102511 
   5.315000000    -0.6241702    0.0317495     0.1106840   -0.7302743     0.0789098   -0.7015530    -0.6905627   -0.1135074 
   5.317500000    -0.6241876    0.0315105     0.1119929   -0.7350134     0.0795287   -0.7069029    -0.6934543   -0.1164202 
   5.320000000    -0.6245769    0.0320818     0.1120490   -0.7415015     0.0795559   -0.7122105    -0.6971539   -0.1182115 
   5.322500000    -0.6255047    0.0322661     0.1116718   -0.7468383     0.0788528   -0.7180409    -0.7006486   -0.1197649 
   5.325000000    -0.6273568    0.0337283     0.1116505   -0.7534387     0.0768756   -0.7238350    -0.7038138   -0.1205382 
   5.327500000    -0.6285233    0.0348655     0.1100552   -0.7601372     0.0734778   -0.7293139    -0.7071442   -0.1202107 
   5.330000000    -0.6293159    0.0357735     0.1068861   -0.7672332     0.0694747   -0.7344220    -0.7103971   -0.1190600 
   5.332500000    -0.6295837    0.0369100     0.1031209   -0.7739190     0.0642875   -0.7390393    -0.7132285   -0.1160329 
   5.335000000    -0.6296594    0.0382853     0.0983621   -0.7800561     0.0578424   -0.7426929    -0.7151439   -0.1133208 
   5.337500000    -0.6300073    0.0395618     0.0922230   -0.7864447     0.0514467   -0.7452636    -0.7158592   -0.1103012 
   5.340000000    -0.6299693    0.0403480     0.0855705   -0.7919829     0.0442748   -0.7474704    -0.7159620   -0.1071263 
   5.342500000    -0.6299251    0.0406937     0.0766357   -0.7962917     0.0366946   -0.7478946    -0.7140925   -0.1038218 
   5.345000000    -0.6301725    0.0403195     0.0669027   -0.7993484     0.0291626   -0.7469383    -0.7113185   -0.1016114 
   5.347500000    -0.6303628    0.0400000     0.0571775   -0.8016676     0.0222635   -0.7451363    -0.7085449   -0.0989285 
   5.350000000    -0.6311991    0.0400987     0.0476297   -0.8024520     0.0152089   -0.7429971    -0.7052466   -0.0968846 
   5.352500000    -0.6324466    0.0391638     0.0383875   -0.8016299     0.0086154   -0.7394511    -0.7017528   -0.0971437 
   5.355000000    -0.6338795    0.0389640     0.0291127   -0.8003247     0.0027316   -0.7358398    -0.6987667   -0.0975375 
   5.357500000    -0.6355479    0.0379058     0.0193709   -0.7984414    -0.0020453   -0.7315530    -0.6965438   -0.0979165 
   5.360000000    -0.6375381    0.0377925     0.0115552   -0.7955816    -0.0068296   -0.7269527    -0.6941801   -0.0985320 
   5.362500000    -0.6405351    0.0379346     0.0046260   -0.7919061    -0.0100341   -0.7221726    -0.6921191   -0.1001400 
   5.365000000    -0.6429688    0.0377437    -0.0022637   -0.7877303    -0.0139576   -0.7173513    -0.6907225   -0.1015445 
   5.367500000    -0.6466451    0.0376271    -0.0077127   -0.7831078    -0.0163257   -0.7123444    -0.6895297   -0.1030341 
   5.370000000    -0.6494476    0.0379692    -0.0123047   -0.7788353    -0.0188134   -0.7078991    -0.6900483   -0.1047329 
   5.372500000    -0.6524010    0.0382569    -0.0182953   -0.7741975    -0.0202929   -0.7019559    -0.6896040   -0.1068048 
   5.375000000    -0.6554086    0.0400194    -0.0221266   -0.7693467    -0.0214773   -0.6969140    -0.6900095   -0.1071308 
   5.377500000    -0.6583060    0.0418988    -0.0253465   -0.7641847    -0.0222892   -0.6919110    -0.6906347   -0.1080059 
   5.380000000    -0.6607110    0.0435922    -0.0280204   -0.7590022    -0.0230614   -0.6872188    -0.6918718   -0.1082348 
   5.382500000    -0.6628756    0.0454583    -0.0301613   -0.7537594    -0.0229575   -0.6822051    -0.6924347   -0.1088026 
   5.385000000    -0.6656633    0.0471185    -0.0317982   -0.7487043    -0.0222510   -0.6773176    -0.6942400   -0.1083711 
   5.387500000    -0.6676548    0.0484792    -0.0338882   -0.7435220    -0.0213243   -0.6723549    -0.6954970   -0.1084566 
