! MS46122B
! 1919307/90821646
! 5/25/2022 1:06:35 PM
! C:\USERS\PC_\DESKTOP\CARACTERIZACION\MEDICIONES\BANCHA ESTRECHA\5_55GHZ\S11_S21_ABS3_1002CL.S2P
! CHANNEL.1
! TR.MEASUREMENT
! CORRECTED.DATA
# GHZ S RI R 50.0
! FREQ.GHZ         S11RE         S11IM         S21RE         S21IM         S12RE         S12IM         S22RE         S22IM         
!; PortSelection: Port_12
   5.000000000    -0.6037995   -0.1614308     0.2853580   -0.7005683     0.3399993   -0.6713997    -0.6091625   -0.1887323 
   5.002500000    -0.6041681   -0.1675152     0.2806039   -0.6997162     0.3402198   -0.6726599    -0.6089648   -0.1872833 
   5.005000000    -0.6046016   -0.1699599     0.2799973   -0.6985058     0.3408813   -0.6735148    -0.6095585   -0.1861428 
   5.007500000    -0.6052849   -0.1721065     0.2803293   -0.6970612     0.3420489   -0.6738762    -0.6093556   -0.1855721 
   5.010000000    -0.6061026   -0.1740964     0.2801931   -0.6969152     0.3428678   -0.6745337    -0.6086596   -0.1851706 
   5.012500000    -0.6071746   -0.1753103     0.2797667   -0.6955727     0.3440212   -0.6747932    -0.6079398   -0.1838629 
   5.015000000    -0.6079754   -0.1770633     0.2801792   -0.6941561     0.3446461   -0.6753210    -0.6075451   -0.1831618 
   5.017500000    -0.6089486   -0.1784714     0.2799264   -0.6928027     0.3447129   -0.6755899    -0.6069289   -0.1828086 
   5.020000000    -0.6098376   -0.1798461     0.2802943   -0.6910928     0.3452956   -0.6760976    -0.6060740   -0.1823847 
   5.022500000    -0.6107305   -0.1807011     0.2793579   -0.6898143     0.3456004   -0.6765926    -0.6051545   -0.1816568 
   5.025000000    -0.6119395   -0.1816507     0.2790432   -0.6889690     0.3458944   -0.6770177    -0.6046007   -0.1817291 
   5.027500000    -0.6125581   -0.1816541     0.2792765   -0.6874959     0.3462213   -0.6772112    -0.6037614   -0.1812955 
   5.030000000    -0.6128902   -0.1821202     0.2790262   -0.6858953     0.3463273   -0.6776496    -0.6030654   -0.1813909 
   5.032500000    -0.6131242   -0.1825291     0.2792994   -0.6841179     0.3462301   -0.6779515    -0.6025929   -0.1813032 
   5.035000000    -0.6136593   -0.1827188     0.2787585   -0.6816314     0.3463926   -0.6785359    -0.6021717   -0.1811861 
   5.037500000    -0.6141903   -0.1825172     0.2788306   -0.6810663     0.3460641   -0.6788671    -0.6015583   -0.1806408 
   5.040000000    -0.6147494   -0.1827001     0.2786429   -0.6789764     0.3461655   -0.6793031    -0.6018206   -0.1810770 
   5.042500000    -0.6156684   -0.1828936     0.2792049   -0.6781636     0.3465862   -0.6799651    -0.6008224   -0.1802480 
   5.045000000    -0.6158898   -0.1834867     0.2795140   -0.6766756     0.3466084   -0.6798100    -0.6006036   -0.1799576 
   5.047500000    -0.6163139   -0.1838035     0.2799352   -0.6745906     0.3465595   -0.6800198    -0.6015143   -0.1795889 
   5.050000000    -0.6162311   -0.1844952     0.2804531   -0.6731743     0.3473373   -0.6803723    -0.6010127   -0.1790992 
   5.052500000    -0.6166297   -0.1848686     0.2806488   -0.6720537     0.3475209   -0.6804010    -0.6011418   -0.1783663 
   5.055000000    -0.6166897   -0.1848665     0.2823059   -0.6709779     0.3475530   -0.6812112    -0.6012025   -0.1778799 
   5.057500000    -0.6174479   -0.1854313     0.2836825   -0.6697046     0.3486571   -0.6815564    -0.6008527   -0.1769957 
   5.060000000    -0.6174117   -0.1861069     0.2850177   -0.6684510     0.3489187   -0.6815711    -0.6008151   -0.1762143 
   5.062500000    -0.6174052   -0.1870015     0.2863605   -0.6673520     0.3493062   -0.6820406    -0.6011854   -0.1747099 
   5.065000000    -0.6175022   -0.1874348     0.2880455   -0.6663655     0.3500097   -0.6821467    -0.6009611   -0.1739455 
   5.067500000    -0.6180550   -0.1878832     0.2885772   -0.6655611     0.3506670   -0.6824474    -0.6007862   -0.1724033 
   5.070000000    -0.6181383   -0.1887246     0.2911456   -0.6647740     0.3513609   -0.6829996    -0.6004554   -0.1710546 
   5.072500000    -0.6181117   -0.1898816     0.2928059   -0.6637234     0.3524026   -0.6832011    -0.6001550   -0.1691981 
   5.075000000    -0.6182330   -0.1905960     0.2946128   -0.6627901     0.3534369   -0.6836038    -0.5997949   -0.1677718 
   5.077500000    -0.6188318   -0.1913604     0.2965092   -0.6617041     0.3541254   -0.6847406    -0.5994645   -0.1660489 
   5.080000000    -0.6189747   -0.1924144     0.2973615   -0.6617426     0.3552315   -0.6854032    -0.5990307   -0.1646233 
   5.082500000    -0.6191398   -0.1934502     0.2989118   -0.6609149     0.3555253   -0.6862050    -0.5991549   -0.1622680 
   5.085000000    -0.6193264   -0.1939481     0.3001531   -0.6608439     0.3563076   -0.6868134    -0.5988141   -0.1604173 
   5.087500000    -0.6195601   -0.1948872     0.3023473   -0.6602148     0.3571064   -0.6882619    -0.5984567   -0.1589527 
   5.090000000    -0.6199741   -0.1957971     0.3034536   -0.6600880     0.3578859   -0.6893703    -0.5977247   -0.1574805 
   5.092500000    -0.6205782   -0.1967555     0.3051121   -0.6606904     0.3586043   -0.6905772    -0.5976502   -0.1555832 
   5.095000000    -0.6210260   -0.1975793     0.3056082   -0.6609190     0.3595034   -0.6918725    -0.5967230   -0.1547787 
   5.097500000    -0.6213662   -0.1980421     0.3072743   -0.6612753     0.3600765   -0.6933600    -0.5961137   -0.1532056 
   5.100000000    -0.6215083   -0.1988302     0.3089489   -0.6616681     0.3612302   -0.6948370    -0.5955437   -0.1522259 
   5.102500000    -0.6218175   -0.1999530     0.3110339   -0.6619609     0.3623085   -0.6965475    -0.5951769   -0.1504274 
   5.105000000    -0.6221736   -0.2005862     0.3122863   -0.6632079     0.3631764   -0.6986913    -0.5943691   -0.1499972 
   5.107500000    -0.6226078   -0.2013682     0.3126751   -0.6634145     0.3644111   -0.7006670    -0.5940239   -0.1488321 
   5.110000000    -0.6223200   -0.2015215     0.3146644   -0.6640958     0.3650667   -0.7023476    -0.5934296   -0.1482465 
   5.112500000    -0.6223189   -0.2017426     0.3160604   -0.6640133     0.3660461   -0.7041399    -0.5935783   -0.1468230 
   5.115000000    -0.6220549   -0.2021933     0.3172620   -0.6644834     0.3663668   -0.7064146    -0.5927582   -0.1459346 
   5.117500000    -0.6211373   -0.2021583     0.3176273   -0.6651009     0.3669116   -0.7083648    -0.5926629   -0.1450866 
   5.120000000    -0.6202953   -0.2022728     0.3186404   -0.6659929     0.3670300   -0.7103881    -0.5919092   -0.1441678 
   5.122500000    -0.6191422   -0.2024537     0.3200366   -0.6658447     0.3670091   -0.7126197    -0.5912094   -0.1428917 
   5.125000000    -0.6176009   -0.2025583     0.3203734   -0.6660484     0.3667949   -0.7147143    -0.5907658   -0.1421376 
   5.127500000    -0.6159289   -0.2028030     0.3215375   -0.6658617     0.3661263   -0.7170308    -0.5898762   -0.1415837 
   5.130000000    -0.6136485   -0.2028896     0.3227860   -0.6658926     0.3656296   -0.7189171    -0.5893685   -0.1408601 
   5.132500000    -0.6123612   -0.2027384     0.3230792   -0.6668169     0.3646207   -0.7216448    -0.5895841   -0.1401048 
   5.135000000    -0.6100034   -0.2027003     0.3243485   -0.6670836     0.3639694   -0.7234775    -0.5895833   -0.1396353 
   5.137500000    -0.6079558   -0.2021675     0.3258777   -0.6672550     0.3631037   -0.7253709    -0.5890835   -0.1388841 
   5.140000000    -0.6058096   -0.2024279     0.3266667   -0.6669964     0.3620317   -0.7274333    -0.5884728   -0.1378512 
   5.142500000    -0.6038119   -0.2028871     0.3277900   -0.6671649     0.3607716   -0.7295194    -0.5881428   -0.1371596 
   5.145000000    -0.6021851   -0.2028153     0.3291710   -0.6671050     0.3595343   -0.7314705    -0.5874040   -0.1368251 
   5.147500000    -0.5999239   -0.2028111     0.3297292   -0.6676239     0.3583078   -0.7330114    -0.5865235   -0.1362906 
   5.150000000    -0.5975530   -0.2022701     0.3308196   -0.6680565     0.3566796   -0.7345247    -0.5848303   -0.1373976 
   5.152500000    -0.5954897   -0.2028252     0.3316323   -0.6680027     0.3554153   -0.7360226    -0.5837658   -0.1372798 
   5.155000000    -0.5936650   -0.2029095     0.3335371   -0.6684352     0.3541197   -0.7374701    -0.5822831   -0.1366355 
   5.157500000    -0.5922592   -0.2035707     0.3352344   -0.6684819     0.3529391   -0.7389463    -0.5806459   -0.1370106 
   5.160000000    -0.5909908   -0.2042117     0.3369729   -0.6688294     0.3515944   -0.7401955    -0.5792312   -0.1367367 
   5.162500000    -0.5893874   -0.2048694     0.3378909   -0.6694983     0.3503992   -0.7409876    -0.5767639   -0.1369628 
   5.165000000    -0.5879459   -0.2058221     0.3392278   -0.6699878     0.3498206   -0.7417460    -0.5747951   -0.1367944 
   5.167500000    -0.5865583   -0.2060665     0.3416401   -0.6699341     0.3488510   -0.7421541    -0.5722902   -0.1365066 
   5.170000000    -0.5861902   -0.2055955     0.3440164   -0.6704807     0.3470285   -0.7425575    -0.5697370   -0.1363954 
   5.172500000    -0.5851501   -0.2056033     0.3462496   -0.6710674     0.3453847   -0.7429080    -0.5672715   -0.1364092 
   5.175000000    -0.5842515   -0.2053188     0.3484876   -0.6709241     0.3445186   -0.7427881    -0.5647646   -0.1363351 
   5.177500000    -0.5837454   -0.2049723     0.3506896   -0.6720480     0.3432610   -0.7426203    -0.5618180   -0.1363522 
   5.180000000    -0.5834941   -0.2036283     0.3530623   -0.6725384     0.3417393   -0.7421408    -0.5584775   -0.1365911 
   5.182500000    -0.5829369   -0.2028874     0.3556624   -0.6737886     0.3406459   -0.7417288    -0.5549175   -0.1370475 
   5.185000000    -0.5830076   -0.2015715     0.3587907   -0.6749557     0.3393753   -0.7410482    -0.5516478   -0.1375930 
   5.187500000    -0.5823089   -0.2002026     0.3613768   -0.6771406     0.3382974   -0.7401381    -0.5493163   -0.1394540 
   5.190000000    -0.5820583   -0.1983383     0.3641170   -0.6780251     0.3373985   -0.7392983    -0.5455403   -0.1407082 
   5.192500000    -0.5808754   -0.1967197     0.3658771   -0.6807131     0.3365088   -0.7380844    -0.5432537   -0.1432699 
   5.195000000    -0.5805816   -0.1946887     0.3684292   -0.6823393     0.3365777   -0.7370749    -0.5404878   -0.1454275 
   5.197500000    -0.5796990   -0.1925532     0.3709025   -0.6846824     0.3370216   -0.7366312    -0.5379179   -0.1484415 
   5.200000000    -0.5788587   -0.1900652     0.3727297   -0.6878705     0.3374156   -0.7364937    -0.5358344   -0.1517541 
   5.202500000    -0.5777964   -0.1878264     0.3751407   -0.6913187     0.3387797   -0.7361680    -0.5341886   -0.1552129 
   5.205000000    -0.5762233   -0.1850002     0.3767051   -0.6945794     0.3398857   -0.7359642    -0.5329668   -0.1582453 
   5.207500000    -0.5744731   -0.1829018     0.3775124   -0.6975300     0.3412921   -0.7360170    -0.5319654   -0.1614200 
   5.210000000    -0.5727623   -0.1807730     0.3784621   -0.7008917     0.3431516   -0.7364833    -0.5311904   -0.1646165 
   5.212500000    -0.5712472   -0.1789955     0.3797951   -0.7047020     0.3449054   -0.7380103    -0.5302894   -0.1674593 
   5.215000000    -0.5697008   -0.1772516     0.3808435   -0.7086068     0.3464491   -0.7402106    -0.5302854   -0.1705300 
   5.217500000    -0.5680891   -0.1757051     0.3811932   -0.7125480     0.3481405   -0.7426038    -0.5306106   -0.1734222 
   5.220000000    -0.5658885   -0.1746689     0.3817480   -0.7154624     0.3499068   -0.7448168    -0.5307722   -0.1756374 
   5.222500000    -0.5634775   -0.1732273     0.3817364   -0.7191572     0.3509540   -0.7474905    -0.5313834   -0.1775043 
   5.225000000    -0.5614367   -0.1718514     0.3824791   -0.7230978     0.3518172   -0.7502638    -0.5322480   -0.1800159 
   5.227500000    -0.5591320   -0.1710034     0.3822864   -0.7268280     0.3520979   -0.7538899    -0.5330346   -0.1812003 
   5.230000000    -0.5565898   -0.1692788     0.3819635   -0.7307721     0.3517639   -0.7576307    -0.5339158   -0.1823202 
   5.232500000    -0.5532501   -0.1684946     0.3813502   -0.7343303     0.3508300   -0.7606523    -0.5344113   -0.1840125 
   5.235000000    -0.5505130   -0.1677330     0.3803696   -0.7377723     0.3491621   -0.7636197    -0.5346020   -0.1851541 
   5.237500000    -0.5488390   -0.1670333     0.3792405   -0.7410855     0.3474782   -0.7668055    -0.5357797   -0.1855748 
   5.240000000    -0.5471953   -0.1663482     0.3772825   -0.7457568     0.3451413   -0.7700895    -0.5358315   -0.1855606 
   5.242500000    -0.5446165   -0.1652512     0.3752035   -0.7498180     0.3424099   -0.7733867    -0.5364217   -0.1847529 
   5.245000000    -0.5413046   -0.1640612     0.3732187   -0.7532396     0.3392884   -0.7759581    -0.5363909   -0.1847430 
   5.247500000    -0.5379127   -0.1642658     0.3707239   -0.7555276     0.3361832   -0.7785835    -0.5365878   -0.1843394 
   5.250000000    -0.5358109   -0.1641757     0.3675376   -0.7579684     0.3325648   -0.7803980    -0.5373475   -0.1845265 
   5.252500000    -0.5352684   -0.1635795     0.3653716   -0.7606172     0.3290527   -0.7826665    -0.5381380   -0.1840228 
   5.255000000    -0.5329877   -0.1638764     0.3614229   -0.7638414     0.3257395   -0.7836238    -0.5379615   -0.1843204 
   5.257500000    -0.5297788   -0.1636851     0.3585123   -0.7663211     0.3215452   -0.7849032    -0.5377608   -0.1839947 
   5.260000000    -0.5274543   -0.1630514     0.3555707   -0.7678915     0.3180982   -0.7858753    -0.5370566   -0.1841446 
   5.262500000    -0.5257497   -0.1621711     0.3520947   -0.7687649     0.3142372   -0.7861697    -0.5357261   -0.1838546 
   5.265000000    -0.5244904   -0.1616826     0.3496842   -0.7692087     0.3113464   -0.7858165    -0.5346133   -0.1846645 
   5.267500000    -0.5233389   -0.1615683     0.3470860   -0.7701206     0.3081608   -0.7861421    -0.5342175   -0.1853308 
   5.270000000    -0.5220460   -0.1609902     0.3445521   -0.7709612     0.3051610   -0.7857682    -0.5337156   -0.1859611 
   5.272500000    -0.5198738   -0.1608949     0.3417934   -0.7715693     0.3023995   -0.7849663    -0.5323199   -0.1872871 
   5.275000000    -0.5180072   -0.1601711     0.3395676   -0.7712206     0.2993187   -0.7831684    -0.5302970   -0.1872809 
   5.277500000    -0.5164990   -0.1588194     0.3375695   -0.7702553     0.2964543   -0.7813290    -0.5283546   -0.1885171 
   5.280000000    -0.5151875   -0.1582178     0.3353158   -0.7691626     0.2939102   -0.7793444    -0.5271463   -0.1897073 
   5.282500000    -0.5141284   -0.1574444     0.3348541   -0.7678507     0.2922406   -0.7776041    -0.5264729   -0.1920263 
   5.285000000    -0.5134931   -0.1565125     0.3339657   -0.7670349     0.2911386   -0.7751842    -0.5260887   -0.1944107 
   5.287500000    -0.5125300   -0.1561427     0.3324029   -0.7666124     0.2897554   -0.7724696    -0.5247815   -0.1963459 
   5.290000000    -0.5109184   -0.1551381     0.3325642   -0.7649239     0.2893985   -0.7699820    -0.5230007   -0.1988030 
   5.292500000    -0.5095379   -0.1534276     0.3336076   -0.7645242     0.2890685   -0.7667486    -0.5206074   -0.2010721 
   5.295000000    -0.5075859   -0.1523398     0.3342513   -0.7633660     0.2893619   -0.7640672    -0.5190258   -0.2037309 
   5.297500000    -0.5060554   -0.1510029     0.3350392   -0.7619321     0.2900904   -0.7617705    -0.5183564   -0.2061892 
   5.300000000    -0.5043356   -0.1497720     0.3361832   -0.7616836     0.2915318   -0.7596285    -0.5174496   -0.2095425 
   5.302500000    -0.5029348   -0.1478723     0.3364705   -0.7619730     0.2936854   -0.7580646    -0.5166230   -0.2131827 
   5.305000000    -0.5010874   -0.1467523     0.3390066   -0.7617865     0.2960095   -0.7566243    -0.5154817   -0.2168318 
   5.307500000    -0.5000193   -0.1457237     0.3411346   -0.7631460     0.2986194   -0.7564170    -0.5143526   -0.2208691 
   5.310000000    -0.4983841   -0.1447558     0.3434891   -0.7642336     0.3021333   -0.7565932    -0.5143774   -0.2252123 
   5.312500000    -0.4974149   -0.1444591     0.3448682   -0.7667133     0.3050063   -0.7581629    -0.5148544   -0.2301417 
   5.315000000    -0.4963505   -0.1443024     0.3468499   -0.7692019     0.3076293   -0.7598557    -0.5162137   -0.2355565 
   5.317500000    -0.4951133   -0.1441845     0.3488920   -0.7716075     0.3104382   -0.7628095    -0.5176623   -0.2405018 
   5.320000000    -0.4947862   -0.1443805     0.3508719   -0.7751665     0.3129877   -0.7667726    -0.5200317   -0.2460421 
   5.322500000    -0.4949062   -0.1448331     0.3533127   -0.7792811     0.3150679   -0.7707710    -0.5230207   -0.2514409 
   5.325000000    -0.4960115   -0.1444389     0.3555360   -0.7840436     0.3166242   -0.7757301    -0.5263747   -0.2556858 
   5.327500000    -0.4969424   -0.1439483     0.3568746   -0.7890776     0.3171914   -0.7809919    -0.5300907   -0.2596151 
   5.330000000    -0.4979010   -0.1436621     0.3574316   -0.7941550     0.3166935   -0.7868208    -0.5346385   -0.2630742 
   5.332500000    -0.4985058   -0.1434918     0.3585840   -0.7991849     0.3153407   -0.7926990    -0.5399116   -0.2655921 
   5.335000000    -0.4994412   -0.1423565     0.3588447   -0.8054641     0.3127603   -0.7984501    -0.5454029   -0.2675349 
   5.337500000    -0.5002984   -0.1412442     0.3583075   -0.8123612     0.3100786   -0.8037333    -0.5506701   -0.2682379 
   5.340000000    -0.5008518   -0.1398504     0.3570506   -0.8193644     0.3056508   -0.8094375    -0.5554107   -0.2674454 
   5.342500000    -0.5013919   -0.1385393     0.3552334   -0.8266138     0.3004192   -0.8141418    -0.5600590   -0.2654302 
   5.345000000    -0.5014266   -0.1375868     0.3516263   -0.8338884     0.2938436   -0.8181818    -0.5631760   -0.2630173 
   5.347500000    -0.5013812   -0.1366748     0.3466694   -0.8425618     0.2876371   -0.8209214    -0.5654935   -0.2591464 
   5.350000000    -0.5011904   -0.1361989     0.3411849   -0.8490538     0.2799413   -0.8231435    -0.5669424   -0.2557802 
   5.352500000    -0.5007896   -0.1368221     0.3329725   -0.8550002     0.2720502   -0.8244858    -0.5670310   -0.2521015 
   5.355000000    -0.5006903   -0.1368776     0.3248436   -0.8609266     0.2641293   -0.8251116    -0.5667493   -0.2491073 
   5.357500000    -0.5014133   -0.1379709     0.3163876   -0.8653727     0.2565051   -0.8237385    -0.5655610   -0.2467594 
   5.360000000    -0.5021643   -0.1393615     0.3074548   -0.8679340     0.2491816   -0.8219868    -0.5642850   -0.2448885 
   5.362500000    -0.5032601   -0.1411541     0.2974542   -0.8705645     0.2427124   -0.8190752    -0.5617915   -0.2438182 
   5.365000000    -0.5048119   -0.1431976     0.2879370   -0.8718116     0.2367148   -0.8166144    -0.5601166   -0.2433599 
   5.367500000    -0.5072168   -0.1452758     0.2794675   -0.8716448     0.2315372   -0.8127777    -0.5588784   -0.2442853 
   5.370000000    -0.5099083   -0.1457790     0.2721524   -0.8719374     0.2263155   -0.8099796    -0.5577888   -0.2452014 
   5.372500000    -0.5127702   -0.1473111     0.2644945   -0.8698748     0.2218622   -0.8053013    -0.5568837   -0.2468897 
   5.375000000    -0.5160380   -0.1475910     0.2571580   -0.8675597     0.2181842   -0.8008194    -0.5564674   -0.2479919 
   5.377500000    -0.5192233   -0.1479063     0.2503903   -0.8653870     0.2149426   -0.7963511    -0.5566106   -0.2492271 
   5.380000000    -0.5225077   -0.1477033     0.2441269   -0.8626313     0.2125573   -0.7923033    -0.5584807   -0.2506188 
   5.382500000    -0.5259547   -0.1474851     0.2392893   -0.8591201     0.2101984   -0.7878330    -0.5593534   -0.2519680 
   5.385000000    -0.5297568   -0.1469030     0.2346226   -0.8554007     0.2086433   -0.7830048    -0.5607504   -0.2525078 
   5.387500000    -0.5335733   -0.1460704     0.2294358   -0.8518351     0.2067097   -0.7783290    -0.5622720   -0.2538298 
