! MS46122B
! 1919307/90821646
! 5/25/2022 2:14:14 PM
! C:\USERS\PC_\DESKTOP\CARACTERIZACION\MEDICIONES\BANCHA ESTRECHA\5_55GHZ\S11_S21_ABS8_1002CL.S2P
! CHANNEL.1
! TR.MEASUREMENT
! CORRECTED.DATA
# GHZ S RI R 50.0
! FREQ.GHZ         S11RE         S11IM         S21RE         S21IM         S12RE         S12IM         S22RE         S22IM         
!; PortSelection: Port_12
   5.000000000    -0.8417029    0.1708119    -0.0327426   -0.4867543     0.0127386   -0.5050864    -0.8237168    0.0796582 
   5.002500000    -0.8432592    0.1682464    -0.0352373   -0.4838025     0.0123824   -0.5062243    -0.8240247    0.0806914 
   5.005000000    -0.8439403    0.1664237    -0.0353582   -0.4835234     0.0121019   -0.5074046    -0.8246423    0.0814657 
   5.007500000    -0.8450508    0.1650910    -0.0343111   -0.4831039     0.0121203   -0.5089235    -0.8252254    0.0819733 
   5.010000000    -0.8455739    0.1638481    -0.0333687   -0.4828789     0.0124942   -0.5101361    -0.8254581    0.0817732 
   5.012500000    -0.8464944    0.1625451    -0.0323788   -0.4824481     0.0130117   -0.5113048    -0.8255885    0.0821779 
   5.015000000    -0.8469975    0.1611748    -0.0317629   -0.4815758     0.0129237   -0.5123065    -0.8258332    0.0827781 
   5.017500000    -0.8472511    0.1596964    -0.0315609   -0.4815611     0.0126240   -0.5128765    -0.8260894    0.0827565 
   5.020000000    -0.8479957    0.1588026    -0.0302933   -0.4810817     0.0122505   -0.5137693    -0.8261354    0.0829282 
   5.022500000    -0.8481869    0.1581209    -0.0295825   -0.4805923     0.0122070   -0.5150858    -0.8262755    0.0834852 
   5.025000000    -0.8482794    0.1570154    -0.0285604   -0.4801284     0.0122540   -0.5158625    -0.8259764    0.0833693 
   5.027500000    -0.8488822    0.1562901    -0.0281368   -0.4793574     0.0122357   -0.5163949    -0.8260759    0.0829727 
   5.030000000    -0.8490483    0.1559255    -0.0272978   -0.4788603     0.0118094   -0.5169426    -0.8264844    0.0835313 
   5.032500000    -0.8488937    0.1549900    -0.0265750   -0.4791000     0.0114131   -0.5178118    -0.8271755    0.0830229 
   5.035000000    -0.8491715    0.1552207    -0.0254478   -0.4785584     0.0108848   -0.5186092    -0.8276110    0.0836580 
   5.037500000    -0.8497572    0.1545684    -0.0244687   -0.4780086     0.0112542   -0.5193824    -0.8281648    0.0833884 
   5.040000000    -0.8505881    0.1542409    -0.0234467   -0.4779996     0.0108948   -0.5199975    -0.8288234    0.0837910 
   5.042500000    -0.8510979    0.1534221    -0.0227500   -0.4776388     0.0111233   -0.5210357    -0.8287597    0.0839675 
   5.045000000    -0.8513070    0.1529004    -0.0214525   -0.4775242     0.0113136   -0.5213319    -0.8294061    0.0848486 
   5.047500000    -0.8520668    0.1527343    -0.0206260   -0.4779185     0.0107873   -0.5218229    -0.8303887    0.0859482 
   5.050000000    -0.8524460    0.1517646    -0.0191739   -0.4781498     0.0109327   -0.5227907    -0.8310397    0.0857914 
   5.052500000    -0.8530630    0.1514866    -0.0179874   -0.4782159     0.0110791   -0.5236676    -0.8318879    0.0868677 
   5.055000000    -0.8535964    0.1509122    -0.0159808   -0.4785552     0.0109908   -0.5247041    -0.8326216    0.0877572 
   5.057500000    -0.8547795    0.1508922    -0.0150793   -0.4786284     0.0115812   -0.5257227    -0.8330910    0.0885422 
   5.060000000    -0.8552879    0.1498120    -0.0132953   -0.4789641     0.0117419   -0.5265016    -0.8341426    0.0894598 
   5.062500000    -0.8561101    0.1489910    -0.0123421   -0.4799085     0.0117526   -0.5276195    -0.8348532    0.0909049 
   5.065000000    -0.8569132    0.1481676    -0.0104446   -0.4803476     0.0120638   -0.5287588    -0.8356895    0.0913501 
   5.067500000    -0.8576581    0.1481782    -0.0092098   -0.4806756     0.0118084   -0.5297223    -0.8362818    0.0931412 
   5.070000000    -0.8585852    0.1480769    -0.0072154   -0.4810488     0.0119958   -0.5308723    -0.8368382    0.0950076 
   5.072500000    -0.8592446    0.1471079    -0.0062187   -0.4814351     0.0123859   -0.5320666    -0.8372626    0.0956229 
   5.075000000    -0.8598779    0.1463657    -0.0050759   -0.4823174     0.0123979   -0.5335315    -0.8379349    0.0972080 
   5.077500000    -0.8607519    0.1463830    -0.0033144   -0.4831085     0.0122089   -0.5349301    -0.8383083    0.0986024 
   5.080000000    -0.8609697    0.1458793    -0.0021012   -0.4839042     0.0118584   -0.5365153    -0.8392290    0.1002668 
   5.082500000    -0.8608488    0.1459852    -0.0005577   -0.4849180     0.0113608   -0.5377226    -0.8398643    0.1017821 
   5.085000000    -0.8610286    0.1458837    -0.0001653   -0.4859439     0.0112091   -0.5393010    -0.8404996    0.1040846 
   5.087500000    -0.8615794    0.1456436     0.0012262   -0.4874009     0.0106582   -0.5413010    -0.8412786    0.1053879 
   5.090000000    -0.8617358    0.1461081     0.0023539   -0.4886938     0.0100510   -0.5430796    -0.8422036    0.1069715 
   5.092500000    -0.8620038    0.1461950     0.0036142   -0.4900227     0.0094332   -0.5448835    -0.8428714    0.1090917 
   5.095000000    -0.8622991    0.1465195     0.0047446   -0.4918133     0.0084244   -0.5465734    -0.8434119    0.1099250 
   5.097500000    -0.8620813    0.1467331     0.0049494   -0.4934645     0.0078473   -0.5483183    -0.8439870    0.1111871 
   5.100000000    -0.8619086    0.1467361     0.0058580   -0.4953724     0.0075280   -0.5503674    -0.8450002    0.1132499 
   5.102500000    -0.8617123    0.1461298     0.0070519   -0.4975799     0.0066838   -0.5524505    -0.8456923    0.1147217 
   5.105000000    -0.8612895    0.1463386     0.0081454   -0.4990607     0.0057872   -0.5543060    -0.8465123    0.1160945 
   5.107500000    -0.8610520    0.1465177     0.0088339   -0.5009484     0.0045371   -0.5559862    -0.8468581    0.1181898 
   5.110000000    -0.8603111    0.1463191     0.0094580   -0.5030324     0.0039915   -0.5575984    -0.8480088    0.1191337 
   5.112500000    -0.8592780    0.1465427     0.0096932   -0.5049310     0.0030666   -0.5592224    -0.8492773    0.1216311 
   5.115000000    -0.8581363    0.1459004     0.0100669   -0.5067239     0.0015531   -0.5607077    -0.8499125    0.1235885 
   5.117500000    -0.8572605    0.1458202     0.0101878   -0.5085549     0.0005289   -0.5625457    -0.8506655    0.1255265 
   5.120000000    -0.8559638    0.1451370     0.0108862   -0.5102076    -0.0014020   -0.5635874    -0.8510605    0.1271290 
   5.122500000    -0.8544841    0.1452146     0.0105668   -0.5113077    -0.0027238   -0.5649889    -0.8515614    0.1290239 
   5.125000000    -0.8527758    0.1445820     0.0105434   -0.5127594    -0.0040842   -0.5661834    -0.8516781    0.1313598 
   5.127500000    -0.8510936    0.1440569     0.0104690   -0.5146284    -0.0057706   -0.5673084    -0.8519616    0.1327159 
   5.130000000    -0.8494101    0.1440040     0.0104974   -0.5161987    -0.0072604   -0.5681353    -0.8519344    0.1345333 
   5.132500000    -0.8469518    0.1441390     0.0104856   -0.5175305    -0.0094878   -0.5694134    -0.8529789    0.1365417 
   5.135000000    -0.8447839    0.1438330     0.0097200   -0.5185936    -0.0112380   -0.5703664    -0.8535166    0.1381855 
   5.137500000    -0.8435653    0.1437142     0.0099782   -0.5200679    -0.0126475   -0.5713041    -0.8536740    0.1393521 
   5.140000000    -0.8418608    0.1435404     0.0101989   -0.5208879    -0.0141718   -0.5722779    -0.8534954    0.1408544 
   5.142500000    -0.8405605    0.1440014     0.0096903   -0.5226949    -0.0159221   -0.5731481    -0.8533843    0.1422566 
   5.145000000    -0.8392063    0.1445916     0.0099784   -0.5238438    -0.0177307   -0.5738776    -0.8532249    0.1434999 
   5.147500000    -0.8375097    0.1452255     0.0097300   -0.5247453    -0.0193441   -0.5748166    -0.8524799    0.1443361 
   5.150000000    -0.8351851    0.1456118     0.0100574   -0.5255983    -0.0211321   -0.5752685    -0.8508697    0.1434789 
   5.152500000    -0.8338431    0.1467148     0.0097635   -0.5263044    -0.0228768   -0.5759890    -0.8499919    0.1436888 
   5.155000000    -0.8321149    0.1466790     0.0108993   -0.5275833    -0.0240660   -0.5765129    -0.8485507    0.1438432 
   5.157500000    -0.8310866    0.1473773     0.0113780   -0.5283929    -0.0252790   -0.5771176    -0.8473230    0.1441430 
   5.160000000    -0.8298299    0.1485123     0.0118562   -0.5299893    -0.0265351   -0.5774562    -0.8461707    0.1440856 
   5.162500000    -0.8282774    0.1494140     0.0125405   -0.5308155    -0.0273717   -0.5774386    -0.8436906    0.1438705 
   5.165000000    -0.8271293    0.1499532     0.0133120   -0.5318817    -0.0283876   -0.5781789    -0.8421998    0.1437292 
   5.167500000    -0.8254458    0.1509493     0.0146277   -0.5328183    -0.0291340   -0.5781159    -0.8400600    0.1431943 
   5.170000000    -0.8239057    0.1523008     0.0156090   -0.5342493    -0.0304516   -0.5780880    -0.8380702    0.1433299 
   5.172500000    -0.8226669    0.1538949     0.0165534   -0.5363302    -0.0315264   -0.5773303    -0.8359634    0.1431362 
   5.175000000    -0.8209502    0.1558000     0.0182966   -0.5375590    -0.0317556   -0.5774090    -0.8336297    0.1421731 
   5.177500000    -0.8193638    0.1574243     0.0198412   -0.5393653    -0.0325618   -0.5774103    -0.8316275    0.1413096 
   5.180000000    -0.8177451    0.1593156     0.0219225   -0.5411944    -0.0332084   -0.5768915    -0.8291562    0.1401778 
   5.182500000    -0.8157203    0.1609995     0.0234669   -0.5433078    -0.0337163   -0.5769185    -0.8268887    0.1391073 
   5.185000000    -0.8140731    0.1636076     0.0244571   -0.5463422    -0.0340579   -0.5769826    -0.8250864    0.1378667 
   5.187500000    -0.8121477    0.1651608     0.0259309   -0.5495982    -0.0344351   -0.5771862    -0.8245471    0.1360901 
   5.190000000    -0.8099098    0.1675088     0.0272368   -0.5528634    -0.0346561   -0.5776343    -0.8226187    0.1341336 
   5.192500000    -0.8074885    0.1686513     0.0285242   -0.5563629    -0.0350337   -0.5780190    -0.8224042    0.1320153 
   5.195000000    -0.8056694    0.1711141     0.0290499   -0.5604665    -0.0348001   -0.5788843    -0.8220927    0.1294867 
   5.197500000    -0.8039569    0.1729485     0.0294815   -0.5647539    -0.0356610   -0.5805670    -0.8223152    0.1271394 
   5.200000000    -0.8018091    0.1752470     0.0294347   -0.5695025    -0.0357103   -0.5821637    -0.8228087    0.1249729 
   5.202500000    -0.7996531    0.1772728     0.0297844   -0.5743759    -0.0363726   -0.5841218    -0.8238131    0.1234412 
   5.205000000    -0.7972955    0.1794472     0.0294116   -0.5795858    -0.0366784   -0.5859810    -0.8248454    0.1216620 
   5.207500000    -0.7945706    0.1812109     0.0276051   -0.5846480    -0.0378538   -0.5876220    -0.8255652    0.1211488 
   5.210000000    -0.7926945    0.1831252     0.0261653   -0.5896631    -0.0391170   -0.5896993    -0.8265482    0.1205962 
   5.212500000    -0.7904091    0.1846281     0.0239054   -0.5947997    -0.0408073   -0.5918253    -0.8267812    0.1208250 
   5.215000000    -0.7885971    0.1862502     0.0218641   -0.5999030    -0.0430579   -0.5939637    -0.8275332    0.1210396 
   5.217500000    -0.7859100    0.1872950     0.0176832   -0.6052177    -0.0453272   -0.5958036    -0.8278071    0.1218091 
   5.220000000    -0.7828141    0.1884580     0.0147751   -0.6096326    -0.0480291   -0.5973916    -0.8281851    0.1224749 
   5.222500000    -0.7796035    0.1891112     0.0101199   -0.6136308    -0.0512304   -0.5982749    -0.8269385    0.1232004 
   5.225000000    -0.7775458    0.1892912     0.0061146   -0.6170684    -0.0537963   -0.5996379    -0.8272186    0.1234872 
   5.227500000    -0.7750044    0.1898095     0.0010565   -0.6205959    -0.0571086   -0.6004368    -0.8263922    0.1243724 
   5.230000000    -0.7724168    0.1900647    -0.0039867   -0.6233286    -0.0603119   -0.6008725    -0.8255903    0.1256509 
   5.232500000    -0.7693396    0.1897488    -0.0094870   -0.6254401    -0.0638838   -0.6003296    -0.8236719    0.1255784 
   5.235000000    -0.7670605    0.1903212    -0.0145087   -0.6270028    -0.0670680   -0.6001247    -0.8225907    0.1260618 
   5.237500000    -0.7656448    0.1910321    -0.0197192   -0.6279700    -0.0698506   -0.5994409    -0.8211398    0.1263801 
   5.240000000    -0.7648276    0.1908585    -0.0245273   -0.6285428    -0.0732837   -0.5984430    -0.8198322    0.1272735 
   5.242500000    -0.7629297    0.1917435    -0.0300964   -0.6287298    -0.0764144   -0.5977032    -0.8192832    0.1281836 
   5.245000000    -0.7604409    0.1931314    -0.0348325   -0.6285851    -0.0797159   -0.5966337    -0.8184257    0.1281609 
   5.247500000    -0.7582653    0.1944483    -0.0393778   -0.6283602    -0.0826515   -0.5953133    -0.8176135    0.1287062 
   5.250000000    -0.7567412    0.1955696    -0.0441341   -0.6276750    -0.0852519   -0.5937309    -0.8169965    0.1298593 
   5.252500000    -0.7564571    0.1981896    -0.0480672   -0.6268786    -0.0878711   -0.5922453    -0.8167429    0.1306740 
   5.255000000    -0.7546688    0.2000229    -0.0516454   -0.6255313    -0.0898394   -0.5903510    -0.8157222    0.1306562 
   5.257500000    -0.7518302    0.2013515    -0.0562158   -0.6236949    -0.0920913   -0.5882296    -0.8145142    0.1317594 
   5.260000000    -0.7487563    0.2038834    -0.0595276   -0.6220637    -0.0941937   -0.5861272    -0.8135273    0.1327452 
   5.262500000    -0.7461323    0.2058439    -0.0620078   -0.6195874    -0.0967598   -0.5839155    -0.8120080    0.1331794 
   5.265000000    -0.7445878    0.2085832    -0.0639966   -0.6173021    -0.0977606   -0.5814536    -0.8104614    0.1330918 
   5.267500000    -0.7431026    0.2109052    -0.0667878   -0.6159993    -0.0990564   -0.5789765    -0.8087345    0.1333756 
   5.270000000    -0.7399837    0.2136901    -0.0683540   -0.6138684    -0.0995325   -0.5762686    -0.8074914    0.1334774 
   5.272500000    -0.7364034    0.2155875    -0.0694945   -0.6115834    -0.1002515   -0.5736416    -0.8051811    0.1336229 
   5.275000000    -0.7328766    0.2173050    -0.0704436   -0.6090409    -0.0998221   -0.5705497    -0.8024349    0.1329330 
   5.277500000    -0.7287488    0.2184826    -0.0712464   -0.6063688    -0.0995741   -0.5673510    -0.7994390    0.1325955 
   5.280000000    -0.7250944    0.2202152    -0.0713251   -0.6035336    -0.0992515   -0.5647812    -0.7972847    0.1316654 
   5.282500000    -0.7216366    0.2218162    -0.0711719   -0.6021354    -0.0982965   -0.5620364    -0.7959589    0.1304086 
   5.285000000    -0.7189602    0.2232369    -0.0705489   -0.6005004    -0.0962289   -0.5601486    -0.7936537    0.1280397 
   5.287500000    -0.7159624    0.2237471    -0.0694635   -0.5992188    -0.0942659   -0.5580171    -0.7920603    0.1258336 
   5.290000000    -0.7118457    0.2237083    -0.0676584   -0.5980067    -0.0915502   -0.5564706    -0.7896342    0.1239242 
   5.292500000    -0.7072921    0.2237357    -0.0664703   -0.5975783    -0.0885231   -0.5551055    -0.7874817    0.1210363 
   5.295000000    -0.7037851    0.2235775    -0.0650259   -0.5979014    -0.0858002   -0.5548175    -0.7850105    0.1188352 
   5.297500000    -0.7004618    0.2237646    -0.0632033   -0.5981165    -0.0829792   -0.5549998    -0.7839428    0.1161605 
   5.300000000    -0.6978607    0.2231193    -0.0614524   -0.5993448    -0.0801791   -0.5559132    -0.7835409    0.1128660 
   5.302500000    -0.6955391    0.2228306    -0.0601152   -0.6011857    -0.0771495   -0.5578912    -0.7836014    0.1104496 
   5.305000000    -0.6939467    0.2221373    -0.0588652   -0.6039168    -0.0747506   -0.5602692    -0.7827573    0.1079611 
   5.307500000    -0.6927789    0.2221301    -0.0584389   -0.6072984    -0.0728064   -0.5636606    -0.7830799    0.1048985 
   5.310000000    -0.6923231    0.2215550    -0.0580044   -0.6112110    -0.0715902   -0.5673511    -0.7843451    0.1027880 
   5.312500000    -0.6925082    0.2212733    -0.0585143   -0.6148193    -0.0713791   -0.5717974    -0.7856352    0.1012408 
   5.315000000    -0.6929183    0.2210953    -0.0592327   -0.6196619    -0.0717444   -0.5762907    -0.7880123    0.1001125 
   5.317500000    -0.6932703    0.2216430    -0.0613480   -0.6246407    -0.0731808   -0.5810993    -0.7900232    0.0996809 
   5.320000000    -0.6939559    0.2222022    -0.0639506   -0.6298150    -0.0753222   -0.5856712    -0.7918260    0.0995622 
   5.322500000    -0.6948088    0.2229363    -0.0672642   -0.6349090    -0.0784401   -0.5902277    -0.7929841    0.1001608 
   5.325000000    -0.6959302    0.2246607    -0.0709258   -0.6401639    -0.0829211   -0.5943844    -0.7930775    0.1013277 
   5.327500000    -0.6964649    0.2260651    -0.0773531   -0.6448233    -0.0878318   -0.5974024    -0.7929065    0.1035891 
   5.330000000    -0.6966512    0.2277350    -0.0836116   -0.6486115    -0.0933804   -0.5997166    -0.7917483    0.1056240 
   5.332500000    -0.6964893    0.2285718    -0.0907511   -0.6511706    -0.0996116   -0.6011055    -0.7894564    0.1076728 
   5.335000000    -0.6962236    0.2291658    -0.0978328   -0.6527241    -0.1062796   -0.6007971    -0.7869362    0.1085807 
   5.337500000    -0.6962699    0.2299060    -0.1064226   -0.6531922    -0.1120199   -0.5999784    -0.7842457    0.1092428 
   5.340000000    -0.6955003    0.2302791    -0.1148713   -0.6533256    -0.1183504   -0.5988019    -0.7807702    0.1096233 
   5.342500000    -0.6958328    0.2311015    -0.1227510   -0.6518524    -0.1241088   -0.5963711    -0.7770581    0.1091181 
   5.345000000    -0.6966972    0.2312071    -0.1303218   -0.6491292    -0.1294975   -0.5924508    -0.7735001    0.1079564 
   5.347500000    -0.6974409    0.2311110    -0.1375593   -0.6459601    -0.1336675   -0.5888203    -0.7696297    0.1072723 
   5.350000000    -0.6983249    0.2309161    -0.1440877   -0.6412292    -0.1374667   -0.5847413    -0.7671267    0.1053548 
   5.352500000    -0.6993815    0.2310310    -0.1495037   -0.6365772    -0.1409269   -0.5799668    -0.7651482    0.1028025 
   5.355000000    -0.7003453    0.2316561    -0.1556103   -0.6323863    -0.1442725   -0.5753762    -0.7631930    0.1004308 
   5.357500000    -0.7021349    0.2327285    -0.1597356   -0.6277377    -0.1465815   -0.5706246    -0.7616511    0.0984233 
   5.360000000    -0.7029344    0.2343314    -0.1635822   -0.6230316    -0.1484157   -0.5658019    -0.7601016    0.0970611 
   5.362500000    -0.7049020    0.2351750    -0.1673178   -0.6174335    -0.1493594   -0.5612867    -0.7595081    0.0954074 
   5.365000000    -0.7064905    0.2355888    -0.1700164   -0.6122803    -0.1505682   -0.5566579    -0.7585248    0.0939938 
   5.367500000    -0.7084147    0.2362772    -0.1717182   -0.6071504    -0.1504036   -0.5521100    -0.7582714    0.0924924 
   5.370000000    -0.7102153    0.2376146    -0.1731350   -0.6025259    -0.1508677   -0.5478607    -0.7587228    0.0912650 
   5.372500000    -0.7117800    0.2391541    -0.1749387   -0.5980923    -0.1505246   -0.5431401    -0.7586740    0.0894143 
   5.375000000    -0.7128961    0.2411055    -0.1758213   -0.5933566    -0.1499687   -0.5388367    -0.7585918    0.0896658 
   5.377500000    -0.7138998    0.2430600    -0.1762362   -0.5886309    -0.1493871   -0.5346776    -0.7588651    0.0892939 
   5.380000000    -0.7142338    0.2448999    -0.1762348   -0.5839872    -0.1479194   -0.5308058    -0.7597177    0.0899652 
   5.382500000    -0.7156571    0.2457483    -0.1762254   -0.5792603    -0.1457964   -0.5269021    -0.7604061    0.0889720 
   5.385000000    -0.7172243    0.2475672    -0.1756576   -0.5750809    -0.1435952   -0.5231559    -0.7608662    0.0900307 
   5.387500000    -0.7173937    0.2490674    -0.1750571   -0.5706992    -0.1411719   -0.5194109    -0.7613061    0.0901377 
