! MS46122B
! 1919307/90821646
! 7/29/2022 1:04:44 PM
! C:\USERS\PC_\DESKTOP\MEDICIONES\BANCHA ESTRECHA\55_6GHZ\S11_S21_ABS12_502CL.S2P
! CHANNEL.1
! TR.MEASUREMENT
! CORRECTED.DATA
# GHZ S RI R 50.0
! FREQ.GHZ         S11RE         S11IM         S21RE         S21IM         S12RE         S12IM         S22RE         S22IM         
!; PortSelection: Port_12
   5.500000000    -0.7863717    0.1489409    -0.1331724   -0.5645540    -0.1285702   -0.5649381    -0.7437434    0.0335068 
   5.502500000    -0.7851345    0.1493383    -0.1337499   -0.5656334    -0.1272283   -0.5641221    -0.7446616    0.0342426 
   5.505000000    -0.7855518    0.1507978    -0.1323670   -0.5655880    -0.1253032   -0.5632213    -0.7452933    0.0351650 
   5.507500000    -0.7858734    0.1517572    -0.1303924   -0.5652683    -0.1238480   -0.5628199    -0.7472116    0.0362354 
   5.510000000    -0.7864633    0.1526498    -0.1287755   -0.5650699    -0.1225586   -0.5622736    -0.7489807    0.0375840 
   5.512500000    -0.7874848    0.1541933    -0.1280306   -0.5643929    -0.1214050   -0.5622261    -0.7504361    0.0396329 
   5.515000000    -0.7880382    0.1557121    -0.1269544   -0.5648829    -0.1196300   -0.5616045    -0.7520698    0.0414153 
   5.517500000    -0.7883551    0.1568365    -0.1254825   -0.5646468    -0.1183047   -0.5615011    -0.7538670    0.0444682 
   5.520000000    -0.7886406    0.1587846    -0.1237696   -0.5644421    -0.1169468   -0.5618141    -0.7557675    0.0462251 
   5.522500000    -0.7890495    0.1601115    -0.1225705   -0.5646037    -0.1155503   -0.5622937    -0.7580090    0.0485979 
   5.525000000    -0.7890069    0.1621545    -0.1210325   -0.5649749    -0.1146951   -0.5620164    -0.7595900    0.0513734 
   5.527500000    -0.7896559    0.1635034    -0.1207189   -0.5646750    -0.1124204   -0.5625678    -0.7611339    0.0542682 
   5.530000000    -0.7894651    0.1655339    -0.1193933   -0.5651042    -0.1115300   -0.5628986    -0.7629079    0.0569698 
   5.532500000    -0.7896299    0.1673563    -0.1177859   -0.5654124    -0.1099208   -0.5628092    -0.7644709    0.0602731 
   5.535000000    -0.7897690    0.1684809    -0.1162362   -0.5655868    -0.1084234   -0.5632729    -0.7659870    0.0633188 
   5.537500000    -0.7899500    0.1706954    -0.1146268   -0.5657565    -0.1067806   -0.5635414    -0.7678323    0.0667298 
   5.540000000    -0.7899630    0.1722306    -0.1131634   -0.5663954    -0.1047632   -0.5639791    -0.7692828    0.0696997 
   5.542500000    -0.7905095    0.1741123    -0.1123783   -0.5665811    -0.1036771   -0.5645949    -0.7707478    0.0729097 
   5.545000000    -0.7900440    0.1750526    -0.1109742   -0.5670557    -0.1021528   -0.5654482    -0.7723415    0.0759565 
   5.547500000    -0.7892658    0.1765348    -0.1097508   -0.5672203    -0.1004454   -0.5660974    -0.7734922    0.0786642 
   5.550000000    -0.7888188    0.1777609    -0.1083604   -0.5676604    -0.0986791   -0.5664434    -0.7739868    0.0817118 
   5.552500000    -0.7893177    0.1788676    -0.1070262   -0.5680550    -0.0974925   -0.5668302    -0.7745191    0.0850718 
   5.555000000    -0.7902322    0.1799248    -0.1052368   -0.5682870    -0.0961174   -0.5678441    -0.7751109    0.0884376 
   5.557500000    -0.7907200    0.1809634    -0.1049327   -0.5686577    -0.0949696   -0.5680473    -0.7757419    0.0910343 
   5.560000000    -0.7891347    0.1820525    -0.1034384   -0.5687785    -0.0934988   -0.5686995    -0.7764736    0.0941773 
   5.562500000    -0.7873896    0.1837005    -0.1025223   -0.5690246    -0.0920721   -0.5692871    -0.7776154    0.0969583 
   5.565000000    -0.7875962    0.1849936    -0.1015074   -0.5694469    -0.0906742   -0.5700132    -0.7780197    0.0998654 
   5.567500000    -0.7883580    0.1847944    -0.1002594   -0.5700498    -0.0895349   -0.5706809    -0.7784275    0.1025749 
   5.570000000    -0.7879086    0.1841847    -0.0996518   -0.5706115    -0.0883121   -0.5713714    -0.7790776    0.1056218 
   5.572500000    -0.7874315    0.1856419    -0.0982361   -0.5711941    -0.0876724   -0.5721816    -0.7794205    0.1082611 
   5.575000000    -0.7875491    0.1872516    -0.0977684   -0.5719646    -0.0859712   -0.5729073    -0.7799115    0.1104153 
   5.577500000    -0.7878683    0.1884718    -0.0961018   -0.5725818    -0.0851756   -0.5739639    -0.7805080    0.1127131 
   5.580000000    -0.7876328    0.1888463    -0.0950657   -0.5736492    -0.0845166   -0.5749335    -0.7805938    0.1150229 
   5.582500000    -0.7872068    0.1899303    -0.0948255   -0.5743793    -0.0834667   -0.5761622    -0.7807329    0.1174425 
   5.585000000    -0.7871867    0.1907001    -0.0933198   -0.5755563    -0.0823798   -0.5769387    -0.7815223    0.1193015 
   5.587500000    -0.7871825    0.1912568    -0.0919037   -0.5763587    -0.0814054   -0.5781172    -0.7814888    0.1209376 
   5.590000000    -0.7869680    0.1921713    -0.0903528   -0.5773427    -0.0801427   -0.5793511    -0.7817153    0.1232510 
   5.592500000    -0.7874888    0.1934711    -0.0893048   -0.5782992    -0.0786812   -0.5804074    -0.7811368    0.1247947 
   5.595000000    -0.7868930    0.1944734    -0.0874051   -0.5791752    -0.0774520   -0.5816357    -0.7811078    0.1269685 
   5.597500000    -0.7869890    0.1953945    -0.0870942   -0.5804486    -0.0766088   -0.5827173    -0.7807451    0.1285299 
   5.600000000    -0.7871138    0.1958646    -0.0855041   -0.5811915    -0.0751445   -0.5838951    -0.7807832    0.1294350 
   5.602500000    -0.7868593    0.1966677    -0.0840392   -0.5821380    -0.0738964   -0.5848812    -0.7805737    0.1307991 
   5.605000000    -0.7864436    0.1976006    -0.0823799   -0.5834513    -0.0724354   -0.5860590    -0.7804817    0.1324003 
   5.607500000    -0.7862943    0.1990749    -0.0812640   -0.5843610    -0.0714502   -0.5872985    -0.7802908    0.1339026 
   5.610000000    -0.7861310    0.2002714    -0.0802022   -0.5854159    -0.0702774   -0.5882913    -0.7798662    0.1349469 
   5.612500000    -0.7862139    0.2010290    -0.0797119   -0.5869013    -0.0692693   -0.5894341    -0.7800287    0.1357804 
   5.615000000    -0.7857451    0.2023702    -0.0786878   -0.5883934    -0.0685129   -0.5907585    -0.7804889    0.1369766 
   5.617500000    -0.7850704    0.2038449    -0.0773246   -0.5894473    -0.0673627   -0.5920947    -0.7800488    0.1384331 
   5.620000000    -0.7846580    0.2058085    -0.0767417   -0.5909219    -0.0667128   -0.5935121    -0.7788852    0.1406937 
   5.622500000    -0.7841366    0.2077104    -0.0760700   -0.5924402    -0.0648296   -0.5946153    -0.7780643    0.1420604 
   5.625000000    -0.7840092    0.2094716    -0.0745861   -0.5940260    -0.0655336   -0.5957332    -0.7776176    0.1435415 
   5.627500000    -0.7828024    0.2110837    -0.0740931   -0.5958532    -0.0643347   -0.5973662    -0.7777328    0.1451418 
   5.630000000    -0.7818493    0.2128783    -0.0730700   -0.5976033    -0.0634062   -0.5990196    -0.7771438    0.1469636 
   5.632500000    -0.7811449    0.2156045    -0.0724660   -0.5993453    -0.0627335   -0.6008934    -0.7763265    0.1488940 
   5.635000000    -0.7804531    0.2184135    -0.0711073   -0.6011483    -0.0616965   -0.6028414    -0.7759103    0.1507529 
   5.637500000    -0.7798043    0.2205785    -0.0707665   -0.6030777    -0.0612328   -0.6046890    -0.7759702    0.1524788 
   5.640000000    -0.7790113    0.2230562    -0.0705388   -0.6055920    -0.0604900   -0.6062455    -0.7762015    0.1552605 
   5.642500000    -0.7781225    0.2253015    -0.0694950   -0.6073003    -0.0600379   -0.6084449    -0.7760493    0.1568744 
   5.645000000    -0.7776761    0.2283942    -0.0683862   -0.6093674    -0.0597481   -0.6108005    -0.7758693    0.1591319 
   5.647500000    -0.7771083    0.2309918    -0.0677536   -0.6116399    -0.0590487   -0.6130130    -0.7749625    0.1614585 
   5.650000000    -0.7754012    0.2340888    -0.0671563   -0.6135871    -0.0583613   -0.6153628    -0.7749014    0.1641775 
   5.652500000    -0.7746663    0.2369218    -0.0670691   -0.6153324    -0.0577388   -0.6177461    -0.7750089    0.1669538 
   5.655000000    -0.7739002    0.2388826    -0.0665962   -0.6180913    -0.0571898   -0.6199301    -0.7752700    0.1695738 
   5.657500000    -0.7731388    0.2415839    -0.0657264   -0.6201349    -0.0568022   -0.6219102    -0.7753319    0.1716841 
   5.660000000    -0.7720095    0.2439427    -0.0654242   -0.6221231    -0.0567911   -0.6245784    -0.7756327    0.1744477 
   5.662500000    -0.7705887    0.2461559    -0.0647058   -0.6241602    -0.0565855   -0.6267577    -0.7754998    0.1770920 
   5.665000000    -0.7690670    0.2486729    -0.0643691   -0.6261929    -0.0558252   -0.6290281    -0.7762489    0.1791336 
   5.667500000    -0.7672489    0.2507779    -0.0653226   -0.6283335    -0.0553610   -0.6311533    -0.7762072    0.1820860 
   5.670000000    -0.7663497    0.2525397    -0.0646643   -0.6311187    -0.0550138   -0.6334955    -0.7767374    0.1835069 
   5.672500000    -0.7646874    0.2545750    -0.0652284   -0.6330712    -0.0546008   -0.6358061    -0.7771156    0.1861027 
   5.675000000    -0.7628821    0.2564390    -0.0651390   -0.6359503    -0.0558876   -0.6381663    -0.7769254    0.1885727 
   5.677500000    -0.7611813    0.2589247    -0.0654577   -0.6379156    -0.0557776   -0.6405021    -0.7767922    0.1912958 
   5.680000000    -0.7594939    0.2608123    -0.0654654   -0.6404548    -0.0561461   -0.6428806    -0.7765737    0.1939885 
   5.682500000    -0.7576743    0.2633009    -0.0672985   -0.6430359    -0.0571233   -0.6452094    -0.7770175    0.1965068 
   5.685000000    -0.7554118    0.2655371    -0.0676674   -0.6453007    -0.0575604   -0.6480690    -0.7770517    0.1981274 
   5.687500000    -0.7535694    0.2680343    -0.0678178   -0.6478812    -0.0582072   -0.6508134    -0.7765533    0.2004397 
   5.690000000    -0.7519126    0.2696792    -0.0688368   -0.6504542    -0.0594999   -0.6526420    -0.7757641    0.2028444 
   5.692500000    -0.7497366    0.2716244    -0.0686406   -0.6528441    -0.0606863   -0.6551675    -0.7749529    0.2048724 
   5.695000000    -0.7479457    0.2731338    -0.0690096   -0.6554296    -0.0611917   -0.6577340    -0.7742575    0.2062998 
   5.697500000    -0.7464248    0.2740666    -0.0706255   -0.6577836    -0.0620682   -0.6605685    -0.7736029    0.2083154 
   5.700000000    -0.7449311    0.2753054    -0.0711954   -0.6601803    -0.0635275   -0.6633982    -0.7729896    0.2101281 
   5.702500000    -0.7427174    0.2760338    -0.0716077   -0.6624852    -0.0643563   -0.6660493    -0.7716916    0.2122923 
   5.705000000    -0.7407414    0.2768958    -0.0727582   -0.6645259    -0.0657963   -0.6684753    -0.7701373    0.2138580 
   5.707500000    -0.7386075    0.2777892    -0.0737432   -0.6662734    -0.0673599   -0.6708748    -0.7687758    0.2156384 
   5.710000000    -0.7368792    0.2787874    -0.0740636   -0.6684011    -0.0682147   -0.6728432    -0.7664360    0.2167743 
   5.712500000    -0.7345356    0.2798191    -0.0760091   -0.6703174    -0.0688990   -0.6749184    -0.7645807    0.2188166 
   5.715000000    -0.7323901    0.2804623    -0.0765433   -0.6725302    -0.0706657   -0.6772899    -0.7623286    0.2205013 
   5.717500000    -0.7301863    0.2806952    -0.0776504   -0.6748206    -0.0718131   -0.6793349    -0.7605328    0.2217145 
   5.720000000    -0.7273248    0.2812366    -0.0793032   -0.6763268    -0.0719347   -0.6816046    -0.7586723    0.2228314 
   5.722500000    -0.7249777    0.2813528    -0.0788289   -0.6780045    -0.0749955   -0.6825998    -0.7574869    0.2243239 
   5.725000000    -0.7226266    0.2818978    -0.0812533   -0.6790352    -0.0749847   -0.6843108    -0.7547384    0.2255557 
   5.727500000    -0.7200193    0.2819462    -0.0827330   -0.6810631    -0.0767352   -0.6857933    -0.7518656    0.2259042 
   5.730000000    -0.7177182    0.2819892    -0.0841315   -0.6831499    -0.0779877   -0.6876006    -0.7492368    0.2265272 
   5.732500000    -0.7150043    0.2819563    -0.0850006   -0.6851726    -0.0792321   -0.6891928    -0.7463009    0.2269299 
   5.735000000    -0.7127751    0.2824415    -0.0863705   -0.6870601    -0.0815136   -0.6910846    -0.7437540    0.2279514 
   5.737500000    -0.7104236    0.2830973    -0.0881941   -0.6896107    -0.0825393   -0.6927416    -0.7407031    0.2281208 
   5.740000000    -0.7081258    0.2833602    -0.0897845   -0.6910534    -0.0842283   -0.6948204    -0.7372710    0.2280950 
   5.742500000    -0.7058360    0.2833138    -0.0906529   -0.6932694    -0.0858690   -0.6964730    -0.7338348    0.2280958 
   5.745000000    -0.7035183    0.2833757    -0.0915213   -0.6956387    -0.0877736   -0.6984312    -0.7299451    0.2284904 
   5.747500000    -0.7010998    0.2842369    -0.0929069   -0.6973058    -0.0895598   -0.7003120    -0.7273350    0.2292568 
   5.750000000    -0.6990952    0.2849134    -0.0947962   -0.7002150    -0.0905282   -0.7023131    -0.7241409    0.2294661 
   5.752500000    -0.6967269    0.2850986    -0.0965358   -0.7017201    -0.0924403   -0.7043039    -0.7206184    0.2289944 
   5.755000000    -0.6943998    0.2851122    -0.0975385   -0.7038637    -0.0941000   -0.7059872    -0.7172852    0.2284779 
   5.757500000    -0.6919624    0.2849670    -0.0987024   -0.7058715    -0.0942965   -0.7080503    -0.7139810    0.2287837 
   5.760000000    -0.6895102    0.2859663    -0.0995726   -0.7077817    -0.0961033   -0.7103968    -0.7110177    0.2285248 
   5.762500000    -0.6872907    0.2863121    -0.1013246   -0.7106141    -0.0974197   -0.7125940    -0.7082728    0.2279885 
   5.765000000    -0.6847090    0.2866715    -0.1033390   -0.7118423    -0.0989803   -0.7143509    -0.7052106    0.2272695 
   5.767500000    -0.6820492    0.2868235    -0.1048257   -0.7137632    -0.0998418   -0.7160325    -0.7021695    0.2261794 
   5.770000000    -0.6795711    0.2875864    -0.1055674   -0.7157896    -0.1028990   -0.7181075    -0.6995589    0.2258438 
   5.772500000    -0.6772484    0.2880858    -0.1089816   -0.7171384    -0.1018119   -0.7197366    -0.6967941    0.2251074 
   5.775000000    -0.6741896    0.2894984    -0.1109406   -0.7187952    -0.1054728   -0.7216066    -0.6946548    0.2245921 
   5.777500000    -0.6715018    0.2900630    -0.1131337   -0.7204859    -0.1079110   -0.7231907    -0.6920835    0.2241756 
   5.780000000    -0.6688866    0.2908092    -0.1158813   -0.7223969    -0.1106780   -0.7252905    -0.6900302    0.2234904 
   5.782500000    -0.6662964    0.2916097    -0.1176542   -0.7242553    -0.1131310   -0.7267117    -0.6886391    0.2228251 
   5.785000000    -0.6642807    0.2930340    -0.1203119   -0.7261193    -0.1156607   -0.7285305    -0.6868768    0.2221688 
   5.787500000    -0.6617591    0.2936178    -0.1230191   -0.7271335    -0.1184182   -0.7301660    -0.6850015    0.2207104 
   5.790000000    -0.6586865    0.2944084    -0.1260306   -0.7289891    -0.1217749   -0.7318376    -0.6829460    0.2200436 
   5.792500000    -0.6550227    0.2955531    -0.1297680   -0.7304562    -0.1239384   -0.7336625    -0.6809692    0.2186690 
   5.795000000    -0.6523347    0.2967067    -0.1314317   -0.7321578    -0.1267293   -0.7351729    -0.6788418    0.2182865 
   5.797500000    -0.6496313    0.2979709    -0.1346734   -0.7338712    -0.1298408   -0.7367027    -0.6771319    0.2170788 
   5.800000000    -0.6465529    0.2986209    -0.1380067   -0.7345527    -0.1334068   -0.7382312    -0.6754711    0.2164039 
   5.802500000    -0.6435740    0.2997754    -0.1403813   -0.7362177    -0.1360682   -0.7390326    -0.6738650    0.2150443 
   5.805000000    -0.6407362    0.3000065    -0.1439689   -0.7375271    -0.1387698   -0.7400005    -0.6726070    0.2136602 
   5.807500000    -0.6375473    0.3011856    -0.1468148   -0.7383530    -0.1424637   -0.7406614    -0.6704730    0.2122167 
   5.810000000    -0.6339192    0.3018457    -0.1503280   -0.7387363    -0.1442061   -0.7412791    -0.6687678    0.2106281 
   5.812500000    -0.6302195    0.3025281    -0.1518862   -0.7397577    -0.1475512   -0.7415544    -0.6669394    0.2098793 
   5.815000000    -0.6268267    0.3025844    -0.1551331   -0.7396981    -0.1509386   -0.7421568    -0.6648081    0.2083482 
   5.817500000    -0.6236980    0.3027182    -0.1579907   -0.7392860    -0.1533650   -0.7423155    -0.6625398    0.2067050 
   5.820000000    -0.6203215    0.3027529    -0.1605773   -0.7396060    -0.1568737   -0.7417573    -0.6604251    0.2056745 
   5.822500000    -0.6161396    0.3023961    -0.1618420   -0.7399892    -0.1601925   -0.7411510    -0.6586034    0.2042390 
   5.825000000    -0.6129930    0.3021058    -0.1670119   -0.7395807    -0.1591241   -0.7412533    -0.6566479    0.2016518 
   5.827500000    -0.6092604    0.3019551    -0.1679996   -0.7395644    -0.1639284   -0.7397250    -0.6549005    0.2002093 
   5.830000000    -0.6048888    0.3013373    -0.1705268   -0.7387868    -0.1663233   -0.7394941    -0.6523818    0.1983697 
   5.832500000    -0.6004559    0.3004816    -0.1726548   -0.7381485    -0.1700754   -0.7386175    -0.6497671    0.1963938 
   5.835000000    -0.5968067    0.2996972    -0.1765583   -0.7377563    -0.1717388   -0.7378018    -0.6476213    0.1944552 
   5.837500000    -0.5934048    0.2988420    -0.1796716   -0.7364477    -0.1740181   -0.7369286    -0.6452501    0.1929120 
   5.840000000    -0.5901055    0.2968829    -0.1809377   -0.7364680    -0.1761500   -0.7361408    -0.6431502    0.1909098 
   5.842500000    -0.5866106    0.2954953    -0.1822763   -0.7362777    -0.1777287   -0.7357436    -0.6406154    0.1883988 
   5.845000000    -0.5837657    0.2936126    -0.1852947   -0.7356148    -0.1811732   -0.7353174    -0.6388125    0.1866242 
   5.847500000    -0.5807974    0.2917917    -0.1869879   -0.7364501    -0.1817761   -0.7353565    -0.6366687    0.1838158 
   5.850000000    -0.5780883    0.2899333    -0.1895400   -0.7362565    -0.1840172   -0.7351917    -0.6347732    0.1815699 
   5.852500000    -0.5758961    0.2881756    -0.1913024   -0.7357006    -0.1851204   -0.7350411    -0.6332325    0.1798833 
   5.855000000    -0.5737525    0.2860705    -0.1931429   -0.7360469    -0.1870261   -0.7353818    -0.6316283    0.1773335 
   5.857500000    -0.5717598    0.2838100    -0.1943738   -0.7366551    -0.1887359   -0.7354580    -0.6298394    0.1752123 
   5.860000000    -0.5700406    0.2819615    -0.1977588   -0.7369075    -0.1899454   -0.7355739    -0.6284809    0.1730702 
   5.862500000    -0.5684379    0.2801167    -0.1995364   -0.7370045    -0.1939531   -0.7358649    -0.6264846    0.1717841 
   5.865000000    -0.5674756    0.2778546    -0.2018796   -0.7366706    -0.1925793   -0.7364824    -0.6240238    0.1690862 
   5.867500000    -0.5663769    0.2755773    -0.2020228   -0.7371790    -0.1968611   -0.7365852    -0.6220711    0.1666722 
   5.870000000    -0.5650475    0.2736562    -0.2052714   -0.7376119    -0.1975912   -0.7374272    -0.6200893    0.1639213 
   5.872500000    -0.5642440    0.2715323    -0.2060342   -0.7379434    -0.2004399   -0.7372958    -0.6178702    0.1619049 
   5.875000000    -0.5630976    0.2697672    -0.2089360   -0.7382147    -0.2013531   -0.7372709    -0.6163843    0.1606969 
   5.877500000    -0.5624462    0.2684168    -0.2106875   -0.7378891    -0.2044335   -0.7379200    -0.6148413    0.1587158 
   5.880000000    -0.5614096    0.2671002    -0.2142651   -0.7378384    -0.2072054   -0.7377167    -0.6128320    0.1572537 
   5.882500000    -0.5603755    0.2661637    -0.2176728   -0.7381353    -0.2103544   -0.7380701    -0.6109164    0.1553015 
   5.885000000    -0.5597383    0.2647452    -0.2197856   -0.7387224    -0.2130618   -0.7381594    -0.6091549    0.1531401 
   5.887500000    -0.5591908    0.2630415    -0.2226652   -0.7387552    -0.2163321   -0.7380316    -0.6070552    0.1512734 
   5.890000000    -0.5588995    0.2615640    -0.2257618   -0.7381776    -0.2197331   -0.7375100    -0.6055012    0.1490638 
