! MS46122B
! 1919307/90821646
! 7/29/2022 1:50:29 PM
! C:\USERS\PC_\DESKTOP\MEDICIONES\BANCHA ESTRECHA\6_65_GHZ\S11_S21_ABS12_502CL.S2P
! CHANNEL.1
! TR.MEASUREMENT
! CORRECTED.DATA
# GHZ S RI R 50.0
! FREQ.GHZ         S11RE         S11IM         S21RE         S21IM         S12RE         S12IM         S22RE         S22IM         
!; PortSelection: Port_12
   6.000000000    -0.6147547    0.1910433    -0.3112925   -0.6681854    -0.3020933   -0.6649209    -0.5958794    0.1606818 
   6.002500000    -0.6151041    0.1932812    -0.3100900   -0.6674887    -0.3023703   -0.6634322    -0.5963687    0.1606934 
   6.005000000    -0.6168247    0.1935338    -0.3107003   -0.6659011    -0.3034889   -0.6618055    -0.5965258    0.1604316 
   6.007500000    -0.6183712    0.1930489    -0.3105482   -0.6637973    -0.3046204   -0.6600118    -0.5969556    0.1603263 
   6.010000000    -0.6201704    0.1921717    -0.3113131   -0.6618623    -0.3053082   -0.6585284    -0.5972574    0.1597216 
   6.012500000    -0.6218550    0.1918358    -0.3125395   -0.6600644    -0.3062287   -0.6567875    -0.5974753    0.1601384 
   6.015000000    -0.6234828    0.1905651    -0.3124051   -0.6582566    -0.3069511   -0.6547822    -0.5972248    0.1606897 
   6.017500000    -0.6252331    0.1896905    -0.3129107   -0.6571815    -0.3080039   -0.6529056    -0.5980119    0.1610178 
   6.020000000    -0.6269596    0.1893279    -0.3129904   -0.6553543    -0.3084617   -0.6506612    -0.5980734    0.1607282 
   6.022500000    -0.6286348    0.1885519    -0.3130307   -0.6530987    -0.3087338   -0.6489981    -0.5984892    0.1607903 
   6.025000000    -0.6307069    0.1886935    -0.3130395   -0.6515757    -0.3090786   -0.6471790    -0.5991129    0.1608855 
   6.027500000    -0.6324292    0.1882938    -0.3140106   -0.6492716    -0.3092666   -0.6451322    -0.5994482    0.1606952 
   6.030000000    -0.6343086    0.1874439    -0.3134909   -0.6475263    -0.3088868   -0.6431499    -0.5994413    0.1609874 
   6.032500000    -0.6366788    0.1870724    -0.3135970   -0.6459160    -0.3088641   -0.6414236    -0.5994277    0.1607401 
   6.035000000    -0.6382310    0.1867975    -0.3134595   -0.6445667    -0.3087423   -0.6392100    -0.6000581    0.1602899 
   6.037500000    -0.6396598    0.1861738    -0.3129868   -0.6426383    -0.3082765   -0.6370760    -0.6012479    0.1602598 
   6.040000000    -0.6414449    0.1864266    -0.3137465   -0.6401391    -0.3073142   -0.6352573    -0.6022006    0.1601485 
   6.042500000    -0.6429741    0.1864308    -0.3123644   -0.6386182    -0.3066680   -0.6330642    -0.6030511    0.1591196 
   6.045000000    -0.6439826    0.1860113    -0.3108987   -0.6369642    -0.3072833   -0.6300226    -0.6038227    0.1580077 
   6.047500000    -0.6466171    0.1861662    -0.3099827   -0.6357013    -0.3068210   -0.6288300    -0.6045900    0.1571652 
   6.050000000    -0.6477779    0.1859747    -0.3114075   -0.6331269    -0.3047327   -0.6268508    -0.6059134    0.1561254 
   6.052500000    -0.6494784    0.1860765    -0.3109183   -0.6314601    -0.3042728   -0.6247945    -0.6074155    0.1553576 
   6.055000000    -0.6505307    0.1860680    -0.3112805   -0.6301788    -0.3035514   -0.6231999    -0.6084611    0.1545437 
   6.057500000    -0.6520296    0.1871368    -0.3106622   -0.6284452    -0.3026150   -0.6212507    -0.6102050    0.1533052 
   6.060000000    -0.6532502    0.1880218    -0.3095388   -0.6269830    -0.3023510   -0.6197230    -0.6112428    0.1530404 
   6.062500000    -0.6547625    0.1886531    -0.3092124   -0.6256253    -0.3014649   -0.6179395    -0.6124691    0.1515127 
   6.065000000    -0.6557006    0.1890674    -0.3079951   -0.6246136    -0.3002949   -0.6170020    -0.6127096    0.1507881 
   6.067500000    -0.6563072    0.1892978    -0.3076783   -0.6233531    -0.2994029   -0.6163929    -0.6144962    0.1499210 
   6.070000000    -0.6564839    0.1901258    -0.3073314   -0.6222278    -0.2986038   -0.6152452    -0.6155890    0.1494481 
   6.072500000    -0.6571144    0.1914536    -0.3069629   -0.6213545    -0.2974968   -0.6136972    -0.6167319    0.1485019 
   6.075000000    -0.6576487    0.1925128    -0.3058590   -0.6199893    -0.2963256   -0.6122477    -0.6176766    0.1480942 
   6.077500000    -0.6580930    0.1935523    -0.3042935   -0.6191090    -0.2955182   -0.6115374    -0.6185504    0.1479049 
   6.080000000    -0.6586183    0.1949746    -0.3035356   -0.6181797    -0.2946030   -0.6109623    -0.6197628    0.1471975 
   6.082500000    -0.6586876    0.1960211    -0.3023534   -0.6172518    -0.2933656   -0.6102293    -0.6210049    0.1468701 
   6.085000000    -0.6582437    0.1969103    -0.3019670   -0.6167212    -0.2918433   -0.6098964    -0.6227821    0.1468962 
   6.087500000    -0.6580984    0.1984162    -0.3012792   -0.6159013    -0.2904858   -0.6093599    -0.6242140    0.1473015 
   6.090000000    -0.6578149    0.2005109    -0.2998985   -0.6151007    -0.2889015   -0.6083512    -0.6254329    0.1472568 
   6.092500000    -0.6575974    0.2021008    -0.2984212   -0.6141911    -0.2880889   -0.6075273    -0.6260858    0.1478599 
   6.095000000    -0.6576780    0.2034943    -0.2970489   -0.6134712    -0.2873656   -0.6068509    -0.6275389    0.1481813 
   6.097500000    -0.6570277    0.2053644    -0.2964356   -0.6127757    -0.2857106   -0.6062640    -0.6290488    0.1482338 
   6.100000000    -0.6565568    0.2069753    -0.2959956   -0.6120660    -0.2843366   -0.6056347    -0.6306841    0.1491482 
   6.102500000    -0.6559511    0.2085034    -0.2949608   -0.6116806    -0.2827503   -0.6052205    -0.6322563    0.1503103 
   6.105000000    -0.6553572    0.2112038    -0.2939670   -0.6112583    -0.2816833   -0.6049861    -0.6333217    0.1515675 
   6.107500000    -0.6552424    0.2132545    -0.2928908   -0.6104169    -0.2808875   -0.6046789    -0.6338657    0.1525721 
   6.110000000    -0.6539974    0.2152593    -0.2912369   -0.6105357    -0.2808074   -0.6031808    -0.6357192    0.1540717 
   6.112500000    -0.6544878    0.2165753    -0.2919272   -0.6097139    -0.2786639   -0.6045678    -0.6367136    0.1556408 
   6.115000000    -0.6540073    0.2188289    -0.2912439   -0.6092172    -0.2780310   -0.6043952    -0.6380887    0.1573316 
   6.117500000    -0.6532627    0.2203733    -0.2896521   -0.6090220    -0.2774558   -0.6036289    -0.6397945    0.1589731 
   6.120000000    -0.6529568    0.2222561    -0.2890456   -0.6088179    -0.2759783   -0.6038952    -0.6401936    0.1608806 
   6.122500000    -0.6527557    0.2238030    -0.2875702   -0.6088905    -0.2752250   -0.6042341    -0.6415939    0.1627450 
   6.125000000    -0.6522188    0.2255838    -0.2865963   -0.6088870    -0.2744990   -0.6040196    -0.6429597    0.1642835 
   6.127500000    -0.6513982    0.2274745    -0.2861891   -0.6089790    -0.2738900   -0.6041184    -0.6440884    0.1663379 
   6.130000000    -0.6510312    0.2294875    -0.2857741   -0.6088343    -0.2727232   -0.6043221    -0.6456448    0.1692121 
   6.132500000    -0.6507285    0.2312628    -0.2846895   -0.6088638    -0.2713591   -0.6043581    -0.6469554    0.1704209 
   6.135000000    -0.6510447    0.2325639    -0.2833193   -0.6089093    -0.2706037   -0.6048954    -0.6472152    0.1729513 
   6.137500000    -0.6509512    0.2337860    -0.2824014   -0.6087869    -0.2691514   -0.6050387    -0.6483762    0.1749988 
   6.140000000    -0.6503764    0.2347910    -0.2810428   -0.6091578    -0.2687491   -0.6046004    -0.6493663    0.1773516 
   6.142500000    -0.6503749    0.2365062    -0.2810494   -0.6087255    -0.2674938   -0.6047508    -0.6503007    0.1789484 
   6.145000000    -0.6502473    0.2380811    -0.2795008   -0.6088684    -0.2663874   -0.6047885    -0.6517234    0.1817677 
   6.147500000    -0.6504101    0.2392715    -0.2786077   -0.6090159    -0.2650383   -0.6048499    -0.6528093    0.1834892 
   6.150000000    -0.6506407    0.2403315    -0.2780796   -0.6090375    -0.2641101   -0.6048863    -0.6529472    0.1853243 
   6.152500000    -0.6508622    0.2418201    -0.2771572   -0.6089774    -0.2641327   -0.6045337    -0.6537703    0.1873979 
   6.155000000    -0.6509131    0.2431505    -0.2772352   -0.6091445    -0.2631312   -0.6047919    -0.6545742    0.1895804 
   6.157500000    -0.6512448    0.2445695    -0.2764332   -0.6085924    -0.2621779   -0.6046544    -0.6554988    0.1911149 
   6.160000000    -0.6515197    0.2461274    -0.2756506   -0.6087534    -0.2613435   -0.6047179    -0.6566544    0.1934164 
   6.162500000    -0.6519214    0.2468424    -0.2746277   -0.6087034    -0.2602988   -0.6049484    -0.6564767    0.1951549 
   6.165000000    -0.6525087    0.2481242    -0.2740217   -0.6088657    -0.2596239   -0.6049514    -0.6575535    0.1962689 
   6.167500000    -0.6531576    0.2489258    -0.2735882   -0.6091565    -0.2590582   -0.6053374    -0.6581621    0.1972500 
   6.170000000    -0.6536676    0.2501560    -0.2736635   -0.6089429    -0.2584886   -0.6056381    -0.6584305    0.1984249 
   6.172500000    -0.6543423    0.2516838    -0.2726994   -0.6095780    -0.2577201   -0.6064155    -0.6589656    0.1999852 
   6.175000000    -0.6547480    0.2531748    -0.2717462   -0.6094918    -0.2564223   -0.6067327    -0.6598431    0.2015652 
   6.177500000    -0.6555201    0.2544014    -0.2713434   -0.6099569    -0.2558166   -0.6067978    -0.6599418    0.2033919 
   6.180000000    -0.6561164    0.2552069    -0.2700178   -0.6101678    -0.2552117   -0.6073433    -0.6603141    0.2036963 
   6.182500000    -0.6563486    0.2563157    -0.2702323   -0.6101283    -0.2542638   -0.6081421    -0.6609077    0.2042386 
   6.185000000    -0.6567903    0.2572342    -0.2687179   -0.6105384    -0.2530796   -0.6083249    -0.6609511    0.2046077 
   6.187500000    -0.6572879    0.2589005    -0.2678860   -0.6105062    -0.2523283   -0.6089197    -0.6609693    0.2050900 
   6.190000000    -0.6573429    0.2602759    -0.2666857   -0.6110528    -0.2512371   -0.6095903    -0.6608480    0.2063414 
   6.192500000    -0.6578811    0.2615120    -0.2649834   -0.6111894    -0.2499065   -0.6103112    -0.6613626    0.2066194 
   6.195000000    -0.6581666    0.2624192    -0.2645309   -0.6112090    -0.2494064   -0.6103441    -0.6612127    0.2069798 
   6.197500000    -0.6575247    0.2633032    -0.2637106   -0.6116829    -0.2478164   -0.6112386    -0.6611900    0.2064463 
   6.200000000    -0.6573166    0.2640995    -0.2625872   -0.6119108    -0.2467112   -0.6120266    -0.6610651    0.2062472 
   6.202500000    -0.6573400    0.2653299    -0.2610608   -0.6126618    -0.2453974   -0.6128203    -0.6605437    0.2066440 
   6.205000000    -0.6572932    0.2670580    -0.2603378   -0.6132226    -0.2442817   -0.6136265    -0.6607523    0.2076091 
   6.207500000    -0.6563199    0.2685797    -0.2589663   -0.6144022    -0.2431105   -0.6145762    -0.6606745    0.2077388 
   6.210000000    -0.6552237    0.2697416    -0.2576455   -0.6146551    -0.2429136   -0.6157092    -0.6608677    0.2077179 
   6.212500000    -0.6553395    0.2712723    -0.2577662   -0.6156405    -0.2417203   -0.6166118    -0.6607335    0.2081932 
   6.215000000    -0.6564159    0.2724693    -0.2563707   -0.6170066    -0.2407240   -0.6178352    -0.6607672    0.2079274 
   6.217500000    -0.6570681    0.2745041    -0.2552706   -0.6180028    -0.2394178   -0.6192036    -0.6609466    0.2088394 
   6.220000000    -0.6542113    0.2764403    -0.2539743   -0.6191339    -0.2387038   -0.6205711    -0.6606309    0.2103092 
   6.222500000    -0.6514562    0.2792942    -0.2528696   -0.6206675    -0.2375603   -0.6218415    -0.6611417    0.2105040 
   6.225000000    -0.6517432    0.2816003    -0.2515572   -0.6226246    -0.2366251   -0.6235639    -0.6616349    0.2114461 
   6.227500000    -0.6520621    0.2820874    -0.2511595   -0.6234421    -0.2365590   -0.6251059    -0.6621454    0.2123387 
   6.230000000    -0.6520870    0.2831262    -0.2506787   -0.6257551    -0.2356645   -0.6269386    -0.6630245    0.2132445 
   6.232500000    -0.6514255    0.2857304    -0.2493593   -0.6270819    -0.2351856   -0.6286981    -0.6639774    0.2152105 
   6.235000000    -0.6505996    0.2889803    -0.2487805   -0.6287367    -0.2345207   -0.6305975    -0.6649341    0.2161587 
   6.237500000    -0.6494552    0.2914039    -0.2475620   -0.6304113    -0.2339316   -0.6325217    -0.6650360    0.2181710 
   6.240000000    -0.6490281    0.2939903    -0.2470412   -0.6325859    -0.2330568   -0.6345230    -0.6653357    0.2199334 
   6.242500000    -0.6484243    0.2960130    -0.2464709   -0.6343758    -0.2335810   -0.6365184    -0.6656714    0.2225476 
   6.245000000    -0.6473042    0.2985862    -0.2474165   -0.6357275    -0.2334377   -0.6383942    -0.6662568    0.2252458 
   6.247500000    -0.6464870    0.3014940    -0.2469739   -0.6372538    -0.2335422   -0.6408226    -0.6676570    0.2282783 
   6.250000000    -0.6456490    0.3040959    -0.2464599   -0.6389607    -0.2334304   -0.6427321    -0.6682722    0.2306478 
   6.252500000    -0.6442976    0.3069767    -0.2469136   -0.6406226    -0.2329697   -0.6449428    -0.6680978    0.2333971 
   6.255000000    -0.6438127    0.3093921    -0.2463871   -0.6426252    -0.2330654   -0.6468681    -0.6687871    0.2364500 
   6.257500000    -0.6427732    0.3116823    -0.2471862   -0.6447212    -0.2334276   -0.6489378    -0.6701096    0.2394078 
   6.260000000    -0.6417919    0.3139854    -0.2480037   -0.6459550    -0.2342428   -0.6502014    -0.6703895    0.2420180 
   6.262500000    -0.6408797    0.3161424    -0.2481701   -0.6475618    -0.2343074   -0.6522397    -0.6703490    0.2449258 
   6.265000000    -0.6397140    0.3191087    -0.2483322   -0.6489100    -0.2348993   -0.6538361    -0.6701494    0.2486013 
   6.267500000    -0.6381772    0.3211651    -0.2485692   -0.6504489    -0.2348033   -0.6554527    -0.6703439    0.2524562 
   6.270000000    -0.6370687    0.3227927    -0.2498677   -0.6521090    -0.2359072   -0.6571900    -0.6707342    0.2552820 
   6.272500000    -0.6357921    0.3241910    -0.2505769   -0.6535549    -0.2367726   -0.6587501    -0.6701618    0.2582732 
   6.275000000    -0.6342398    0.3255321    -0.2509589   -0.6555321    -0.2377403   -0.6596668    -0.6692939    0.2612704 
   6.277500000    -0.6326851    0.3272235    -0.2519357   -0.6571581    -0.2384903   -0.6609253    -0.6689713    0.2640691 
   6.280000000    -0.6318210    0.3289967    -0.2524121   -0.6583719    -0.2390338   -0.6627430    -0.6687776    0.2672963 
   6.282500000    -0.6305341    0.3303693    -0.2532126   -0.6595197    -0.2403502   -0.6641865    -0.6682541    0.2701031 
   6.285000000    -0.6292153    0.3318946    -0.2546102   -0.6606235    -0.2412272   -0.6654314    -0.6673998    0.2725879 
   6.287500000    -0.6278763    0.3329428    -0.2553280   -0.6622308    -0.2428156   -0.6663119    -0.6663434    0.2752622 
   6.290000000    -0.6262895    0.3342237    -0.2560164   -0.6633626    -0.2434748   -0.6674204    -0.6651886    0.2775535 
   6.292500000    -0.6252772    0.3353483    -0.2562393   -0.6643146    -0.2440477   -0.6685977    -0.6640146    0.2801783 
   6.295000000    -0.6243344    0.3361058    -0.2571062   -0.6654961    -0.2444337   -0.6700277    -0.6629503    0.2838252 
   6.297500000    -0.6230635    0.3368148    -0.2578399   -0.6657174    -0.2455361   -0.6710237    -0.6614938    0.2863839 
   6.300000000    -0.6217342    0.3373542    -0.2578981   -0.6661984    -0.2461589   -0.6718965    -0.6591645    0.2889429 
   6.302500000    -0.6200384    0.3385169    -0.2587444   -0.6664677    -0.2464451   -0.6722485    -0.6563107    0.2917344 
   6.305000000    -0.6187822    0.3400408    -0.2584054   -0.6669609    -0.2462797   -0.6727707    -0.6532217    0.2934526 
   6.307500000    -0.6171706    0.3411882    -0.2580452   -0.6678193    -0.2460079   -0.6737362    -0.6494986    0.2960948 
   6.310000000    -0.6150345    0.3418526    -0.2582417   -0.6683136    -0.2453993   -0.6748697    -0.6452912    0.2963666 
   6.312500000    -0.6128465    0.3425775    -0.2564168   -0.6697696    -0.2436770   -0.6764366    -0.6409664    0.2951289 
   6.315000000    -0.6100460    0.3425375    -0.2547646   -0.6720878    -0.2425256   -0.6787028    -0.6378109    0.2924125 
   6.317500000    -0.6068663    0.3418989    -0.2532380   -0.6757326    -0.2424674   -0.6820403    -0.6360647    0.2885257 
   6.320000000    -0.6048239    0.3406467    -0.2565192   -0.6786966    -0.2399539   -0.6871571    -0.6366440    0.2857282 
   6.322500000    -0.6026216    0.3394724    -0.2570406   -0.6826015    -0.2432379   -0.6896304    -0.6376923    0.2845291 
   6.325000000    -0.6010827    0.3381751    -0.2591996   -0.6851785    -0.2457985   -0.6928879    -0.6388178    0.2842365 
   6.327500000    -0.5998740    0.3373540    -0.2612518   -0.6879233    -0.2475622   -0.6952646    -0.6393067    0.2849721 
   6.330000000    -0.5986552    0.3363208    -0.2634843   -0.6895834    -0.2500419   -0.6969156    -0.6387895    0.2859190 
   6.332500000    -0.5973737    0.3363019    -0.2652831   -0.6910089    -0.2521853   -0.6985989    -0.6381089    0.2878972 
   6.335000000    -0.5957447    0.3358610    -0.2665866   -0.6925495    -0.2540033   -0.7002705    -0.6372662    0.2899479 
   6.337500000    -0.5940543    0.3352818    -0.2681985   -0.6934893    -0.2556369   -0.7020406    -0.6355357    0.2908394 
   6.340000000    -0.5923159    0.3354990    -0.2708890   -0.6949243    -0.2572536   -0.7027972    -0.6340204    0.2917180 
   6.342500000    -0.5904498    0.3355973    -0.2725011   -0.6959874    -0.2598199   -0.7036412    -0.6317663    0.2925886 
   6.345000000    -0.5883141    0.3360928    -0.2739587   -0.6974335    -0.2619211   -0.7051408    -0.6297268    0.2937885 
   6.347500000    -0.5862280    0.3373570    -0.2756147   -0.6984409    -0.2634203   -0.7064134    -0.6272286    0.2953129 
   6.350000000    -0.5840592    0.3375537    -0.2768778   -0.6993763    -0.2651095   -0.7076456    -0.6258308    0.2968991 
   6.352500000    -0.5817968    0.3380514    -0.2775049   -0.7002964    -0.2667735   -0.7084767    -0.6238922    0.2977115 
   6.355000000    -0.5793714    0.3388146    -0.2800133   -0.7009183    -0.2683362   -0.7101313    -0.6219680    0.2985265 
   6.357500000    -0.5766302    0.3395570    -0.2813379   -0.7018124    -0.2697567   -0.7108716    -0.6192424    0.3000211 
   6.360000000    -0.5741916    0.3405639    -0.2825030   -0.7029864    -0.2719748   -0.7118368    -0.6164422    0.3005460 
   6.362500000    -0.5719848    0.3420526    -0.2840590   -0.7034454    -0.2743572   -0.7126654    -0.6146258    0.3028862 
   6.365000000    -0.5693846    0.3432162    -0.2857111   -0.7042007    -0.2758381   -0.7144461    -0.6126063    0.3038856 
   6.367500000    -0.5675325    0.3441875    -0.2867772   -0.7044573    -0.2773543   -0.7152287    -0.6095987    0.3049554 
   6.370000000    -0.5648700    0.3454828    -0.2878987   -0.7048498    -0.2789072   -0.7159266    -0.6074917    0.3059554 
   6.372500000    -0.5621055    0.3466254    -0.2906381   -0.7048633    -0.2806811   -0.7166973    -0.6056142    0.3067916 
   6.375000000    -0.5593978    0.3478187    -0.2914071   -0.7056201    -0.2818508   -0.7171324    -0.6032149    0.3075472 
   6.377500000    -0.5570305    0.3487381    -0.2928899   -0.7066239    -0.2839385   -0.7179452    -0.6011059    0.3084221 
   6.380000000    -0.5546325    0.3506306    -0.2946563   -0.7071295    -0.2861961   -0.7182249    -0.5988607    0.3095541 
   6.382500000    -0.5520977    0.3516995    -0.2958381   -0.7074574    -0.2874769   -0.7188280    -0.5967903    0.3109096 
   6.385000000    -0.5497890    0.3526380    -0.2979495   -0.7078384    -0.2891702   -0.7195405    -0.5947945    0.3113928 
   6.387500000    -0.5471249    0.3533091    -0.2992837   -0.7093729    -0.2912889   -0.7201228    -0.5931638    0.3121261 
   6.390000000    -0.5448484    0.3540985    -0.3008861   -0.7093025    -0.2925917   -0.7208259    -0.5914715    0.3128394 
