! MS46122B
! 1919307/90821646
! 6/10/2022 12:22:41 PM
! C:\USERS\PC_\DESKTOP\CARACTERIZACION\MEDICIONES\BANCHA ESTRECHA\5_55GHZ\S11_S21_ABS12_502CL.S2P
! CHANNEL.1
! TR.MEASUREMENT
! CORRECTED.DATA
# GHZ S RI R 50.0
! FREQ.GHZ         S11RE         S11IM         S21RE         S21IM         S12RE         S12IM         S22RE         S22IM         
!; PortSelection: Port_12
   5.000000000    -0.8079445    0.0733438    -0.0027613   -0.5637092     0.0530104   -0.5778222    -0.8020566    0.0437116 
   5.002500000    -0.8089991    0.0704992    -0.0062286   -0.5606882     0.0521224   -0.5794207    -0.8017626    0.0442737 
   5.005000000    -0.8086383    0.0693723    -0.0074020   -0.5601826     0.0516528   -0.5808745    -0.8010880    0.0444512 
   5.007500000    -0.8084148    0.0685029    -0.0068024   -0.5594572     0.0515706   -0.5820486    -0.8013777    0.0450615 
   5.010000000    -0.8084233    0.0679966    -0.0064750   -0.5588568     0.0513411   -0.5831631    -0.8008131    0.0448457 
   5.012500000    -0.8080907    0.0676816    -0.0059860   -0.5582257     0.0512905   -0.5840035    -0.8002233    0.0445590 
   5.015000000    -0.8077611    0.0670703    -0.0051083   -0.5572255     0.0509196   -0.5848988    -0.7998345    0.0458720 
   5.017500000    -0.8070741    0.0671226    -0.0058566   -0.5563306     0.0502701   -0.5856308    -0.7992561    0.0456562 
   5.020000000    -0.8067483    0.0668771    -0.0049797   -0.5552717     0.0497499   -0.5863296    -0.7987601    0.0462846 
   5.022500000    -0.8064464    0.0676678    -0.0044839   -0.5540986     0.0490310   -0.5870547    -0.7982145    0.0469971 
   5.025000000    -0.8055621    0.0682103    -0.0039314   -0.5529732     0.0483587   -0.5872342    -0.7973029    0.0470903 
   5.027500000    -0.8048118    0.0686111    -0.0036602   -0.5517102     0.0481203   -0.5872957    -0.7970290    0.0473204 
   5.030000000    -0.8043784    0.0691228    -0.0025859   -0.5505133     0.0475345   -0.5875251    -0.7960470    0.0473684 
   5.032500000    -0.8038943    0.0701507    -0.0024046   -0.5497167     0.0468099   -0.5882100    -0.7966675    0.0476137 
   5.035000000    -0.8036542    0.0714373    -0.0015287   -0.5483344     0.0464980   -0.5883436    -0.7967337    0.0479457 
   5.037500000    -0.8037187    0.0730532    -0.0003887   -0.5473260     0.0459393   -0.5881914    -0.7967269    0.0484387 
   5.040000000    -0.8044023    0.0735500     0.0006727   -0.5463166     0.0455887   -0.5883602    -0.7972531    0.0492027 
   5.042500000    -0.8044023    0.0741244     0.0019615   -0.5455196     0.0457337   -0.5886285    -0.7968863    0.0494408 
   5.045000000    -0.8043262    0.0746135     0.0027308   -0.5444878     0.0460544   -0.5883037    -0.7972056    0.0504872 
   5.047500000    -0.8051900    0.0757026     0.0041031   -0.5437582     0.0458024   -0.5883705    -0.7973000    0.0515192 
   5.050000000    -0.8056984    0.0761052     0.0056610   -0.5430900     0.0463758   -0.5886639    -0.7980230    0.0516591 
   5.052500000    -0.8064215    0.0767050     0.0073537   -0.5423811     0.0466332   -0.5886533    -0.7987881    0.0526431 
   5.055000000    -0.8073398    0.0773102     0.0098668   -0.5422592     0.0465863   -0.5888866    -0.7992404    0.0529432 
   5.057500000    -0.8085762    0.0773161     0.0119583   -0.5419765     0.0476512   -0.5893028    -0.7995785    0.0539740 
   5.060000000    -0.8096973    0.0777703     0.0137033   -0.5415706     0.0484077   -0.5898420    -0.8000984    0.0543926 
   5.062500000    -0.8109777    0.0774982     0.0153338   -0.5417107     0.0490039   -0.5901960    -0.8009630    0.0552437 
   5.065000000    -0.8124580    0.0772378     0.0179592   -0.5414685     0.0500152   -0.5907666    -0.8016943    0.0555720 
   5.067500000    -0.8138332    0.0772251     0.0198648   -0.5413724     0.0508167   -0.5915220    -0.8020631    0.0570877 
   5.070000000    -0.8153281    0.0774515     0.0226271   -0.5413724     0.0515961   -0.5923132    -0.8023576    0.0577060 
   5.072500000    -0.8168905    0.0766512     0.0249205   -0.5414515     0.0525980   -0.5931094    -0.8028724    0.0578551 
   5.075000000    -0.8188273    0.0759137     0.0263845   -0.5421377     0.0536286   -0.5943770    -0.8034469    0.0586300 
   5.077500000    -0.8202709    0.0752014     0.0289290   -0.5426344     0.0540738   -0.5955986    -0.8038909    0.0589305 
   5.080000000    -0.8219396    0.0747956     0.0308135   -0.5432310     0.0549193   -0.5971574    -0.8043433    0.0594981 
   5.082500000    -0.8227701    0.0745209     0.0331743   -0.5441461     0.0552814   -0.5985787    -0.8049216    0.0601640 
   5.085000000    -0.8240651    0.0739709     0.0349833   -0.5452377     0.0561016   -0.6002802    -0.8051428    0.0610048 
   5.087500000    -0.8252992    0.0729331     0.0364769   -0.5467517     0.0561944   -0.6023606    -0.8059048    0.0612567 
   5.090000000    -0.8267736    0.0724978     0.0383273   -0.5481754     0.0565678   -0.6044439    -0.8065362    0.0615598 
   5.092500000    -0.8281159    0.0720012     0.0402098   -0.5496138     0.0568292   -0.6065449    -0.8068558    0.0622215 
   5.095000000    -0.8291810    0.0711986     0.0418365   -0.5516741     0.0567748   -0.6089878    -0.8070035    0.0615593 
   5.097500000    -0.8296890    0.0707055     0.0434701   -0.5536535     0.0570632   -0.6111814    -0.8071814    0.0615771 
   5.100000000    -0.8301386    0.0697885     0.0443192   -0.5560611     0.0571846   -0.6139449    -0.8075094    0.0617477 
   5.102500000    -0.8308241    0.0684292     0.0461594   -0.5584998     0.0574136   -0.6165323    -0.8079280    0.0622455 
   5.105000000    -0.8308703    0.0674615     0.0475479   -0.5604212     0.0568695   -0.6192074    -0.8078778    0.0618752 
   5.107500000    -0.8311131    0.0668338     0.0486662   -0.5628434     0.0566816   -0.6219853    -0.8081128    0.0623174 
   5.110000000    -0.8304290    0.0655561     0.0496414   -0.5652965     0.0570006   -0.6243573    -0.8080897    0.0628066 
   5.112500000    -0.8297876    0.0654900     0.0495918   -0.5678864     0.0562206   -0.6269796    -0.8086264    0.0635699 
   5.115000000    -0.8282738    0.0641470     0.0515060   -0.5698591     0.0544034   -0.6296408    -0.8083956    0.0639040 
   5.117500000    -0.8274188    0.0625994     0.0518142   -0.5724285     0.0538240   -0.6319630    -0.8084139    0.0645846 
   5.120000000    -0.8257756    0.0618370     0.0523276   -0.5748323     0.0522377   -0.6342952    -0.8080716    0.0660520 
   5.122500000    -0.8236452    0.0604953     0.0528833   -0.5766386     0.0505950   -0.6367164    -0.8072494    0.0667316 
   5.125000000    -0.8215016    0.0600411     0.0521755   -0.5785976     0.0488412   -0.6385614    -0.8066783    0.0683758 
   5.127500000    -0.8189220    0.0590431     0.0520789   -0.5807667     0.0469663   -0.6406974    -0.8058581    0.0693373 
   5.130000000    -0.8161168    0.0580582     0.0522133   -0.5827768     0.0453524   -0.6425592    -0.8050349    0.0708101 
   5.132500000    -0.8130960    0.0578128     0.0520207   -0.5846393     0.0425826   -0.6448719    -0.8043995    0.0719966 
   5.135000000    -0.8097228    0.0576944     0.0518608   -0.5864720     0.0407245   -0.6465096    -0.8042836    0.0740282 
   5.137500000    -0.8069708    0.0571489     0.0517411   -0.5882877     0.0384503   -0.6479717    -0.8033774    0.0752326 
   5.140000000    -0.8037345    0.0565479     0.0510375   -0.5889796     0.0361023   -0.6491835    -0.8018894    0.0767185 
   5.142500000    -0.8013057    0.0566878     0.0500504   -0.5913386     0.0337599   -0.6505266    -0.8009150    0.0786916 
   5.145000000    -0.7988458    0.0574411     0.0502522   -0.5926669     0.0315534   -0.6518181    -0.7996687    0.0801647 
   5.147500000    -0.7957192    0.0575090     0.0493234   -0.5940257     0.0298236   -0.6528152    -0.7975932    0.0814067 
   5.150000000    -0.7920530    0.0587885     0.0500349   -0.5950869     0.0260148   -0.6530762    -0.7958844    0.0817228 
   5.152500000    -0.7890810    0.0589102     0.0493749   -0.5955341     0.0244984   -0.6540215    -0.7931190    0.0823569 
   5.155000000    -0.7863409    0.0597356     0.0498511   -0.5966362     0.0225111   -0.6546413    -0.7910221    0.0841019 
   5.157500000    -0.7839574    0.0606320     0.0496340   -0.5979050     0.0203345   -0.6548919    -0.7889311    0.0853989 
   5.160000000    -0.7811520    0.0617453     0.0502401   -0.5987885     0.0186115   -0.6549535    -0.7869118    0.0868323 
   5.162500000    -0.7788675    0.0627727     0.0508564   -0.5993323     0.0172122   -0.6550793    -0.7838842    0.0880814 
   5.165000000    -0.7765077    0.0639390     0.0515188   -0.5999300     0.0158160   -0.6548541    -0.7812921    0.0891934 
   5.167500000    -0.7738364    0.0653857     0.0528131   -0.6005908     0.0144949   -0.6544482    -0.7788928    0.0905880 
   5.170000000    -0.7713634    0.0670577     0.0543783   -0.6017280     0.0131199   -0.6537683    -0.7760602    0.0919401 
   5.172500000    -0.7692387    0.0687831     0.0549083   -0.6032405     0.0117448   -0.6526981    -0.7736368    0.0930495 
   5.175000000    -0.7670938    0.0714290     0.0567283   -0.6038764     0.0112483   -0.6520509    -0.7709529    0.0941678 
   5.177500000    -0.7650225    0.0736284     0.0584491   -0.6050787     0.0103839   -0.6510723    -0.7687917    0.0948058 
   5.180000000    -0.7630193    0.0759100     0.0606472   -0.6064124     0.0098126   -0.6499872    -0.7661821    0.0949559 
   5.182500000    -0.7609736    0.0780263     0.0625365   -0.6079348     0.0094205   -0.6490784    -0.7633584    0.0957174 
   5.185000000    -0.7592252    0.0808917     0.0639829   -0.6104628     0.0093237   -0.6483443    -0.7614453    0.0952746 
   5.187500000    -0.7571898    0.0831028     0.0658136   -0.6131413     0.0092444   -0.6477409    -0.7612935    0.0953293 
   5.190000000    -0.7554537    0.0854008     0.0680028   -0.6165645     0.0097660   -0.6476333    -0.7595777    0.0937848 
   5.192500000    -0.7532287    0.0868849     0.0698264   -0.6195548     0.0096890   -0.6470248    -0.7591206    0.0930560 
   5.195000000    -0.7516801    0.0894327     0.0715525   -0.6225008     0.0104008   -0.6473538    -0.7591020    0.0910250 
   5.197500000    -0.7506573    0.0913625     0.0720980   -0.6269091     0.0106895   -0.6487683    -0.7600291    0.0894432 
   5.200000000    -0.7492663    0.0936047     0.0729715   -0.6312873     0.0113213   -0.6499707    -0.7610915    0.0879094 
   5.202500000    -0.7480640    0.0953779     0.0745231   -0.6358076     0.0122087   -0.6516471    -0.7624820    0.0867100 
   5.205000000    -0.7465268    0.0970004     0.0751313   -0.6405086     0.0125360   -0.6533970    -0.7643147    0.0850789 
   5.207500000    -0.7449411    0.0988802     0.0747121   -0.6450738     0.0126623   -0.6551151    -0.7659072    0.0845389 
   5.210000000    -0.7436849    0.1005086     0.0737497   -0.6505976     0.0125530   -0.6576347    -0.7680275    0.0838647 
   5.212500000    -0.7426817    0.1015343     0.0732716   -0.6558282     0.0121052   -0.6600475    -0.7691787    0.0838747 
   5.215000000    -0.7417282    0.1021525     0.0723317   -0.6610544     0.0111865   -0.6627883    -0.7708988    0.0836476 
   5.217500000    -0.7400973    0.1027304     0.0703029   -0.6664748     0.0098114   -0.6657503    -0.7724820    0.0842325 
   5.220000000    -0.7387990    0.1028559     0.0679555   -0.6711140     0.0082654   -0.6681541    -0.7735986    0.0843034 
   5.222500000    -0.7367204    0.1029164     0.0650084   -0.6762622     0.0059469   -0.6703772    -0.7739240    0.0850908 
   5.225000000    -0.7352255    0.1021923     0.0622091   -0.6805850     0.0035550   -0.6728885    -0.7748609    0.0853127 
   5.227500000    -0.7340099    0.1012173     0.0584787   -0.6852931     0.0013217   -0.6751904    -0.7752530    0.0859673 
   5.230000000    -0.7317070    0.0999523     0.0552797   -0.6890671    -0.0021001   -0.6767160    -0.7751423    0.0865213 
   5.232500000    -0.7298784    0.0991245     0.0496837   -0.6930022    -0.0048987   -0.6778523    -0.7737640    0.0860029 
   5.235000000    -0.7282150    0.0976289     0.0452627   -0.6960696    -0.0086032   -0.6789644    -0.7725946    0.0863186 
   5.237500000    -0.7276272    0.0967136     0.0405438   -0.6985958    -0.0116562   -0.6795534    -0.7717896    0.0865476 
   5.240000000    -0.7270238    0.0957089     0.0355099   -0.7011018    -0.0152513   -0.6804186    -0.7701364    0.0868092 
   5.242500000    -0.7256829    0.0948851     0.0308499   -0.7034763    -0.0189158   -0.6810848    -0.7697239    0.0876965 
   5.245000000    -0.7229620    0.0939878     0.0251789   -0.7047550    -0.0225103   -0.6815677    -0.7684592    0.0870841 
   5.247500000    -0.7210835    0.0928530     0.0201861   -0.7060342    -0.0266829   -0.6812235    -0.7673720    0.0873763 
   5.250000000    -0.7201010    0.0928462     0.0149156   -0.7067848    -0.0301604   -0.6809403    -0.7662393    0.0876071 
   5.252500000    -0.7199922    0.0928016     0.0106314   -0.7073439    -0.0336718   -0.6806824    -0.7653324    0.0884180 
   5.255000000    -0.7185403    0.0928219     0.0059587   -0.7075545    -0.0366590   -0.6798544    -0.7639096    0.0880691 
   5.257500000    -0.7152286    0.0931638     0.0013895   -0.7074346    -0.0401776   -0.6784326    -0.7620671    0.0887974 
   5.260000000    -0.7119968    0.0936297    -0.0033086   -0.7067330    -0.0436421   -0.6771808    -0.7602950    0.0894840 
   5.262500000    -0.7092175    0.0939092    -0.0074255   -0.7049897    -0.0470002   -0.6759040    -0.7580491    0.0897246 
   5.265000000    -0.7065781    0.0949930    -0.0113127   -0.7040453    -0.0497890   -0.6739619    -0.7557856    0.0894021 
   5.267500000    -0.7042640    0.0960519    -0.0142864   -0.7027089    -0.0526787   -0.6718960    -0.7534052    0.0898283 
   5.270000000    -0.7013131    0.0964932    -0.0173745   -0.7013271    -0.0539999   -0.6697948    -0.7504053    0.0901381 
   5.272500000    -0.6965531    0.0974518    -0.0201582   -0.7002753    -0.0573033   -0.6676991    -0.7478377    0.0903329 
   5.275000000    -0.6922112    0.0990737    -0.0224910   -0.6981640    -0.0578080   -0.6648026    -0.7440282    0.0901370 
   5.277500000    -0.6870896    0.0995690    -0.0243770   -0.6959697    -0.0591455   -0.6614568    -0.7402018    0.0905475 
   5.280000000    -0.6821675    0.1002938    -0.0269954   -0.6931338    -0.0604772   -0.6589334    -0.7371337    0.0901567 
   5.282500000    -0.6769747    0.1008506    -0.0279464   -0.6913489    -0.0606309   -0.6559290    -0.7347326    0.0896984 
   5.285000000    -0.6725058    0.1014066    -0.0289502   -0.6892965    -0.0607118   -0.6527879    -0.7316284    0.0882250 
   5.287500000    -0.6672560    0.1015225    -0.0296570   -0.6874437    -0.0603835   -0.6497584    -0.7289069    0.0867507 
   5.290000000    -0.6610568    0.1005416    -0.0294709   -0.6855462    -0.0593718   -0.6471370    -0.7257077    0.0855747 
   5.292500000    -0.6546960    0.0991993    -0.0292020   -0.6840466    -0.0580296   -0.6446162    -0.7225748    0.0832541 
   5.295000000    -0.6490422    0.0967189    -0.0299135   -0.6823927    -0.0568273   -0.6422126    -0.7196224    0.0812715 
   5.297500000    -0.6441355    0.0943853    -0.0291142   -0.6802968    -0.0549236   -0.6400470    -0.7182525    0.0784799 
   5.300000000    -0.6409585    0.0908618    -0.0274334   -0.6789116    -0.0527478   -0.6383234    -0.7182983    0.0748069 
   5.302500000    -0.6394837    0.0875194    -0.0251810   -0.6781384    -0.0493305   -0.6371503    -0.7188437    0.0721940 
   5.305000000    -0.6397316    0.0847957    -0.0216392   -0.6782656    -0.0454041   -0.6366697    -0.7209252    0.0704848 
   5.307500000    -0.6411922    0.0836271    -0.0192613   -0.6812990    -0.0414581   -0.6383310    -0.7237703    0.0688186 
   5.310000000    -0.6428239    0.0836624    -0.0164075   -0.6852699    -0.0371128   -0.6410130    -0.7265342    0.0683332 
   5.312500000    -0.6441554    0.0846174    -0.0145764   -0.6895772    -0.0360942   -0.6450265    -0.7299963    0.0691689 
   5.315000000    -0.6456873    0.0855266    -0.0137779   -0.6949920    -0.0341559   -0.6494661    -0.7337015    0.0701224 
   5.317500000    -0.6468671    0.0864006    -0.0143315   -0.7012511    -0.0340975   -0.6543518    -0.7377619    0.0712185 
   5.320000000    -0.6480541    0.0883182    -0.0164069   -0.7070815    -0.0348784   -0.6593997    -0.7413879    0.0733099 
   5.322500000    -0.6498843    0.0900097    -0.0182699   -0.7131522    -0.0363031   -0.6644024    -0.7446768    0.0758131 
   5.325000000    -0.6517735    0.0924019    -0.0209969   -0.7193574    -0.0396262   -0.6693580    -0.7468688    0.0789493 
   5.327500000    -0.6534486    0.0942916    -0.0258709   -0.7252073    -0.0433741   -0.6732236    -0.7488114    0.0831331 
   5.330000000    -0.6546822    0.0963076    -0.0322143   -0.7306603    -0.0481385   -0.6769364    -0.7504057    0.0879244 
   5.332500000    -0.6557044    0.0981068    -0.0381390   -0.7350601    -0.0532851   -0.6795548    -0.7509296    0.0921435 
   5.335000000    -0.6566347    0.0998144    -0.0450588   -0.7380903    -0.0598288   -0.6808198    -0.7502912    0.0956544 
   5.337500000    -0.6578237    0.1011406    -0.0531995   -0.7402158    -0.0654786   -0.6815095    -0.7488492    0.0985586 
   5.340000000    -0.6588974    0.1023130    -0.0616453   -0.7422601    -0.0718945   -0.6815184    -0.7469626    0.1015955 
   5.342500000    -0.6604179    0.1030795    -0.0705903   -0.7425191    -0.0782843   -0.6800933    -0.7440381    0.1031599 
   5.345000000    -0.6625255    0.1034730    -0.0790060   -0.7412632    -0.0839313   -0.6774252    -0.7410256    0.1037914 
   5.347500000    -0.6643906    0.1038346    -0.0876124   -0.7395548    -0.0892018   -0.6745691    -0.7372377    0.1040784 
   5.350000000    -0.6673362    0.1041067    -0.0947171   -0.7368064    -0.0936823   -0.6711021    -0.7355701    0.1035251 
   5.352500000    -0.6703233    0.1041158    -0.1018943   -0.7327525    -0.0979009   -0.6672947    -0.7335324    0.1013687 
   5.355000000    -0.6729977    0.1044093    -0.1092201   -0.7293477    -0.1019124   -0.6630779    -0.7317144    0.0991033 
   5.357500000    -0.6762330    0.1045086    -0.1144787   -0.7252513    -0.1050183   -0.6589962    -0.7306508    0.0968097 
   5.360000000    -0.6793579    0.1059272    -0.1193665   -0.7211872    -0.1079191   -0.6541107    -0.7294615    0.0949017 
   5.362500000    -0.6831253    0.1070234    -0.1236136   -0.7167864    -0.1097813   -0.6498021    -0.7291653    0.0923676 
   5.365000000    -0.6866803    0.1071070    -0.1274052   -0.7115957    -0.1115928   -0.6455752    -0.7287048    0.0900717 
   5.367500000    -0.6904925    0.1074295    -0.1310919   -0.7061795    -0.1124226   -0.6406834    -0.7288250    0.0867783 
   5.370000000    -0.6935509    0.1079865    -0.1336374   -0.7021691    -0.1135808   -0.6364906    -0.7298309    0.0845962 
   5.372500000    -0.6970786    0.1092466    -0.1362830   -0.6978201    -0.1136692   -0.6318084    -0.7303663    0.0815111 
   5.375000000    -0.6999875    0.1112543    -0.1380518   -0.6933342    -0.1135932   -0.6275850    -0.7308147    0.0806020 
   5.377500000    -0.7024965    0.1124925    -0.1392194   -0.6886925    -0.1141730   -0.6233523    -0.7316982    0.0788646 
   5.380000000    -0.7046983    0.1143463    -0.1402843   -0.6841260    -0.1133379   -0.6193996    -0.7330104    0.0782293 
   5.382500000    -0.7065525    0.1155167    -0.1404522   -0.6798252    -0.1120977   -0.6152977    -0.7341149    0.0760404 
   5.385000000    -0.7089005    0.1167144    -0.1409453   -0.6753575    -0.1105850   -0.6112671    -0.7353442    0.0757165 
   5.387500000    -0.7106111    0.1178878    -0.1418917   -0.6706724    -0.1091144   -0.6073404    -0.7361582    0.0747355 
