! MS46122B
! 1919307/90821646
! 6/13/2022 12:18:41 PM
! C:\USERS\PC_\DESKTOP\CARACTERIZACION\MEDICIONES\BANCHA ESTRECHA\65_7GHZ\S11_S21_ABS65_1002CL.S2P
! CHANNEL.1
! TR.MEASUREMENT
! CORRECTED.DATA
# GHZ S RI R 50.0
! FREQ.GHZ         S11RE         S11IM         S21RE         S21IM         S12RE         S12IM         S22RE         S22IM         
!; PortSelection: Port_12
   6.500000000    -0.5401025    0.3591288    -0.3594975   -0.6761636    -0.3625984   -0.6584812    -0.5712936    0.3672649 
   6.502500000    -0.5434718    0.3564537    -0.3634409   -0.6707025    -0.3634810   -0.6576498    -0.5701845    0.3650949 
   6.505000000    -0.5433342    0.3557850    -0.3647538   -0.6695417    -0.3638574   -0.6572194    -0.5688957    0.3632248 
   6.507500000    -0.5431964    0.3551504    -0.3653235   -0.6689029    -0.3647132   -0.6571987    -0.5672519    0.3612061 
   6.510000000    -0.5427887    0.3553885    -0.3674154   -0.6677303    -0.3655401   -0.6563484    -0.5666858    0.3590960 
   6.512500000    -0.5425189    0.3550046    -0.3682715   -0.6678772    -0.3659998   -0.6558972    -0.5652327    0.3573479 
   6.515000000    -0.5420888    0.3546450    -0.3692878   -0.6673172    -0.3664780   -0.6554204    -0.5639927    0.3554302 
   6.517500000    -0.5420484    0.3541158    -0.3702776   -0.6672402    -0.3677061   -0.6556656    -0.5627834    0.3538358 
   6.520000000    -0.5418977    0.3540446    -0.3711156   -0.6664074    -0.3691289   -0.6553127    -0.5614862    0.3520712 
   6.522500000    -0.5417189    0.3537386    -0.3735982   -0.6656882    -0.3700114   -0.6549653    -0.5603259    0.3505837 
   6.525000000    -0.5411772    0.3538155    -0.3747883   -0.6647034    -0.3711749   -0.6544287    -0.5592120    0.3490490 
   6.527500000    -0.5408862    0.3536872    -0.3759101   -0.6643344    -0.3722088   -0.6538126    -0.5581975    0.3478184 
   6.530000000    -0.5407180    0.3535912    -0.3768344   -0.6639779    -0.3733820   -0.6538554    -0.5569045    0.3462652 
   6.532500000    -0.5406864    0.3532902    -0.3781126   -0.6637515    -0.3750358   -0.6531407    -0.5557901    0.3449407 
   6.535000000    -0.5404066    0.3531669    -0.3806353   -0.6637258    -0.3762267   -0.6527030    -0.5545971    0.3439130 
   6.537500000    -0.5398139    0.3532337    -0.3821257   -0.6626765    -0.3779236   -0.6520674    -0.5530390    0.3426223 
   6.540000000    -0.5393100    0.3533531    -0.3833001   -0.6623074    -0.3791628   -0.6508212    -0.5510829    0.3420247 
   6.542500000    -0.5389578    0.3531877    -0.3845887   -0.6615161    -0.3803406   -0.6500558    -0.5498772    0.3415431 
   6.545000000    -0.5383646    0.3528919    -0.3861347   -0.6606282    -0.3818325   -0.6493169    -0.5484221    0.3404962 
   6.547500000    -0.5377463    0.3528920    -0.3878553   -0.6597263    -0.3832517   -0.6482908    -0.5470061    0.3398198 
   6.550000000    -0.5372450    0.3529428    -0.3895549   -0.6595526    -0.3850350   -0.6468894    -0.5452322    0.3394676 
   6.552500000    -0.5369185    0.3532273    -0.3915533   -0.6585516    -0.3865020   -0.6452569    -0.5435563    0.3388504 
   6.555000000    -0.5362838    0.3530560    -0.3926408   -0.6572330    -0.3873323   -0.6444448    -0.5421830    0.3390013 
   6.557500000    -0.5358849    0.3526436    -0.3935696   -0.6554023    -0.3883694   -0.6428902    -0.5406144    0.3386936 
   6.560000000    -0.5351935    0.3525574    -0.3955331   -0.6541584    -0.3895126   -0.6416238    -0.5392278    0.3380382 
   6.562500000    -0.5348644    0.3526311    -0.3975144   -0.6528865    -0.3909598   -0.6406640    -0.5369774    0.3385305 
   6.565000000    -0.5345264    0.3524346    -0.3983684   -0.6520108    -0.3920171   -0.6394679    -0.5357290    0.3390737 
   6.567500000    -0.5336804    0.3526363    -0.3994944   -0.6510566    -0.3926567   -0.6381856    -0.5348091    0.3391379 
   6.570000000    -0.5328708    0.3528817    -0.4007599   -0.6495575    -0.3933440   -0.6366605    -0.5337049    0.3389714 
   6.572500000    -0.5325949    0.3520310    -0.4012746   -0.6478388    -0.3935571   -0.6348094    -0.5327842    0.3385844 
   6.575000000    -0.5324162    0.3518761    -0.4022336   -0.6468204    -0.3940845   -0.6336522    -0.5313617    0.3377370 
   6.577500000    -0.5323068    0.3513696    -0.4040998   -0.6452348    -0.3945752   -0.6325728    -0.5303329    0.3376512 
   6.580000000    -0.5318156    0.3514671    -0.4050983   -0.6436976    -0.3953587   -0.6310021    -0.5293099    0.3371864 
   6.582500000    -0.5312179    0.3513262    -0.4053790   -0.6421883    -0.3956552   -0.6296998    -0.5282878    0.3376587 
   6.585000000    -0.5301610    0.3511644    -0.4065146   -0.6410401    -0.3956925   -0.6283985    -0.5271711    0.3382154 
   6.587500000    -0.5296091    0.3509595    -0.4071394   -0.6398055    -0.3961073   -0.6270800    -0.5263724    0.3379816 
   6.590000000    -0.5293809    0.3505768    -0.4076026   -0.6383926    -0.3958536   -0.6260090    -0.5253705    0.3383798 
   6.592500000    -0.5295641    0.3498673    -0.4089311   -0.6371082    -0.3958203   -0.6252195    -0.5242319    0.3379318 
   6.595000000    -0.5295829    0.3495797    -0.4098126   -0.6358523    -0.3960382   -0.6243832    -0.5235140    0.3380752 
   6.597500000    -0.5290739    0.3489344    -0.4104611   -0.6345173    -0.3963011   -0.6230748    -0.5235549    0.3383305 
   6.600000000    -0.5286774    0.3484215    -0.4108699   -0.6333014    -0.3965233   -0.6217585    -0.5228591    0.3386970 
   6.602500000    -0.5283942    0.3484277    -0.4113134   -0.6326574    -0.3965686   -0.6208550    -0.5222567    0.3388421 
   6.605000000    -0.5281333    0.3478174    -0.4115565   -0.6313553    -0.3966639   -0.6199175    -0.5210629    0.3388737 
   6.607500000    -0.5284113    0.3471551    -0.4129335   -0.6300023    -0.3962198   -0.6193017    -0.5207972    0.3385666 
   6.610000000    -0.5289061    0.3464226    -0.4126929   -0.6291033    -0.3968899   -0.6184904    -0.5203054    0.3385635 
   6.612500000    -0.5291103    0.3456242    -0.4133433   -0.6280367    -0.3967001   -0.6176585    -0.5198489    0.3378785 
   6.615000000    -0.5291859    0.3449935    -0.4141786   -0.6268889    -0.3967782   -0.6170987    -0.5190881    0.3376150 
   6.617500000    -0.5289122    0.3445854    -0.4141149   -0.6261218    -0.3972781   -0.6164517    -0.5187519    0.3370032 
   6.620000000    -0.5289941    0.3443560    -0.4151787   -0.6254821    -0.3972439   -0.6160268    -0.5181836    0.3366389 
   6.622500000    -0.5295725    0.3441924    -0.4154813   -0.6239652    -0.3976456   -0.6156668    -0.5176958    0.3364682 
   6.625000000    -0.5303153    0.3432751    -0.4155470   -0.6232008    -0.3980885   -0.6154947    -0.5173068    0.3360417 
   6.627500000    -0.5303938    0.3423826    -0.4161192   -0.6223562    -0.3978592   -0.6150340    -0.5167310    0.3348533 
   6.630000000    -0.5311539    0.3420060    -0.4162181   -0.6214919    -0.3979109   -0.6147543    -0.5165190    0.3336826 
   6.632500000    -0.5313923    0.3415001    -0.4164872   -0.6206107    -0.3982962   -0.6147646    -0.5161772    0.3332021 
   6.635000000    -0.5317559    0.3417639    -0.4173665   -0.6194124    -0.3984101   -0.6139057    -0.5154915    0.3321895 
   6.637500000    -0.5319552    0.3415113    -0.4176399   -0.6190490    -0.3986377   -0.6135218    -0.5143715    0.3310416 
   6.640000000    -0.5326777    0.3416325    -0.4173610   -0.6187265    -0.3988265   -0.6128958    -0.5144390    0.3298867 
   6.642500000    -0.5333079    0.3416280    -0.4176962   -0.6178147    -0.3991457   -0.6129997    -0.5136724    0.3289882 
   6.645000000    -0.5337120    0.3415137    -0.4173548   -0.6164808    -0.3989905   -0.6125777    -0.5131477    0.3276527 
   6.647500000    -0.5340453    0.3413860    -0.4184827   -0.6156121    -0.3992685   -0.6116678    -0.5126277    0.3265233 
   6.650000000    -0.5339858    0.3414767    -0.4189424   -0.6147330    -0.3992240   -0.6113980    -0.5120387    0.3252535 
   6.652500000    -0.5345753    0.3417461    -0.4193913   -0.6143093    -0.3997260   -0.6107565    -0.5111932    0.3236660 
   6.655000000    -0.5348307    0.3416906    -0.4190845   -0.6138461    -0.4001495   -0.6099591    -0.5102305    0.3230844 
   6.657500000    -0.5351078    0.3420210    -0.4188740   -0.6127392    -0.3997227   -0.6095729    -0.5101382    0.3218523 
   6.660000000    -0.5353721    0.3424214    -0.4188397   -0.6119833    -0.4001453   -0.6092372    -0.5094880    0.3205990 
   6.662500000    -0.5355748    0.3423828    -0.4196135   -0.6113187    -0.3997583   -0.6089896    -0.5088291    0.3194799 
   6.665000000    -0.5355586    0.3423245    -0.4196021   -0.6105117    -0.3997266   -0.6084973    -0.5080740    0.3180817 
   6.667500000    -0.5354338    0.3433239    -0.4189994   -0.6102958    -0.3998573   -0.6081430    -0.5067220    0.3171303 
   6.670000000    -0.5355074    0.3434922    -0.4191548   -0.6094191    -0.3999541   -0.6078630    -0.5058703    0.3169762 
   6.672500000    -0.5356826    0.3441014    -0.4185159   -0.6091257    -0.3998548   -0.6076118    -0.5052156    0.3163199 
   6.675000000    -0.5358872    0.3446942    -0.4186107   -0.6089947    -0.3993944   -0.6076239    -0.5046495    0.3158869 
   6.677500000    -0.5358313    0.3454768    -0.4194049   -0.6080565    -0.3994405   -0.6075507    -0.5044647    0.3153246 
   6.680000000    -0.5357898    0.3467090    -0.4189596   -0.6077916    -0.3991431   -0.6076934    -0.5031868    0.3152196 
   6.682500000    -0.5357201    0.3471045    -0.4185861   -0.6077108    -0.3989792   -0.6076753    -0.5026065    0.3156597 
   6.685000000    -0.5357227    0.3476560    -0.4182966   -0.6074066    -0.3992606   -0.6073143    -0.5021693    0.3155759 
   6.687500000    -0.5357915    0.3485323    -0.4184873   -0.6070244    -0.3987961   -0.6079207    -0.5018929    0.3159684 
   6.690000000    -0.5356323    0.3498379    -0.4181841   -0.6073634    -0.3989917   -0.6077994    -0.5012208    0.3166942 
   6.692500000    -0.5355999    0.3512656    -0.4187297   -0.6063514    -0.3988662   -0.6080308    -0.5004022    0.3173992 
   6.695000000    -0.5355517    0.3520069    -0.4183083   -0.6063424    -0.3984477   -0.6083490    -0.4999481    0.3187663 
   6.697500000    -0.5355679    0.3526360    -0.4180873   -0.6061275    -0.3980541   -0.6089488    -0.4993705    0.3193282 
   6.700000000    -0.5359923    0.3536275    -0.4185100   -0.6056895    -0.3987086   -0.6089183    -0.4991503    0.3201832 
   6.702500000    -0.5358716    0.3551274    -0.4180675   -0.6057944    -0.3986077   -0.6089847    -0.4985419    0.3214307 
   6.705000000    -0.5361004    0.3564932    -0.4189264   -0.6055825    -0.3983946   -0.6098619    -0.4982291    0.3227312 
   6.707500000    -0.5363927    0.3575411    -0.4191968   -0.6055844    -0.3985811   -0.6101609    -0.4972361    0.3247089 
   6.710000000    -0.5367891    0.3585293    -0.4192034   -0.6053914    -0.3988249   -0.6106752    -0.4969992    0.3270026 
   6.712500000    -0.5371599    0.3595642    -0.4193699   -0.6054125    -0.3985332   -0.6111763    -0.4965358    0.3285737 
   6.715000000    -0.5374695    0.3606388    -0.4194665   -0.6051875    -0.3996418   -0.6115617    -0.4956387    0.3303210 
   6.717500000    -0.5373960    0.3622375    -0.4197736   -0.6049425    -0.4000121   -0.6118482    -0.4949902    0.3326203 
   6.720000000    -0.5379814    0.3632140    -0.4208494   -0.6047724    -0.4001334   -0.6121853    -0.4946021    0.3345757 
   6.722500000    -0.5384365    0.3638046    -0.4209508   -0.6049917    -0.4005321   -0.6125261    -0.4940828    0.3361245 
   6.725000000    -0.5388368    0.3647201    -0.4209628   -0.6055763    -0.4007551   -0.6128401    -0.4933100    0.3389419 
   6.727500000    -0.5393536    0.3653077    -0.4213406   -0.6052065    -0.4016964   -0.6132938    -0.4928157    0.3411061 
   6.730000000    -0.5399582    0.3657646    -0.4205458   -0.6047203    -0.4019281   -0.6136245    -0.4927062    0.3427660 
   6.732500000    -0.5402229    0.3664637    -0.4213360   -0.6043237    -0.4023648   -0.6141365    -0.4921790    0.3446554 
   6.735000000    -0.5402802    0.3670438    -0.4220490   -0.6035906    -0.4026977   -0.6147349    -0.4915527    0.3462368 
   6.737500000    -0.5408389    0.3672950    -0.4220415   -0.6043417    -0.4025977   -0.6144219    -0.4914646    0.3476614 
   6.740000000    -0.5420107    0.3676618    -0.4224022   -0.6043543    -0.4036292   -0.6146632    -0.4911368    0.3491874 
   6.742500000    -0.5427867    0.3678439    -0.4219261   -0.6036013    -0.4041790   -0.6149715    -0.4906889    0.3509975 
   6.745000000    -0.5431537    0.3677593    -0.4228413   -0.6033581    -0.4050090   -0.6151419    -0.4906083    0.3524473 
   6.747500000    -0.5435212    0.3677100    -0.4229274   -0.6031428    -0.4051619   -0.6153980    -0.4905407    0.3531636 
   6.750000000    -0.5439245    0.3676926    -0.4230166   -0.6030810    -0.4055755   -0.6153489    -0.4902462    0.3541915 
   6.752500000    -0.5446569    0.3674192    -0.4230125   -0.6029095    -0.4057150   -0.6159043    -0.4901585    0.3543989 
   6.755000000    -0.5452459    0.3668222    -0.4225009   -0.6030728    -0.4064230   -0.6160141    -0.4897759    0.3546196 
   6.757500000    -0.5457059    0.3660760    -0.4224934   -0.6034686    -0.4071046   -0.6158080    -0.4894442    0.3553672 
   6.760000000    -0.5461345    0.3648404    -0.4225896   -0.6032243    -0.4070897   -0.6161217    -0.4889089    0.3557782 
   6.762500000    -0.5461021    0.3641941    -0.4231063   -0.6031486    -0.4076231   -0.6162437    -0.4887539    0.3557907 
   6.765000000    -0.5465875    0.3635835    -0.4223973   -0.6036824    -0.4079695   -0.6165118    -0.4885939    0.3555601 
   6.767500000    -0.5465348    0.3628597    -0.4225935   -0.6035474    -0.4079101   -0.6169905    -0.4888438    0.3551173 
   6.770000000    -0.5467992    0.3615244    -0.4220851   -0.6041794    -0.4082085   -0.6175226    -0.4886321    0.3546955 
   6.772500000    -0.5472270    0.3595137    -0.4218144   -0.6044608    -0.4096059   -0.6176344    -0.4882087    0.3554583 
   6.775000000    -0.5474300    0.3582471    -0.4218704   -0.6052033    -0.4096926   -0.6181102    -0.4881255    0.3546813 
   6.777500000    -0.5476114    0.3566374    -0.4222344   -0.6051357    -0.4096749   -0.6184878    -0.4877876    0.3540193 
   6.780000000    -0.5480629    0.3547101    -0.4220221   -0.6057708    -0.4099056   -0.6192752    -0.4878957    0.3528263 
   6.782500000    -0.5481953    0.3540098    -0.4217252   -0.6064037    -0.4100438   -0.6198649    -0.4876358    0.3512669 
   6.785000000    -0.5485769    0.3523554    -0.4218974   -0.6070480    -0.4102792   -0.6208435    -0.4869504    0.3509100 
   6.787500000    -0.5489171    0.3508362    -0.4215632   -0.6080934    -0.4110112   -0.6214868    -0.4866653    0.3505898 
   6.790000000    -0.5497680    0.3492277    -0.4217770   -0.6087424    -0.4122070   -0.6223152    -0.4866268    0.3494259 
   6.792500000    -0.5499683    0.3473130    -0.4230731   -0.6095691    -0.4130077   -0.6229800    -0.4866677    0.3485309 
   6.795000000    -0.5505857    0.3460495    -0.4229198   -0.6102054    -0.4133826   -0.6237661    -0.4866279    0.3477916 
   6.797500000    -0.5511746    0.3454282    -0.4230459   -0.6112142    -0.4136239   -0.6249081    -0.4865157    0.3472205 
   6.800000000    -0.5520876    0.3445875    -0.4231792   -0.6124339    -0.4142595   -0.6257750    -0.4866543    0.3467425 
   6.802500000    -0.5524709    0.3439091    -0.4239673   -0.6133524    -0.4152354   -0.6269546    -0.4870438    0.3460803 
   6.805000000    -0.5529745    0.3431086    -0.4245043   -0.6142886    -0.4164115   -0.6276610    -0.4869700    0.3460461 
   6.807500000    -0.5534809    0.3430533    -0.4263206   -0.6146631    -0.4182715   -0.6283307    -0.4871465    0.3462169 
   6.810000000    -0.5540391    0.3433331    -0.4271624   -0.6157223    -0.4197720   -0.6286874    -0.4862996    0.3471501 
   6.812500000    -0.5543941    0.3438225    -0.4276392   -0.6165916    -0.4207267   -0.6291811    -0.4862196    0.3487140 
   6.815000000    -0.5551212    0.3444045    -0.4287558   -0.6173427    -0.4216306   -0.6302407    -0.4862585    0.3490390 
   6.817500000    -0.5551598    0.3445157    -0.4293581   -0.6185197    -0.4232539   -0.6307256    -0.4858145    0.3504290 
   6.820000000    -0.5544373    0.3452027    -0.4308834   -0.6190596    -0.4252344   -0.6310629    -0.4856551    0.3517171 
   6.822500000    -0.5539867    0.3465892    -0.4328722   -0.6192470    -0.4271088   -0.6312103    -0.4851616    0.3536567 
   6.825000000    -0.5540447    0.3477011    -0.4345557   -0.6200720    -0.4283663   -0.6316648    -0.4833670    0.3562648 
   6.827500000    -0.5543134    0.3487755    -0.4354596   -0.6210500    -0.4298863   -0.6323893    -0.4823897    0.3576505 
   6.830000000    -0.5533655    0.3496134    -0.4359712   -0.6213140    -0.4310160   -0.6322361    -0.4810286    0.3594114 
   6.832500000    -0.5520352    0.3508243    -0.4373021   -0.6215008    -0.4323804   -0.6322313    -0.4799547    0.3614124 
   6.835000000    -0.5508489    0.3519104    -0.4391776   -0.6224980    -0.4341258   -0.6321922    -0.4785319    0.3634840 
   6.837500000    -0.5495548    0.3536239    -0.4414205   -0.6214752    -0.4357582   -0.6320167    -0.4770565    0.3655768 
   6.840000000    -0.5482494    0.3550172    -0.4420843   -0.6217736    -0.4364738   -0.6320211    -0.4746946    0.3680380 
   6.842500000    -0.5468365    0.3557819    -0.4436607   -0.6211103    -0.4372971   -0.6321197    -0.4728242    0.3698225 
   6.845000000    -0.5454138    0.3561189    -0.4451327   -0.6215983    -0.4384835   -0.6318157    -0.4717850    0.3714603 
   6.847500000    -0.5438451    0.3566494    -0.4463994   -0.6215001    -0.4399139   -0.6321917    -0.4708166    0.3729849 
   6.850000000    -0.5422350    0.3573785    -0.4477164   -0.6206944    -0.4407673   -0.6319246    -0.4696732    0.3746002 
   6.852500000    -0.5411419    0.3577510    -0.4486779   -0.6207124    -0.4415984   -0.6321342    -0.4688067    0.3759910 
   6.855000000    -0.5400319    0.3583282    -0.4498698   -0.6201756    -0.4424343   -0.6325586    -0.4678509    0.3771813 
   6.857500000    -0.5386872    0.3580495    -0.4507255   -0.6198730    -0.4429624   -0.6326426    -0.4667442    0.3787693 
   6.860000000    -0.5370797    0.3578660    -0.4525688   -0.6202239    -0.4444641   -0.6334144    -0.4660674    0.3808861 
   6.862500000    -0.5356709    0.3573803    -0.4536618   -0.6192912    -0.4456110   -0.6334161    -0.4653275    0.3821456 
   6.865000000    -0.5343093    0.3570985    -0.4540731   -0.6189446    -0.4466406   -0.6338984    -0.4649834    0.3830453 
   6.867500000    -0.5329947    0.3569852    -0.4549019   -0.6187661    -0.4475017   -0.6344274    -0.4644405    0.3842640 
   6.870000000    -0.5316198    0.3561985    -0.4551142   -0.6185747    -0.4484778   -0.6347914    -0.4641203    0.3855555 
   6.872500000    -0.5299734    0.3551593    -0.4563869   -0.6177421    -0.4500576   -0.6341018    -0.4640160    0.3863861 
   6.875000000    -0.5285597    0.3542510    -0.4574440   -0.6180009    -0.4515589   -0.6346638    -0.4631459    0.3885533 
   6.877500000    -0.5272369    0.3532306    -0.4580025   -0.6187821    -0.4528975   -0.6354021    -0.4629662    0.3896797 
   6.880000000    -0.5255849    0.3520797    -0.4587548   -0.6186787    -0.4543285   -0.6362169    -0.4625922    0.3905111 
   6.882500000    -0.5247514    0.3510896    -0.4591978   -0.6188297    -0.4560708   -0.6368333    -0.4625028    0.3910550 
   6.885000000    -0.5232474    0.3491949    -0.4595751   -0.6187109    -0.4579034   -0.6368389    -0.4622472    0.3915515 
   6.887500000    -0.5214772    0.3473990    -0.4611254   -0.6183864    -0.4595360   -0.6373883    -0.4616068    0.3925080 
