! MS46122B
! 1919307/90821646
! 6/13/2022 11:55:55 AM
! C:\USERS\PC_\DESKTOP\CARACTERIZACION\MEDICIONES\BANCHA ESTRECHA\55_6GHZ\S11_S21_ABS65_1002CL.S2P
! CHANNEL.1
! TR.MEASUREMENT
! CORRECTED.DATA
# GHZ S RI R 50.0
! FREQ.GHZ         S11RE         S11IM         S21RE         S21IM         S12RE         S12IM         S22RE         S22IM         
!; PortSelection: Port_12
   5.500000000    -0.8401142    0.1242817    -0.1525558   -0.5054557    -0.1467585   -0.5058552    -0.7480378    0.1605958 
   5.502500000    -0.8395196    0.1246386    -0.1529187   -0.5058232    -0.1450480   -0.5049158    -0.7496303    0.1593006 
   5.505000000    -0.8403924    0.1255126    -0.1510544   -0.5056679    -0.1426817   -0.5038047    -0.7503359    0.1587098 
   5.507500000    -0.8411846    0.1264108    -0.1487515   -0.5052105    -0.1411889   -0.5032005    -0.7531477    0.1585727 
   5.510000000    -0.8415754    0.1272442    -0.1472996   -0.5044318    -0.1391020   -0.5026532    -0.7544997    0.1586629 
   5.512500000    -0.8426982    0.1285661    -0.1452653   -0.5042468    -0.1373179   -0.5024637    -0.7562680    0.1581980 
   5.515000000    -0.8434761    0.1293745    -0.1436802   -0.5045051    -0.1351938   -0.5019284    -0.7580141    0.1589221 
   5.517500000    -0.8438404    0.1306274    -0.1417386   -0.5043320    -0.1331621   -0.5017059    -0.7599213    0.1600204 
   5.520000000    -0.8444808    0.1317990    -0.1397058   -0.5041845    -0.1314677   -0.5018811    -0.7617491    0.1607592 
   5.522500000    -0.8448001    0.1333438    -0.1378942   -0.5044714    -0.1292685   -0.5021454    -0.7638639    0.1617313 
   5.525000000    -0.8452666    0.1345851    -0.1360597   -0.5044110    -0.1276291   -0.5023451    -0.7659246    0.1638273 
   5.527500000    -0.8458948    0.1359142    -0.1344372   -0.5042613    -0.1261087   -0.5026199    -0.7672909    0.1647301 
   5.530000000    -0.8458450    0.1370803    -0.1332892   -0.5049732    -0.1243061   -0.5031893    -0.7690399    0.1661306 
   5.532500000    -0.8461891    0.1388087    -0.1310551   -0.5054748    -0.1221967   -0.5030821    -0.7700839    0.1682260 
   5.535000000    -0.8463305    0.1394680    -0.1293257   -0.5057849    -0.1203640   -0.5036563    -0.7720475    0.1703904 
   5.537500000    -0.8464424    0.1413989    -0.1271437   -0.5061072    -0.1183220   -0.5041192    -0.7731159    0.1724331 
   5.540000000    -0.8468561    0.1423116    -0.1255402   -0.5068421    -0.1160121   -0.5047570    -0.7751369    0.1741950 
   5.542500000    -0.8471632    0.1437209    -0.1245396   -0.5074114    -0.1146913   -0.5054882    -0.7767649    0.1765013 
   5.545000000    -0.8466190    0.1440987    -0.1226778   -0.5078590    -0.1125909   -0.5063511    -0.7783203    0.1783877 
   5.547500000    -0.8461272    0.1454507    -0.1210476   -0.5083030    -0.1106073   -0.5071031    -0.7790708    0.1807106 
   5.550000000    -0.8456139    0.1464730    -0.1194951   -0.5089179    -0.1087985   -0.5076547    -0.7800620    0.1828845 
   5.552500000    -0.8457761    0.1470204    -0.1178433   -0.5095726    -0.1073288   -0.5084175    -0.7806662    0.1854096 
   5.555000000    -0.8467005    0.1477533    -0.1165466   -0.5098920    -0.1057394   -0.5094236    -0.7810109    0.1877067 
   5.557500000    -0.8471507    0.1483664    -0.1154550   -0.5106499    -0.1041936   -0.5104312    -0.7819279    0.1900557 
   5.560000000    -0.8455470    0.1492348    -0.1138692   -0.5109337    -0.1026272   -0.5113372    -0.7825494    0.1922656 
   5.562500000    -0.8436938    0.1503871    -0.1126870   -0.5114760    -0.1010116   -0.5122132    -0.7838102    0.1945834 
   5.565000000    -0.8437731    0.1515065    -0.1114947   -0.5121550    -0.0995972   -0.5131872    -0.7845281    0.1974891 
   5.567500000    -0.8442736    0.1508486    -0.1107462   -0.5127264    -0.0983541   -0.5141011    -0.7851501    0.1997637 
   5.570000000    -0.8434523    0.1502366    -0.1099009   -0.5136405    -0.0975546   -0.5148812    -0.7854841    0.2023572 
   5.572500000    -0.8431515    0.1511876    -0.1079062   -0.5144551    -0.0959800   -0.5158684    -0.7863537    0.2042715 
   5.575000000    -0.8427552    0.1524284    -0.1077278   -0.5151886    -0.0950139   -0.5166257    -0.7865752    0.2065624 
   5.577500000    -0.8426848    0.1534291    -0.1058301   -0.5160199    -0.0940407   -0.5179203    -0.7874452    0.2085443 
   5.580000000    -0.8420334    0.1537417    -0.1047454   -0.5171500    -0.0930292   -0.5188250    -0.7877293    0.2110885 
   5.582500000    -0.8412967    0.1546790    -0.1046020   -0.5178831    -0.0923508   -0.5201086    -0.7884663    0.2132327 
   5.585000000    -0.8410319    0.1550742    -0.1031804   -0.5189571    -0.0912299   -0.5211643    -0.7890252    0.2151489 
   5.587500000    -0.8405555    0.1557200    -0.1017431   -0.5198051    -0.0902895   -0.5223570    -0.7897124    0.2167001 
   5.590000000    -0.8404434    0.1564658    -0.1001449   -0.5207966    -0.0891072   -0.5235457    -0.7901212    0.2186719 
   5.592500000    -0.8402041    0.1576319    -0.0991794   -0.5217656    -0.0877364   -0.5245450    -0.7900285    0.2204650 
   5.595000000    -0.8395593    0.1579474    -0.0978746   -0.5224038    -0.0866609   -0.5253646    -0.7902715    0.2219099 
   5.597500000    -0.8389758    0.1595288    -0.0970765   -0.5236511    -0.0860551   -0.5260277    -0.7907082    0.2238790 
   5.600000000    -0.8387966    0.1598758    -0.0954636   -0.5241943    -0.0842355   -0.5274559    -0.7910191    0.2243471 
   5.602500000    -0.8383811    0.1605941    -0.0939763   -0.5251275    -0.0830542   -0.5283896    -0.7912888    0.2258112 
   5.605000000    -0.8377636    0.1612425    -0.0922762   -0.5261396    -0.0816785   -0.5291843    -0.7915891    0.2274071 
   5.607500000    -0.8378814    0.1628291    -0.0909987   -0.5270197    -0.0806585   -0.5303112    -0.7917888    0.2282065 
   5.610000000    -0.8370624    0.1644250    -0.0902896   -0.5277435    -0.0794495   -0.5311189    -0.7920950    0.2288384 
   5.612500000    -0.8368045    0.1651503    -0.0892597   -0.5290602    -0.0785414   -0.5321954    -0.7932873    0.2297766 
   5.615000000    -0.8364692    0.1662232    -0.0880186   -0.5302978    -0.0773753   -0.5332305    -0.7941263    0.2305292 
   5.617500000    -0.8357294    0.1678757    -0.0866046   -0.5312955    -0.0760893   -0.5341324    -0.7940963    0.2314926 
   5.620000000    -0.8349215    0.1699380    -0.0857066   -0.5323132    -0.0753656   -0.5352795    -0.7936419    0.2329967 
   5.622500000    -0.8346319    0.1716041    -0.0854844   -0.5336744    -0.0732841   -0.5363567    -0.7940262    0.2336760 
   5.625000000    -0.8339109    0.1736945    -0.0826235   -0.5349895    -0.0735430   -0.5375381    -0.7937553    0.2350851 
   5.627500000    -0.8330536    0.1753054    -0.0824283   -0.5365587    -0.0719762   -0.5388336    -0.7944040    0.2355913 
   5.630000000    -0.8324735    0.1770356    -0.0808673   -0.5383191    -0.0707947   -0.5401715    -0.7944746    0.2369082 
   5.632500000    -0.8324145    0.1799035    -0.0799470   -0.5398505    -0.0696205   -0.5416667    -0.7944833    0.2377633 
   5.635000000    -0.8311167    0.1825843    -0.0782193   -0.5414986    -0.0684584   -0.5431261    -0.7949085    0.2391518 
   5.637500000    -0.8306332    0.1847979    -0.0778078   -0.5430271    -0.0675083   -0.5449646    -0.7956411    0.2407709 
   5.640000000    -0.8301275    0.1871908    -0.0767701   -0.5454589    -0.0662728   -0.5465741    -0.7962579    0.2417071 
   5.642500000    -0.8297476    0.1891881    -0.0753840   -0.5472307    -0.0655904   -0.5487005    -0.7967322    0.2430180 
   5.645000000    -0.8295671    0.1921881    -0.0738820   -0.5492632    -0.0645948   -0.5506769    -0.7976248    0.2439789 
   5.647500000    -0.8293928    0.1947825    -0.0727460   -0.5514634    -0.0633428   -0.5527213    -0.7977545    0.2451039 
   5.650000000    -0.8285477    0.1974813    -0.0715433   -0.5533009    -0.0623494   -0.5549133    -0.7982451    0.2471559 
   5.652500000    -0.8279483    0.2004405    -0.0708557   -0.5551360    -0.0612053   -0.5573696    -0.7988307    0.2493061 
   5.655000000    -0.8275992    0.2022990    -0.0701641   -0.5578874    -0.0601530   -0.5596955    -0.7999440    0.2504060 
   5.657500000    -0.8274152    0.2045441    -0.0688129   -0.5601509    -0.0591120   -0.5621534    -0.8008654    0.2513658 
   5.660000000    -0.8266773    0.2065006    -0.0680304   -0.5623010    -0.0584458   -0.5645832    -0.8013070    0.2534818 
   5.662500000    -0.8258401    0.2087287    -0.0667772   -0.5645459    -0.0577763   -0.5669049    -0.8024779    0.2551313 
   5.665000000    -0.8250197    0.2104837    -0.0660254   -0.5667014    -0.0566802   -0.5695332    -0.8036054    0.2558668 
   5.667500000    -0.8239778    0.2120419    -0.0662046   -0.5694553    -0.0557688   -0.5719366    -0.8045670    0.2573347 
   5.670000000    -0.8229043    0.2143468    -0.0654053   -0.5717245    -0.0546511   -0.5746108    -0.8053776    0.2582202 
   5.672500000    -0.8224568    0.2157373    -0.0654829   -0.5747833    -0.0541581   -0.5770350    -0.8059015    0.2599671 
   5.675000000    -0.8208414    0.2173273    -0.0649091   -0.5777177    -0.0547452   -0.5799994    -0.8064745    0.2612506 
   5.677500000    -0.8191991    0.2194264    -0.0646378   -0.5800821    -0.0542080   -0.5826970    -0.8068078    0.2630170 
   5.680000000    -0.8179622    0.2210896    -0.0645376   -0.5829365    -0.0545340   -0.5855129    -0.8077646    0.2653542 
   5.682500000    -0.8165732    0.2229213    -0.0653550   -0.5857956    -0.0548529   -0.5883908    -0.8084702    0.2667114 
   5.685000000    -0.8143252    0.2252218    -0.0658630   -0.5887845    -0.0548760   -0.5911031    -0.8086829    0.2675900 
   5.687500000    -0.8130559    0.2269329    -0.0658442   -0.5916907    -0.0555313   -0.5942025    -0.8084818    0.2698546 
   5.690000000    -0.8113102    0.2286925    -0.0663509   -0.5947650    -0.0563318   -0.5972484    -0.8076321    0.2710098 
   5.692500000    -0.8091814    0.2297374    -0.0660764   -0.5977427    -0.0573213   -0.6002086    -0.8070239    0.2726045 
   5.695000000    -0.8077180    0.2314464    -0.0662921   -0.6008080    -0.0576443   -0.6032546    -0.8065717    0.2738820 
   5.697500000    -0.8061708    0.2322457    -0.0677800   -0.6036906    -0.0585057   -0.6064925    -0.8064444    0.2755610 
   5.700000000    -0.8045324    0.2331823    -0.0681567   -0.6066265    -0.0594988   -0.6094644    -0.8054646    0.2769225 
   5.702500000    -0.8023233    0.2332983    -0.0684542   -0.6093348    -0.0605386   -0.6129738    -0.8042256    0.2788330 
   5.705000000    -0.8001037    0.2343420    -0.0696405   -0.6118255    -0.0621910   -0.6155822    -0.8030151    0.2809682 
   5.707500000    -0.7976041    0.2349474    -0.0705480   -0.6142589    -0.0634908   -0.6186149    -0.8014781    0.2824449 
   5.710000000    -0.7954233    0.2358192    -0.0707219   -0.6166438    -0.0645177   -0.6211008    -0.7992219    0.2836731 
   5.712500000    -0.7930867    0.2359744    -0.0728708   -0.6192510    -0.0652787   -0.6236494    -0.7972392    0.2858653 
   5.715000000    -0.7905026    0.2368750    -0.0735165   -0.6215428    -0.0669731   -0.6263526    -0.7949579    0.2880956 
   5.717500000    -0.7876447    0.2373994    -0.0746684   -0.6239182    -0.0683545   -0.6288489    -0.7934505    0.2899104 
   5.720000000    -0.7851047    0.2372393    -0.0763909   -0.6261989    -0.0684349   -0.6314010    -0.7916160    0.2915729 
   5.722500000    -0.7820113    0.2378374    -0.0765941   -0.6286183    -0.0714865   -0.6331462    -0.7896294    0.2934498 
   5.725000000    -0.7788091    0.2378177    -0.0786228   -0.6300999    -0.0722325   -0.6349006    -0.7870799    0.2955558 
   5.727500000    -0.7755917    0.2382730    -0.0801689   -0.6322684    -0.0740150   -0.6366647    -0.7844613    0.2966650 
   5.730000000    -0.7729743    0.2383523    -0.0819334   -0.6347219    -0.0754824   -0.6387649    -0.7821990    0.2979701 
   5.732500000    -0.7698497    0.2384049    -0.0830212   -0.6369806    -0.0769469   -0.6406893    -0.7790619    0.2999087 
   5.735000000    -0.7670575    0.2388447    -0.0846034   -0.6391651    -0.0793010   -0.6426516    -0.7762764    0.3017765 
   5.737500000    -0.7641446    0.2389343    -0.0865760   -0.6409352    -0.0808218   -0.6444857    -0.7733150    0.3027335 
   5.740000000    -0.7617111    0.2397011    -0.0883297   -0.6435815    -0.0826370   -0.6465524    -0.7700806    0.3040501 
   5.742500000    -0.7590547    0.2398476    -0.0895876   -0.6459970    -0.0844924   -0.6485116    -0.7668538    0.3049543 
   5.745000000    -0.7564790    0.2398279    -0.0903237   -0.6484824    -0.0866653   -0.6504717    -0.7631658    0.3069169 
   5.747500000    -0.7540842    0.2405184    -0.0922106   -0.6504002    -0.0887005   -0.6523604    -0.7606972    0.3084617 
   5.750000000    -0.7517638    0.2415375    -0.0941998   -0.6528310    -0.0899186   -0.6542962    -0.7575316    0.3101264 
   5.752500000    -0.7493237    0.2418957    -0.0963120   -0.6549226    -0.0917055   -0.6564060    -0.7544299    0.3107737 
   5.755000000    -0.7468033    0.2420009    -0.0972828   -0.6570972    -0.0934546   -0.6583362    -0.7512816    0.3123167 
   5.757500000    -0.7444909    0.2420118    -0.0987269   -0.6591917    -0.0940237   -0.6604348    -0.7485772    0.3128676 
   5.760000000    -0.7422543    0.2426624    -0.0996289   -0.6610023    -0.0958042   -0.6626638    -0.7460690    0.3136634 
   5.762500000    -0.7401264    0.2434335    -0.1015718   -0.6628606    -0.0971693   -0.6648136    -0.7439504    0.3145033 
   5.765000000    -0.7380859    0.2438777    -0.1036536   -0.6652851    -0.0985996   -0.6665016    -0.7414999    0.3146769 
   5.767500000    -0.7359573    0.2442779    -0.1054782   -0.6671230    -0.0997088   -0.6685321    -0.7394561    0.3152925 
   5.770000000    -0.7341179    0.2452801    -0.1070047   -0.6685148    -0.1013779   -0.6707313    -0.7374260    0.3152573 
   5.772500000    -0.7321029    0.2458371    -0.1093197   -0.6708263    -0.1026853   -0.6722189    -0.7359297    0.3158368 
   5.775000000    -0.7298855    0.2467514    -0.1117560   -0.6719775    -0.1051536   -0.6741720    -0.7332643    0.3157793 
   5.777500000    -0.7273973    0.2479105    -0.1136349   -0.6734682    -0.1076444   -0.6758971    -0.7312058    0.3160596 
   5.780000000    -0.7255706    0.2486458    -0.1165051   -0.6753053    -0.1101242   -0.6777229    -0.7300812    0.3164673 
   5.782500000    -0.7238635    0.2494436    -0.1186711   -0.6772184    -0.1132077   -0.6795889    -0.7288955    0.3167922 
   5.785000000    -0.7223731    0.2506421    -0.1213312   -0.6789898    -0.1153023   -0.6813874    -0.7276103    0.3160648 
   5.787500000    -0.7207844    0.2516173    -0.1238604   -0.6808600    -0.1179494   -0.6832194    -0.7263566    0.3159187 
   5.790000000    -0.7186531    0.2519954    -0.1269085   -0.6826707    -0.1209832   -0.6850635    -0.7250127    0.3149238 
   5.792500000    -0.7161526    0.2532355    -0.1303495   -0.6844017    -0.1236998   -0.6870108    -0.7236686    0.3146896 
   5.795000000    -0.7144126    0.2543353    -0.1324007   -0.6861005    -0.1263970   -0.6886920    -0.7219189    0.3142545 
   5.797500000    -0.7124751    0.2558930    -0.1356118   -0.6877382    -0.1295180   -0.6905041    -0.7204180    0.3134857 
   5.800000000    -0.7100684    0.2563121    -0.1388000   -0.6889628    -0.1330076   -0.6922106    -0.7191039    0.3126782 
   5.802500000    -0.7079018    0.2573631    -0.1412167   -0.6907699    -0.1352529   -0.6932155    -0.7180048    0.3112524 
   5.805000000    -0.7057712    0.2575246    -0.1445922   -0.6923178    -0.1385056   -0.6943639    -0.7163987    0.3105185 
   5.807500000    -0.7032892    0.2582290    -0.1477956   -0.6932005    -0.1414837   -0.6953694    -0.7144836    0.3082774 
   5.810000000    -0.7005123    0.2586703    -0.1512449   -0.6939902    -0.1441383   -0.6962183    -0.7131217    0.3075347 
   5.812500000    -0.6971246    0.2594041    -0.1530666   -0.6948193    -0.1470892   -0.6967599    -0.7108806    0.3060518 
   5.815000000    -0.6944616    0.2595822    -0.1565084   -0.6949395    -0.1508484   -0.6976540    -0.7084966    0.3047120 
   5.817500000    -0.6914225    0.2591462    -0.1589793   -0.6952773    -0.1537386   -0.6981414    -0.7063935    0.3031473 
   5.820000000    -0.6881740    0.2590547    -0.1620595   -0.6958229    -0.1569260   -0.6978077    -0.7038624    0.3017509 
   5.822500000    -0.6848085    0.2584675    -0.1657939   -0.6954851    -0.1595730   -0.6976280    -0.7016510    0.3003820 
   5.825000000    -0.6813855    0.2582678    -0.1680827   -0.6961071    -0.1616497   -0.6974483    -0.6997527    0.2980356 
   5.827500000    -0.6776811    0.2576169    -0.1707880   -0.6966554    -0.1649405   -0.6967794    -0.6972314    0.2963170 
   5.830000000    -0.6734067    0.2567617    -0.1728905   -0.6963162    -0.1681799   -0.6966980    -0.6939211    0.2944999 
   5.832500000    -0.6693482    0.2553889    -0.1761758   -0.6959089    -0.1715800   -0.6961403    -0.6906828    0.2930837 
   5.835000000    -0.6653209    0.2541258    -0.1794218   -0.6951061    -0.1742564   -0.6955255    -0.6873258    0.2908570 
   5.837500000    -0.6618111    0.2528029    -0.1832056   -0.6950268    -0.1770693   -0.6944382    -0.6836990    0.2898373 
   5.840000000    -0.6581133    0.2509702    -0.1851621   -0.6952394    -0.1790010   -0.6940749    -0.6808437    0.2877639 
   5.842500000    -0.6545971    0.2491148    -0.1870632   -0.6952960    -0.1811307   -0.6938841    -0.6776780    0.2857051 
   5.845000000    -0.6512731    0.2470619    -0.1905140   -0.6948881    -0.1842761   -0.6936777    -0.6740031    0.2842718 
   5.847500000    -0.6482875    0.2447241    -0.1929049   -0.6958349    -0.1866979   -0.6935511    -0.6712052    0.2828241 
   5.850000000    -0.6452700    0.2422933    -0.1963364   -0.6956374    -0.1888706   -0.6934712    -0.6681374    0.2814136 
   5.852500000    -0.6425977    0.2405079    -0.1977507   -0.6954674    -0.1912500   -0.6930885    -0.6652067    0.2800712 
   5.855000000    -0.6401799    0.2379218    -0.2002777   -0.6960719    -0.1929327   -0.6937281    -0.6624929    0.2786549 
   5.857500000    -0.6379076    0.2353835    -0.2033891   -0.6961430    -0.1959879   -0.6935370    -0.6597918    0.2778861 
   5.860000000    -0.6360378    0.2327504    -0.2066274   -0.6968738    -0.1968127   -0.6937073    -0.6570008    0.2772187 
   5.862500000    -0.6339267    0.2310359    -0.2094073   -0.6968327    -0.2012900   -0.6938170    -0.6542528    0.2775140 
   5.865000000    -0.6328429    0.2287075    -0.2116649   -0.6966296    -0.2007646   -0.6944388    -0.6508142    0.2762041 
   5.867500000    -0.6315284    0.2260505    -0.2140179   -0.6964638    -0.2044522   -0.6944589    -0.6473848    0.2749045 
   5.870000000    -0.6303244    0.2237352    -0.2165359   -0.6971553    -0.2078351   -0.6947306    -0.6442177    0.2743631 
   5.872500000    -0.6290939    0.2215968    -0.2193193   -0.6972656    -0.2094086   -0.6947064    -0.6414661    0.2743324 
   5.875000000    -0.6286398    0.2196396    -0.2239310   -0.6958139    -0.2094752   -0.6949771    -0.6390033    0.2738314 
   5.877500000    -0.6274837    0.2185867    -0.2233985   -0.6977494    -0.2177654   -0.6933606    -0.6358245    0.2747086 
   5.880000000    -0.6270000    0.2173061    -0.2282951   -0.6962461    -0.2184868   -0.6938995    -0.6332079    0.2743810 
   5.882500000    -0.6263694    0.2161222    -0.2331014   -0.6957267    -0.2220288   -0.6938516    -0.6298586    0.2751973 
   5.885000000    -0.6260234    0.2150992    -0.2355957   -0.6960087    -0.2252193   -0.6935568    -0.6274982    0.2744641 
   5.887500000    -0.6261273    0.2134922    -0.2395877   -0.6946751    -0.2287707   -0.6928995    -0.6242868    0.2735848 
