! MS46122B
! 1919307/90821646
! 5/25/2022 1:47:09 PM
! C:\USERS\PC_\DESKTOP\CARACTERIZACION\MEDICIONES\BANCHA ESTRECHA\5_55GHZ\S11_S21_ABS65_1002CL.S2P
! CHANNEL.1
! TR.MEASUREMENT
! CORRECTED.DATA
# GHZ S RI R 50.0
! FREQ.GHZ         S11RE         S11IM         S21RE         S21IM         S12RE         S12IM         S22RE         S22IM         
!; PortSelection: Port_12
   5.000000000    -0.8363505    0.1035374    -0.0154674   -0.5120708     0.0339709   -0.5274044    -0.8138283    0.0782851 
   5.002500000    -0.8379438    0.1008103    -0.0184514   -0.5088403     0.0337397   -0.5286265    -0.8139551    0.0790123 
   5.005000000    -0.8384362    0.0990321    -0.0184821   -0.5082752     0.0339320   -0.5302552    -0.8143556    0.0794794 
   5.007500000    -0.8391593    0.0975938    -0.0173415   -0.5076684     0.0340400   -0.5312144    -0.8148383    0.0796313 
   5.010000000    -0.8399470    0.0964623    -0.0163791   -0.5072401     0.0346900   -0.5322934    -0.8149408    0.0790768 
   5.012500000    -0.8406479    0.0949387    -0.0151488   -0.5066537     0.0353320   -0.5333881    -0.8149557    0.0793208 
   5.015000000    -0.8413469    0.0936477    -0.0144962   -0.5057756     0.0355346   -0.5343630    -0.8150848    0.0795650 
   5.017500000    -0.8413646    0.0924772    -0.0142414   -0.5053357     0.0356818   -0.5350470    -0.8150906    0.0793732 
   5.020000000    -0.8419609    0.0911564    -0.0128497   -0.5046881     0.0354385   -0.5360763    -0.8150333    0.0790972 
   5.022500000    -0.8423299    0.0905120    -0.0118311   -0.5040573     0.0353289   -0.5370368    -0.8150275    0.0793012 
   5.025000000    -0.8421732    0.0898379    -0.0107075   -0.5033560     0.0354462   -0.5377784    -0.8145736    0.0788471 
   5.027500000    -0.8423862    0.0890157    -0.0101215   -0.5025364     0.0356842   -0.5384124    -0.8145494    0.0783359 
   5.030000000    -0.8424872    0.0884310    -0.0092825   -0.5016909     0.0357408   -0.5391319    -0.8145786    0.0784043 
   5.032500000    -0.8424578    0.0878637    -0.0084676   -0.5016440     0.0356913   -0.5396923    -0.8149815    0.0777213 
   5.035000000    -0.8425552    0.0878540    -0.0072075   -0.5007922     0.0352614   -0.5403066    -0.8151297    0.0780525 
   5.037500000    -0.8427907    0.0875023    -0.0057226   -0.5003239     0.0352774   -0.5408913    -0.8155547    0.0777901 
   5.040000000    -0.8434232    0.0874517    -0.0050524   -0.5000722     0.0349286   -0.5416222    -0.8162220    0.0780130 
   5.042500000    -0.8436788    0.0864922    -0.0039684   -0.4996165     0.0352280   -0.5423084    -0.8161501    0.0780939 
   5.045000000    -0.8435344    0.0858021    -0.0027649   -0.4993677     0.0354368   -0.5426200    -0.8167986    0.0785478 
   5.047500000    -0.8444409    0.0856128    -0.0016390   -0.4996767     0.0355299   -0.5432010    -0.8172424    0.0791664 
   5.050000000    -0.8446507    0.0846000     0.0000243   -0.4997005     0.0357405   -0.5443997    -0.8182090    0.0788830 
   5.052500000    -0.8454399    0.0839905     0.0014255   -0.4996563     0.0359160   -0.5450874    -0.8190084    0.0796985 
   5.055000000    -0.8458015    0.0834198     0.0034999   -0.4999608     0.0360440   -0.5460594    -0.8193966    0.0805037 
   5.057500000    -0.8466081    0.0824533     0.0048159   -0.4997914     0.0369095   -0.5470582    -0.8196887    0.0811339 
   5.060000000    -0.8470089    0.0819947     0.0066226   -0.4998766     0.0373545   -0.5477789    -0.8205282    0.0818655 
   5.062500000    -0.8476436    0.0809526     0.0077025   -0.5005832     0.0375586   -0.5489082    -0.8211403    0.0830303 
   5.065000000    -0.8482164    0.0800713     0.0099419   -0.5007653     0.0379399   -0.5498145    -0.8216360    0.0833698 
   5.067500000    -0.8486747    0.0796576     0.0111957   -0.5010235     0.0380668   -0.5508110    -0.8220287    0.0850290 
   5.070000000    -0.8492436    0.0795629     0.0135857   -0.5012047     0.0382034   -0.5516867    -0.8224421    0.0866839 
   5.072500000    -0.8500052    0.0784906     0.0147007   -0.5015334     0.0389167   -0.5527318    -0.8227080    0.0873145 
   5.075000000    -0.8505080    0.0775342     0.0161520   -0.5025080     0.0391112   -0.5542216    -0.8232182    0.0887583 
   5.077500000    -0.8508273    0.0768794     0.0180576   -0.5031231     0.0390136   -0.5555897    -0.8235388    0.0899926 
   5.080000000    -0.8514950    0.0766518     0.0194932   -0.5039040     0.0392436   -0.5571833    -0.8243990    0.0916783 
   5.082500000    -0.8515188    0.0763290     0.0212895   -0.5047852     0.0389799   -0.5586812    -0.8246699    0.0929455 
   5.085000000    -0.8515598    0.0760940     0.0222990   -0.5056162     0.0389717   -0.5601996    -0.8249950    0.0950821 
   5.087500000    -0.8517265    0.0754261     0.0236129   -0.5070633     0.0387191   -0.5622435    -0.8257063    0.0962888 
   5.090000000    -0.8521183    0.0754534     0.0248643   -0.5081592     0.0383311   -0.5640084    -0.8264046    0.0978008 
   5.092500000    -0.8524163    0.0756026     0.0263841   -0.5094062     0.0381322   -0.5658312    -0.8268103    0.0997626 
   5.095000000    -0.8525407    0.0752212     0.0276077   -0.5111818     0.0375817   -0.5677231    -0.8270714    0.1004419 
   5.097500000    -0.8522611    0.0754380     0.0282316   -0.5126979     0.0370071   -0.5695534    -0.8275530    0.1017368 
   5.100000000    -0.8519440    0.0749920     0.0290796   -0.5147110     0.0369222   -0.5714118    -0.8280178    0.1035007 
   5.102500000    -0.8518553    0.0747278     0.0306880   -0.5166823     0.0364768   -0.5736859    -0.8287746    0.1051518 
   5.105000000    -0.8514131    0.0743689     0.0320142   -0.5181869     0.0357174   -0.5758991    -0.8292572    0.1062127 
   5.107500000    -0.8511190    0.0743523     0.0330333   -0.5200115     0.0349715   -0.5778790    -0.8293903    0.1084076 
   5.110000000    -0.8501782    0.0738764     0.0339529   -0.5220164     0.0346522   -0.5794888    -0.8301997    0.1092136 
   5.112500000    -0.8492036    0.0738509     0.0344133   -0.5237526     0.0337138   -0.5812693    -0.8311957    0.1117705 
   5.115000000    -0.8479934    0.0732763     0.0350560   -0.5254950     0.0325167   -0.5828278    -0.8314139    0.1135661 
   5.117500000    -0.8468282    0.0729330     0.0355729   -0.5272934     0.0316601   -0.5847921    -0.8317586    0.1152620 
   5.120000000    -0.8456041    0.0721467     0.0366772   -0.5290751     0.0305883   -0.5862281    -0.8317580    0.1166275 
   5.122500000    -0.8437911    0.0715125     0.0366304   -0.5299488     0.0290890   -0.5876119    -0.8317359    0.1180757 
   5.125000000    -0.8421510    0.0712474     0.0370367   -0.5315874     0.0279086   -0.5890613    -0.8315570    0.1198365 
   5.127500000    -0.8403682    0.0706390     0.0371935   -0.5335583     0.0265078   -0.5906584    -0.8318945    0.1207128 
   5.130000000    -0.8383138    0.0697521     0.0377209   -0.5352066     0.0253523   -0.5920964    -0.8322065    0.1220342 
   5.132500000    -0.8361989    0.0695657     0.0379825   -0.5367314     0.0232175   -0.5935634    -0.8330357    0.1235707 
   5.135000000    -0.8340299    0.0696662     0.0380875   -0.5384098     0.0215961   -0.5947409    -0.8340769    0.1253043 
   5.137500000    -0.8322303    0.0688391     0.0378473   -0.5395680     0.0200516   -0.5964103    -0.8345155    0.1263449 
   5.140000000    -0.8307389    0.0682605     0.0382214   -0.5404755     0.0185734   -0.5974730    -0.8341288    0.1276166 
   5.142500000    -0.8295568    0.0685287     0.0380248   -0.5421465     0.0168175   -0.5986887    -0.8342950    0.1293721 
   5.145000000    -0.8281218    0.0687010     0.0383439   -0.5434960     0.0152520   -0.5997021    -0.8340390    0.1307101 
   5.147500000    -0.8256784    0.0684825     0.0385121   -0.5442584     0.0134560   -0.6004651    -0.8333775    0.1318097 
   5.150000000    -0.8240266    0.0691902     0.0387975   -0.5455040     0.0115520   -0.6011247    -0.8316770    0.1310658 
   5.152500000    -0.8226891    0.0697584     0.0392392   -0.5464265     0.0096863   -0.6020901    -0.8309225    0.1314876 
   5.155000000    -0.8210009    0.0693288     0.0399979   -0.5477037     0.0087240   -0.6028690    -0.8295484    0.1315216 
   5.157500000    -0.8200528    0.0697309     0.0407934   -0.5486540     0.0071113   -0.6036965    -0.8283255    0.1323053 
   5.160000000    -0.8187509    0.0703943     0.0413876   -0.5503271     0.0060068   -0.6040980    -0.8269712    0.1324280 
   5.162500000    -0.8174248    0.0706413     0.0424688   -0.5513524     0.0051329   -0.6045336    -0.8246698    0.1325542 
   5.165000000    -0.8162919    0.0710167     0.0434487   -0.5523291     0.0040174   -0.6051766    -0.8228568    0.1325327 
   5.167500000    -0.8148137    0.0715728     0.0450101   -0.5534493     0.0031325   -0.6053630    -0.8207840    0.1323053 
   5.170000000    -0.8134676    0.0726426     0.0461934   -0.5550097     0.0018830   -0.6053528    -0.8183828    0.1324773 
   5.172500000    -0.8121892    0.0735033     0.0474146   -0.5571566     0.0008815   -0.6050135    -0.8160848    0.1322061 
   5.175000000    -0.8109539    0.0755683     0.0492232   -0.5582811     0.0004132   -0.6049814    -0.8137777    0.1318815 
   5.177500000    -0.8096679    0.0769172     0.0511546   -0.5601814    -0.0004389   -0.6051018    -0.8115718    0.1312111 
   5.180000000    -0.8082117    0.0785414     0.0533507   -0.5620885    -0.0012058   -0.6048681    -0.8091171    0.1301918 
   5.182500000    -0.8065504    0.0799279     0.0551865   -0.5643082    -0.0016629   -0.6047286    -0.8061032    0.1295753 
   5.185000000    -0.8052179    0.0823403     0.0564001   -0.5674362    -0.0022242   -0.6048071    -0.8043892    0.1283126 
   5.187500000    -0.8034030    0.0835885     0.0581573   -0.5707856    -0.0024102   -0.6048311    -0.8035123    0.1267710 
   5.190000000    -0.8014229    0.0859284     0.0595954   -0.5741463    -0.0027774   -0.6050570    -0.8012553    0.1248278 
   5.192500000    -0.7991057    0.0869713     0.0609577   -0.5778994    -0.0030772   -0.6053971    -0.8007774    0.1227696 
   5.195000000    -0.7973467    0.0892187     0.0624856   -0.5819611    -0.0029530   -0.6062145    -0.8001649    0.1203181 
   5.197500000    -0.7958227    0.0908799     0.0625875   -0.5865554    -0.0033262   -0.6076641    -0.8003042    0.1180611 
   5.200000000    -0.7937690    0.0929903     0.0628603   -0.5914735    -0.0033661   -0.6094796    -0.8006989    0.1155919 
   5.202500000    -0.7918741    0.0948383     0.0633788   -0.5964501    -0.0035983   -0.6113290    -0.8015101    0.1143048 
   5.205000000    -0.7895390    0.0962530     0.0633331   -0.6016227    -0.0038285   -0.6133506    -0.8025832    0.1121880 
   5.207500000    -0.7870651    0.0984454     0.0619640   -0.6070909    -0.0044475   -0.6151417    -0.8033688    0.1114827 
   5.210000000    -0.7847749    0.1000496     0.0605379   -0.6121785    -0.0055277   -0.6175522    -0.8046200    0.1108333 
   5.212500000    -0.7832246    0.1015156     0.0590230   -0.6181109    -0.0068203   -0.6199234    -0.8049641    0.1108997 
   5.215000000    -0.7810075    0.1025359     0.0567939   -0.6228340    -0.0085998   -0.6225422    -0.8058436    0.1110527 
   5.217500000    -0.7784858    0.1035639     0.0537135   -0.6284660    -0.0107694   -0.6248503    -0.8066126    0.1119864 
   5.220000000    -0.7759813    0.1041480     0.0506025   -0.6330163    -0.0133197   -0.6267978    -0.8069631    0.1125311 
   5.222500000    -0.7727165    0.1049814     0.0465805   -0.6376477    -0.0162856   -0.6283646    -0.8063247    0.1137228 
   5.225000000    -0.7703380    0.1046312     0.0432025   -0.6414388    -0.0189137   -0.6301796    -0.8069226    0.1143211 
   5.227500000    -0.7682635    0.1052420     0.0379795   -0.6455489    -0.0220992   -0.6315597    -0.8061483    0.1156542 
   5.230000000    -0.7652515    0.1047441     0.0336980   -0.6485689    -0.0255723   -0.6325813    -0.8056931    0.1171072 
   5.232500000    -0.7628005    0.1047984     0.0279848   -0.6516509    -0.0290176   -0.6328447    -0.8038470    0.1176135 
   5.235000000    -0.7605760    0.1045375     0.0229680   -0.6536151    -0.0327452   -0.6328455    -0.8028952    0.1183612 
   5.237500000    -0.7596018    0.1047960     0.0178109   -0.6551906    -0.0357708   -0.6326595    -0.8015192    0.1191585 
   5.240000000    -0.7586269    0.1050813     0.0128207   -0.6565574    -0.0393187   -0.6324747    -0.7998919    0.1202313 
   5.242500000    -0.7571388    0.1056343     0.0076601   -0.6575075    -0.0427380   -0.6322061    -0.7995609    0.1217872 
   5.245000000    -0.7543033    0.1060038     0.0021560   -0.6575084    -0.0461854   -0.6310858    -0.7985586    0.1219719 
   5.247500000    -0.7525061    0.1063646    -0.0023581   -0.6577874    -0.0499162   -0.6300917    -0.7976885    0.1229946 
   5.250000000    -0.7516618    0.1079089    -0.0074148   -0.6577396    -0.0530346   -0.6288710    -0.7968675    0.1242486 
   5.252500000    -0.7518829    0.1094029    -0.0112168   -0.6573172    -0.0558962   -0.6277926    -0.7967082    0.1255094 
   5.255000000    -0.7503490    0.1111989    -0.0153825   -0.6563554    -0.0584155   -0.6260284    -0.7956179    0.1257208 
   5.257500000    -0.7480171    0.1127827    -0.0194788   -0.6554950    -0.0611751   -0.6242244    -0.7943650    0.1269905 
   5.260000000    -0.7455097    0.1146481    -0.0238472   -0.6537904    -0.0638145   -0.6223126    -0.7932024    0.1282380 
   5.262500000    -0.7437174    0.1163312    -0.0265917   -0.6517954    -0.0663973   -0.6204358    -0.7917153    0.1289933 
   5.265000000    -0.7419785    0.1186213    -0.0289054   -0.6495455    -0.0684775   -0.6179983    -0.7901732    0.1291548 
   5.267500000    -0.7415190    0.1209290    -0.0319856   -0.6486131    -0.0701963   -0.6157393    -0.7884101    0.1294743 
   5.270000000    -0.7395239    0.1228124    -0.0336551   -0.6468502    -0.0712181   -0.6131124    -0.7869214    0.1298477 
   5.272500000    -0.7359626    0.1252997    -0.0353035   -0.6446382    -0.0725569   -0.6104375    -0.7848095    0.1302240 
   5.275000000    -0.7329192    0.1273800    -0.0363295   -0.6423643    -0.0726967   -0.6072540    -0.7820395    0.1298004 
   5.277500000    -0.7296128    0.1286259    -0.0378052   -0.6397138    -0.0730516   -0.6039529    -0.7791113    0.1294899 
   5.280000000    -0.7264311    0.1303273    -0.0381403   -0.6369806    -0.0732918   -0.6011850    -0.7769293    0.1287442 
   5.282500000    -0.7233062    0.1317552    -0.0382137   -0.6356919    -0.0729197   -0.5983161    -0.7756076    0.1276210 
   5.285000000    -0.7209620    0.1333098    -0.0379547   -0.6341574    -0.0713946   -0.5961450    -0.7734325    0.1254274 
   5.287500000    -0.7182224    0.1344538    -0.0371257   -0.6328566    -0.0698930   -0.5935397    -0.7718062    0.1234080 
   5.290000000    -0.7145182    0.1348571    -0.0354186   -0.6316088    -0.0677114   -0.5915727    -0.7694123    0.1216828 
   5.292500000    -0.7107779    0.1352679    -0.0338735   -0.6314632    -0.0651447   -0.5895840    -0.7670844    0.1190746 
   5.295000000    -0.7074393    0.1350731    -0.0333127   -0.6315411    -0.0627336   -0.5887822    -0.7648332    0.1167799 
   5.297500000    -0.7044922    0.1359773    -0.0316250   -0.6317608    -0.0600633   -0.5882740    -0.7637476    0.1141859 
   5.300000000    -0.7018633    0.1356674    -0.0298897   -0.6329213    -0.0572797   -0.5886726    -0.7633364    0.1108360 
   5.302500000    -0.6996419    0.1355620    -0.0287680   -0.6348729    -0.0545567   -0.5897694    -0.7634791    0.1084583 
   5.305000000    -0.6980998    0.1349045    -0.0272878   -0.6374565    -0.0517673   -0.5914830    -0.7626064    0.1059032 
   5.307500000    -0.6970122    0.1345121    -0.0273521   -0.6411146    -0.0497338   -0.5943483    -0.7632515    0.1027957 
   5.310000000    -0.6965269    0.1344427    -0.0266952   -0.6452159    -0.0479034   -0.5974196    -0.7645233    0.1004696 
   5.312500000    -0.6966823    0.1339518    -0.0272635   -0.6491647    -0.0472237   -0.6014827    -0.7662540    0.0987604 
   5.315000000    -0.6970455    0.1335454    -0.0279802   -0.6534991    -0.0471207   -0.6054984    -0.7686057    0.0978416 
   5.317500000    -0.6976069    0.1334757    -0.0301457   -0.6586322    -0.0479424   -0.6101708    -0.7714187    0.0969027 
   5.320000000    -0.6985998    0.1344137    -0.0326480   -0.6645277    -0.0493728   -0.6147261    -0.7739182    0.0968061 
   5.322500000    -0.6999580    0.1348915    -0.0355977   -0.6699040    -0.0517279   -0.6193617    -0.7757877    0.0974012 
   5.325000000    -0.7013401    0.1363773    -0.0393785   -0.6747292    -0.0553214   -0.6241403    -0.7765377    0.0988163 
   5.327500000    -0.7025336    0.1377758    -0.0449899   -0.6799007    -0.0595733   -0.6275688    -0.7770614    0.1012014 
   5.330000000    -0.7030466    0.1389250    -0.0518807   -0.6841098    -0.0650559   -0.6307350    -0.7763773    0.1041010 
   5.332500000    -0.7035293    0.1404448    -0.0585743   -0.6873631    -0.0706627   -0.6327875    -0.7752375    0.1065365 
   5.335000000    -0.7035171    0.1414017    -0.0659680   -0.6895195    -0.0775530   -0.6336694    -0.7731730    0.1083531 
   5.337500000    -0.7038698    0.1423962    -0.0743949   -0.6909531    -0.0836363   -0.6334469    -0.7706968    0.1098851 
   5.340000000    -0.7037948    0.1431026    -0.0838278   -0.6915465    -0.0900957   -0.6330391    -0.7672390    0.1111079 
   5.342500000    -0.7042083    0.1437480    -0.0921498   -0.6906164    -0.0966757   -0.6311579    -0.7633138    0.1112425 
   5.345000000    -0.7052034    0.1439681    -0.1004276   -0.6883932    -0.1024773   -0.6279693    -0.7594962    0.1108194 
   5.347500000    -0.7063769    0.1444245    -0.1086462   -0.6855463    -0.1076287   -0.6243914    -0.7549385    0.1101671 
   5.350000000    -0.7075793    0.1447049    -0.1155217   -0.6816295    -0.1121197   -0.6206682    -0.7525512    0.1091347 
   5.352500000    -0.7091275    0.1447660    -0.1222163   -0.6767704    -0.1161878   -0.6163585    -0.7499729    0.1068242 
   5.355000000    -0.7103131    0.1454086    -0.1290906   -0.6726767    -0.1201756   -0.6114235    -0.7476400    0.1044151 
   5.357500000    -0.7122143    0.1463814    -0.1340429   -0.6679814    -0.1229727   -0.6067268    -0.7460210    0.1024412 
   5.360000000    -0.7138101    0.1481090    -0.1384514   -0.6631363    -0.1258334   -0.6017223    -0.7442141    0.1010439 
   5.362500000    -0.7159874    0.1493086    -0.1422462   -0.6580920    -0.1274088   -0.5970446    -0.7433891    0.0995935 
   5.365000000    -0.7180301    0.1500389    -0.1463183   -0.6520936    -0.1289699   -0.5923594    -0.7423542    0.0977166 
   5.367500000    -0.7203273    0.1509330    -0.1488792   -0.6466777    -0.1297222   -0.5874666    -0.7421302    0.0961014 
   5.370000000    -0.7226220    0.1523141    -0.1505515   -0.6419036    -0.1306859   -0.5830640    -0.7424861    0.0946545 
   5.372500000    -0.7243361    0.1541848    -0.1531430   -0.6371399    -0.1305269   -0.5780529    -0.7425246    0.0926618 
   5.375000000    -0.7259467    0.1564279    -0.1544022   -0.6321818    -0.1306196   -0.5733201    -0.7425569    0.0928342 
   5.377500000    -0.7272553    0.1583389    -0.1551864   -0.6270607    -0.1304216   -0.5689155    -0.7429557    0.0922339 
   5.380000000    -0.7286800    0.1607368    -0.1557229   -0.6222477    -0.1294060   -0.5646164    -0.7439597    0.0928039 
   5.382500000    -0.7297671    0.1620976    -0.1560312   -0.6170251    -0.1278525   -0.5601835    -0.7447945    0.0917506 
   5.385000000    -0.7313582    0.1639628    -0.1558352   -0.6124820    -0.1260318   -0.5559889    -0.7454588    0.0926459 
   5.387500000    -0.7322642    0.1658586    -0.1556043   -0.6077760    -0.1239876   -0.5518431    -0.7461635    0.0926615 
