! MS46122B
! 1919307/90821646
! 5/25/2022 1:28:01 PM
! C:\USERS\PC_\DESKTOP\CARACTERIZACION\MEDICIONES\BANCHA ESTRECHA\5_55GHZ\S11_S21_ABS44_1002CL.S2P
! CHANNEL.1
! TR.MEASUREMENT
! CORRECTED.DATA
# GHZ S RI R 50.0
! FREQ.GHZ         S11RE         S11IM         S21RE         S21IM         S12RE         S12IM         S22RE         S22IM         
!; PortSelection: Port_12
   5.000000000    -0.7741501   -0.0291091     0.0855818   -0.6009609     0.1440479   -0.5986270    -0.7663527   -0.0589894 
   5.002500000    -0.7754797   -0.0332345     0.0818829   -0.5982568     0.1438160   -0.5999116    -0.7665021   -0.0579662 
   5.005000000    -0.7758262   -0.0353519     0.0819316   -0.5970676     0.1443813   -0.6011530    -0.7662567   -0.0575388 
   5.007500000    -0.7767778   -0.0366169     0.0818156   -0.5963949     0.1449299   -0.6021652    -0.7664040   -0.0574744 
   5.010000000    -0.7773861   -0.0380124     0.0825904   -0.5955487     0.1458559   -0.6028753    -0.7663209   -0.0572383 
   5.012500000    -0.7783169   -0.0392091     0.0832461   -0.5944232     0.1465267   -0.6037083    -0.7659743   -0.0576099 
   5.015000000    -0.7787995   -0.0406884     0.0842245   -0.5932820     0.1467523   -0.6043861    -0.7652161   -0.0572150 
   5.017500000    -0.7791382   -0.0417851     0.0847402   -0.5920032     0.1470174   -0.6049240    -0.7653088   -0.0569999 
   5.020000000    -0.7798301   -0.0428951     0.0848254   -0.5912107     0.1473168   -0.6055756    -0.7647130   -0.0569407 
   5.022500000    -0.7802867   -0.0438613     0.0854501   -0.5901195     0.1475457   -0.6065888    -0.7642094   -0.0574352 
   5.025000000    -0.7806770   -0.0445262     0.0863953   -0.5887861     0.1476984   -0.6072286    -0.7636310   -0.0571597 
   5.027500000    -0.7807956   -0.0450759     0.0871054   -0.5876504     0.1477087   -0.6076272    -0.7631518   -0.0578087 
   5.030000000    -0.7807986   -0.0456735     0.0878791   -0.5863459     0.1479554   -0.6084164    -0.7629300   -0.0581981 
   5.032500000    -0.7803804   -0.0461867     0.0881039   -0.5850234     0.1481981   -0.6088175    -0.7622331   -0.0588141 
   5.035000000    -0.7806450   -0.0464020     0.0885692   -0.5839355     0.1480268   -0.6097255    -0.7621762   -0.0588988 
   5.037500000    -0.7814314   -0.0460058     0.0898981   -0.5825472     0.1478804   -0.6096995    -0.7622576   -0.0587594 
   5.040000000    -0.7814171   -0.0461919     0.0903159   -0.5817525     0.1480388   -0.6103836    -0.7623059   -0.0590344 
   5.042500000    -0.7820875   -0.0468189     0.0915364   -0.5808219     0.1477495   -0.6107227    -0.7620246   -0.0586059 
   5.045000000    -0.7818559   -0.0472649     0.0927648   -0.5800501     0.1481390   -0.6107018    -0.7621223   -0.0585723 
   5.047500000    -0.7822222   -0.0478319     0.0936772   -0.5790100     0.1481445   -0.6112154    -0.7627742   -0.0580722 
   5.050000000    -0.7825491   -0.0484386     0.0946772   -0.5788766     0.1487055   -0.6119640    -0.7626162   -0.0581174 
   5.052500000    -0.7828935   -0.0487468     0.0961837   -0.5780300     0.1491800   -0.6124768    -0.7630240   -0.0579017 
   5.055000000    -0.7830319   -0.0494362     0.0982429   -0.5776771     0.1492415   -0.6130835    -0.7638094   -0.0572715 
   5.057500000    -0.7836124   -0.0503774     0.1000786   -0.5772058     0.1502906   -0.6139746    -0.7640455   -0.0571664 
   5.060000000    -0.7836478   -0.0514388     0.1022168   -0.5766338     0.1506251   -0.6142805    -0.7639122   -0.0560824 
   5.062500000    -0.7843474   -0.0517068     0.1029259   -0.5763296     0.1513356   -0.6149930    -0.7640040   -0.0554096 
   5.065000000    -0.7845175   -0.0527903     0.1049524   -0.5761695     0.1518372   -0.6157220    -0.7643875   -0.0549310 
   5.067500000    -0.7849050   -0.0534084     0.1063248   -0.5757409     0.1526355   -0.6164041    -0.7645582   -0.0536731 
   5.070000000    -0.7851760   -0.0542530     0.1085949   -0.5752261     0.1530218   -0.6173208    -0.7641978   -0.0519727 
   5.072500000    -0.7855110   -0.0547882     0.1104691   -0.5750099     0.1540481   -0.6180024    -0.7637939   -0.0514234 
   5.075000000    -0.7858374   -0.0558681     0.1125582   -0.5748122     0.1543555   -0.6191643    -0.7640522   -0.0501140 
   5.077500000    -0.7862655   -0.0567414     0.1136894   -0.5751241     0.1549797   -0.6201413    -0.7641289   -0.0487646 
   5.080000000    -0.7863700   -0.0575798     0.1153818   -0.5752583     0.1554582   -0.6215656    -0.7642680   -0.0477867 
   5.082500000    -0.7865146   -0.0581571     0.1172521   -0.5753533     0.1558038   -0.6225846    -0.7640642   -0.0462219 
   5.085000000    -0.7870195   -0.0583028     0.1186145   -0.5757409     0.1560615   -0.6240599    -0.7642410   -0.0444114 
   5.087500000    -0.7871516   -0.0591673     0.1208853   -0.5760773     0.1564240   -0.6257653    -0.7642053   -0.0433533 
   5.090000000    -0.7875533   -0.0596856     0.1214073   -0.5770511     0.1567549   -0.6272840    -0.7642881   -0.0419172 
   5.092500000    -0.7881436   -0.0601692     0.1234754   -0.5776076     0.1567975   -0.6292317    -0.7641377   -0.0408080 
   5.095000000    -0.7886004   -0.0603609     0.1246710   -0.5787216     0.1571457   -0.6310585    -0.7641530   -0.0399190 
   5.097500000    -0.7884328   -0.0605903     0.1263691   -0.5796981     0.1572141   -0.6328797    -0.7643436   -0.0389127 
   5.100000000    -0.7883522   -0.0611349     0.1280684   -0.5807129     0.1576037   -0.6347839    -0.7643685   -0.0380480 
   5.102500000    -0.7880139   -0.0617841     0.1290231   -0.5825905     0.1578931   -0.6369551    -0.7642962   -0.0368416 
   5.105000000    -0.7878670   -0.0623245     0.1307725   -0.5834404     0.1578341   -0.6393102    -0.7645991   -0.0361003 
   5.107500000    -0.7881312   -0.0626204     0.1319127   -0.5846268     0.1577225   -0.6415113    -0.7644145   -0.0349836 
   5.110000000    -0.7871269   -0.0626881     0.1335118   -0.5861479     0.1578257   -0.6434030    -0.7650459   -0.0343344 
   5.112500000    -0.7867459   -0.0626656     0.1343842   -0.5874051     0.1575776   -0.6456240    -0.7653641   -0.0327118 
   5.115000000    -0.7857443   -0.0629032     0.1354495   -0.5887303     0.1569068   -0.6475832    -0.7654223   -0.0313936 
   5.117500000    -0.7846721   -0.0637325     0.1364789   -0.5900611     0.1567638   -0.6493714    -0.7656431   -0.0306457 
   5.120000000    -0.7830132   -0.0640576     0.1378973   -0.5911916     0.1556499   -0.6513867    -0.7662264   -0.0287573 
   5.122500000    -0.7816976   -0.0645078     0.1388761   -0.5919278     0.1550281   -0.6532062    -0.7658815   -0.0277745 
   5.125000000    -0.7799695   -0.0651167     0.1397479   -0.5930368     0.1537960   -0.6548498    -0.7654994   -0.0265300 
   5.127500000    -0.7784956   -0.0650902     0.1401103   -0.5940179     0.1523162   -0.6566073    -0.7656251   -0.0250190 
   5.130000000    -0.7761855   -0.0660362     0.1407374   -0.5953479     0.1515252   -0.6581866    -0.7654629   -0.0240907 
   5.132500000    -0.7739748   -0.0660985     0.1415643   -0.5963720     0.1499152   -0.6601128    -0.7656905   -0.0226952 
   5.135000000    -0.7716638   -0.0657134     0.1421571   -0.5976366     0.1484489   -0.6616623    -0.7657336   -0.0220544 
   5.137500000    -0.7696155   -0.0660405     0.1433254   -0.5987568     0.1472257   -0.6629972    -0.7659261   -0.0203439 
   5.140000000    -0.7677303   -0.0666563     0.1442539   -0.5992272     0.1455826   -0.6644074    -0.7662166   -0.0196041 
   5.142500000    -0.7659668   -0.0672533     0.1441595   -0.6000456     0.1439101   -0.6657674    -0.7654952   -0.0190673 
   5.145000000    -0.7648755   -0.0673524     0.1447710   -0.6014735     0.1427436   -0.6672998    -0.7656138   -0.0179691 
   5.147500000    -0.7627077   -0.0676228     0.1454214   -0.6017788     0.1411018   -0.6683294    -0.7636817   -0.0176486 
   5.150000000    -0.7611223   -0.0671748     0.1468967   -0.6029021     0.1400174   -0.6694224    -0.7624075   -0.0179732 
   5.152500000    -0.7595114   -0.0672742     0.1472667   -0.6033961     0.1384359   -0.6705305    -0.7610408   -0.0178281 
   5.155000000    -0.7578969   -0.0674768     0.1486930   -0.6043145     0.1373452   -0.6712580    -0.7600238   -0.0174988 
   5.157500000    -0.7568373   -0.0679263     0.1492550   -0.6049773     0.1359480   -0.6722858    -0.7586729   -0.0177951 
   5.160000000    -0.7554810   -0.0678800     0.1503499   -0.6062471     0.1343542   -0.6728781    -0.7569860   -0.0178581 
   5.162500000    -0.7540244   -0.0680306     0.1515860   -0.6069505     0.1337374   -0.6732531    -0.7546481   -0.0180250 
   5.165000000    -0.7533799   -0.0679722     0.1530177   -0.6076604     0.1330119   -0.6739768    -0.7528476   -0.0177129 
   5.167500000    -0.7522032   -0.0675590     0.1548489   -0.6083025     0.1318955   -0.6743315    -0.7505814   -0.0183385 
   5.170000000    -0.7511513   -0.0669967     0.1570784   -0.6094052     0.1307826   -0.6743842    -0.7481815   -0.0180897 
   5.172500000    -0.7501200   -0.0665768     0.1592588   -0.6105231     0.1296601   -0.6743085    -0.7458079   -0.0181768 
   5.175000000    -0.7492762   -0.0655979     0.1602629   -0.6116734     0.1290980   -0.6742890    -0.7429715   -0.0184198 
   5.177500000    -0.7488075   -0.0639737     0.1626491   -0.6128803     0.1282121   -0.6742432    -0.7403917   -0.0194134 
   5.180000000    -0.7479747   -0.0625968     0.1653784   -0.6137542     0.1272535   -0.6735759    -0.7379381   -0.0200178 
   5.182500000    -0.7470132   -0.0613406     0.1672938   -0.6153513     0.1265720   -0.6733918    -0.7350629   -0.0209217 
   5.185000000    -0.7460188   -0.0599319     0.1703572   -0.6172999     0.1263460   -0.6730521    -0.7319116   -0.0219292 
   5.187500000    -0.7451346   -0.0578395     0.1719725   -0.6201259     0.1257629   -0.6726252    -0.7307657   -0.0239174 
   5.190000000    -0.7437534   -0.0559201     0.1747786   -0.6224126     0.1256491   -0.6724347    -0.7274808   -0.0259243 
   5.192500000    -0.7423226   -0.0544995     0.1767083   -0.6259246     0.1257753   -0.6721775    -0.7265326   -0.0284920 
   5.195000000    -0.7411011   -0.0527755     0.1791307   -0.6287606     0.1260024   -0.6724828    -0.7246237   -0.0312844 
   5.197500000    -0.7397083   -0.0506757     0.1812048   -0.6321598     0.1262057   -0.6731303    -0.7235662   -0.0343615 
   5.200000000    -0.7386593   -0.0479072     0.1816076   -0.6368614     0.1268560   -0.6742472    -0.7231333   -0.0378097 
   5.202500000    -0.7371662   -0.0458982     0.1838397   -0.6407194     0.1275629   -0.6756459    -0.7235774   -0.0403168 
   5.205000000    -0.7351888   -0.0441963     0.1851501   -0.6453124     0.1284476   -0.6769662    -0.7236724   -0.0432999 
   5.207500000    -0.7329713   -0.0420364     0.1859931   -0.6495636     0.1288843   -0.6784938    -0.7238823   -0.0459318 
   5.210000000    -0.7312753   -0.0396881     0.1857662   -0.6541669     0.1294006   -0.6806304    -0.7247656   -0.0481169 
   5.212500000    -0.7294722   -0.0379670     0.1855758   -0.6594791     0.1294442   -0.6830873    -0.7252256   -0.0498707 
   5.215000000    -0.7276301   -0.0365191     0.1859916   -0.6645159     0.1293775   -0.6862943    -0.7270501   -0.0509562 
   5.217500000    -0.7253875   -0.0353569     0.1854308   -0.6696975     0.1287173   -0.6891415    -0.7283657   -0.0522770 
   5.220000000    -0.7228963   -0.0344066     0.1849960   -0.6742525     0.1277498   -0.6922064    -0.7294346   -0.0527813 
   5.222500000    -0.7200724   -0.0329469     0.1824386   -0.6797217     0.1260696   -0.6949806    -0.7296935   -0.0527707 
   5.225000000    -0.7178750   -0.0324605     0.1812413   -0.6845116     0.1245579   -0.6976408    -0.7314638   -0.0530878 
   5.227500000    -0.7150170   -0.0316952     0.1780963   -0.6891190     0.1222905   -0.7006502    -0.7319759   -0.0528424 
   5.230000000    -0.7123955   -0.0315777     0.1762850   -0.6933770     0.1196283   -0.7029337    -0.7329408   -0.0517893 
   5.232500000    -0.7088553   -0.0315048     0.1728903   -0.6975656     0.1163958   -0.7046577    -0.7323600   -0.0518679 
   5.235000000    -0.7060506   -0.0315531     0.1683396   -0.7016624     0.1132224   -0.7062337    -0.7322099   -0.0516001 
   5.237500000    -0.7053916   -0.0313611     0.1648282   -0.7051426     0.1099231   -0.7076165    -0.7317975   -0.0505952 
   5.240000000    -0.7039846   -0.0310447     0.1609319   -0.7082700     0.1061143   -0.7087995    -0.7316163   -0.0497332 
   5.242500000    -0.7021663   -0.0305519     0.1566464   -0.7113321     0.1026570   -0.7099591    -0.7313165   -0.0482753 
   5.245000000    -0.6992773   -0.0305233     0.1523148   -0.7135882     0.0992128   -0.7105522    -0.7309865   -0.0476377 
   5.247500000    -0.6967436   -0.0308118     0.1482492   -0.7149596     0.0951849   -0.7111160    -0.7309726   -0.0465831 
   5.250000000    -0.6952034   -0.0302721     0.1423669   -0.7167214     0.0917725   -0.7108851    -0.7306519   -0.0460764 
   5.252500000    -0.6954672   -0.0293670     0.1383490   -0.7179196     0.0876706   -0.7107839    -0.7305668   -0.0453123 
   5.255000000    -0.6949971   -0.0290267     0.1343779   -0.7188012     0.0845308   -0.7100825    -0.7300261   -0.0444760 
   5.257500000    -0.6922714   -0.0271276     0.1298696   -0.7197549     0.0809902   -0.7094541    -0.7300847   -0.0435135 
   5.260000000    -0.6900260   -0.0258169     0.1260877   -0.7197130     0.0776619   -0.7084713    -0.7289697   -0.0427673 
   5.262500000    -0.6886953   -0.0243462     0.1226005   -0.7189233     0.0744909   -0.7072424    -0.7279522   -0.0422714 
   5.265000000    -0.6876487   -0.0232993     0.1189312   -0.7174976     0.0717895   -0.7054356    -0.7269247   -0.0425580 
   5.267500000    -0.6865605   -0.0219238     0.1155295   -0.7172186     0.0689539   -0.7039442    -0.7257161   -0.0428226 
   5.270000000    -0.6848853   -0.0205675     0.1129548   -0.7166663     0.0666964   -0.7024541    -0.7247827   -0.0425073 
   5.272500000    -0.6824725   -0.0184505     0.1107691   -0.7153304     0.0645484   -0.7003651    -0.7232882   -0.0430781 
   5.275000000    -0.6806535   -0.0163703     0.1086102   -0.7136731     0.0630330   -0.6974831    -0.7210550   -0.0428897 
   5.277500000    -0.6777904   -0.0149410     0.1069887   -0.7116904     0.0612730   -0.6944436    -0.7187738   -0.0435432 
   5.280000000    -0.6755517   -0.0133159     0.1054108   -0.7092395     0.0599287   -0.6915191    -0.7174104   -0.0437470 
   5.282500000    -0.6727387   -0.0117822     0.1043546   -0.7070711     0.0590239   -0.6890760    -0.7166197   -0.0457951 
   5.285000000    -0.6705316   -0.0105143     0.1030222   -0.7060652     0.0592336   -0.6861255    -0.7153933   -0.0478923 
   5.287500000    -0.6681858   -0.0090947     0.1030630   -0.7040280     0.0590617   -0.6826620    -0.7134136   -0.0499936 
   5.290000000    -0.6643605   -0.0084790     0.1036648   -0.7017284     0.0596315   -0.6795692    -0.7115069   -0.0522994 
   5.292500000    -0.6605824   -0.0088024     0.1046649   -0.7002781     0.0610101   -0.6761801    -0.7103108   -0.0545852 
   5.295000000    -0.6572756   -0.0098785     0.1064582   -0.6982146     0.0629663   -0.6734743    -0.7089652   -0.0575041 
   5.297500000    -0.6553853   -0.0109784     0.1077710   -0.6971468     0.0653157   -0.6712819    -0.7083193   -0.0595234 
   5.300000000    -0.6545294   -0.0113086     0.1108257   -0.6968195     0.0688094   -0.6698747    -0.7082586   -0.0627985 
   5.302500000    -0.6542434   -0.0110756     0.1136099   -0.6982635     0.0723177   -0.6698295    -0.7080838   -0.0658570 
   5.305000000    -0.6536993   -0.0109383     0.1168768   -0.7001569     0.0760408   -0.6701326    -0.7074537   -0.0684156 
   5.307500000    -0.6533047   -0.0104815     0.1194222   -0.7032531     0.0792320   -0.6719964    -0.7074649   -0.0717745 
   5.310000000    -0.6528170   -0.0098870     0.1208266   -0.7070491     0.0822943   -0.6742666    -0.7088073   -0.0752681 
   5.312500000    -0.6530336   -0.0093789     0.1217974   -0.7105191     0.0846208   -0.6777626    -0.7104558   -0.0783465 
   5.315000000    -0.6530975   -0.0093697     0.1230986   -0.7152377     0.0862294   -0.6812251    -0.7133557   -0.0819708 
   5.317500000    -0.6532546   -0.0096727     0.1242940   -0.7200273     0.0874830   -0.6859260    -0.7166086   -0.0844215 
   5.320000000    -0.6538684   -0.0095530     0.1241496   -0.7265639     0.0879334   -0.6907437    -0.7205117   -0.0869981 
   5.322500000    -0.6548684   -0.0089922     0.1234817   -0.7319807     0.0878032   -0.6962262    -0.7243560   -0.0886488 
   5.325000000    -0.6568980   -0.0075796     0.1232097   -0.7385389     0.0864909   -0.7017859    -0.7278411   -0.0893846 
   5.327500000    -0.6584222   -0.0066647     0.1213115   -0.7451600     0.0838232   -0.7070025    -0.7315163   -0.0890798 
   5.330000000    -0.6595286   -0.0056957     0.1181730   -0.7517561     0.0804511   -0.7122617    -0.7349967   -0.0879371 
   5.332500000    -0.6601832   -0.0046687     0.1138683   -0.7587155     0.0758390   -0.7169881    -0.7381651   -0.0845388 
   5.335000000    -0.6605251   -0.0030691     0.1088819   -0.7647199     0.0700913   -0.7208115    -0.7403213   -0.0819902 
   5.337500000    -0.6612503   -0.0015430     0.1025064   -0.7708772     0.0643786   -0.7235712    -0.7418667   -0.0789487 
   5.340000000    -0.6613434   -0.0005374     0.0954340   -0.7757980     0.0576093   -0.7259672    -0.7415057   -0.0757249 
   5.342500000    -0.6616808    0.0002201     0.0867632   -0.7801998     0.0501926   -0.7271582    -0.7399610   -0.0722235 
   5.345000000    -0.6620902    0.0003000     0.0770627   -0.7830573     0.0428318   -0.7266939    -0.7381614   -0.0694540 
   5.347500000    -0.6624417    0.0000734     0.0673828   -0.7851601     0.0361036   -0.7252868    -0.7348691   -0.0670820 
   5.350000000    -0.6634598    0.0008769     0.0578366   -0.7857008     0.0291489   -0.7236016    -0.7316669   -0.0650464 
   5.352500000    -0.6647830    0.0003666     0.0487776   -0.7848061     0.0226435   -0.7205697    -0.7284988   -0.0652839 
   5.355000000    -0.6662374    0.0002050     0.0397386   -0.7833987     0.0166516   -0.7173105    -0.7262162   -0.0655725 
   5.357500000    -0.6677982   -0.0001098     0.0299277   -0.7816431     0.0117103   -0.7134159    -0.7238736   -0.0656074 
   5.360000000    -0.6698052    0.0000672     0.0224651   -0.7785556     0.0067901   -0.7091978    -0.7215295   -0.0666016 
   5.362500000    -0.6725831    0.0004814     0.0154882   -0.7751430     0.0033068   -0.7047395    -0.7196840   -0.0674149 
   5.365000000    -0.6748874    0.0007508     0.0086644   -0.7708971    -0.0008258   -0.7001444    -0.7184740   -0.0693327 
   5.367500000    -0.6785200    0.0008358     0.0032669   -0.7663466    -0.0033263   -0.6953678    -0.7178314   -0.0704361 
   5.370000000    -0.6811458    0.0012227    -0.0011616   -0.7620559    -0.0060849   -0.6908482    -0.7181916   -0.0724639 
   5.372500000    -0.6840422    0.0017903    -0.0067234   -0.7572975    -0.0078713   -0.6852857    -0.7180507   -0.0739205 
   5.375000000    -0.6866150    0.0036053    -0.0109371   -0.7525879    -0.0091845   -0.6804610    -0.7183579   -0.0747750 
   5.377500000    -0.6895950    0.0056026    -0.0143856   -0.7476518    -0.0104304   -0.6755407    -0.7192022   -0.0747443 
   5.380000000    -0.6920409    0.0073806    -0.0167200   -0.7426495    -0.0114797   -0.6710181    -0.7205665   -0.0757869 
   5.382500000    -0.6941071    0.0093971    -0.0186826   -0.7374572    -0.0114185   -0.6660429    -0.7212877   -0.0762848 
   5.385000000    -0.6966894    0.0112117    -0.0204956   -0.7325391    -0.0111061   -0.6611720    -0.7233495   -0.0759156 
   5.387500000    -0.6984192    0.0129180    -0.0227016   -0.7273929    -0.0105646   -0.6562492    -0.7246807   -0.0757014 
