! MS46122B
! 1919307/90821646
! 5/25/2022 1:55:36 PM
! C:\USERS\PC_\DESKTOP\CARACTERIZACION\MEDICIONES\BANCHA ESTRECHA\5_55GHZ\S11_S21_ABS65_502CL.S2P
! CHANNEL.1
! TR.MEASUREMENT
! CORRECTED.DATA
# GHZ S RI R 50.0
! FREQ.GHZ         S11RE         S11IM         S21RE         S21IM         S12RE         S12IM         S22RE         S22IM         
!; PortSelection: Port_12
   5.000000000    -0.7040796   -0.1024234     0.1466538   -0.6538448     0.2061674   -0.6427356    -0.7094330   -0.0771983 
   5.002500000    -0.7055246   -0.1069344     0.1421736   -0.6513275     0.2062950   -0.6443208    -0.7096133   -0.0759223 
   5.005000000    -0.7058307   -0.1091441     0.1420456   -0.6501201     0.2068091   -0.6452773    -0.7092713   -0.0753632 
   5.007500000    -0.7066430   -0.1110252     0.1419569   -0.6493825     0.2075917   -0.6462821    -0.7094225   -0.0751637 
   5.010000000    -0.7075581   -0.1120068     0.1424707   -0.6484579     0.2086108   -0.6467922    -0.7090878   -0.0744321 
   5.012500000    -0.7082564   -0.1132387     0.1432469   -0.6473489     0.2095723   -0.6476154    -0.7083339   -0.0741663 
   5.015000000    -0.7088535   -0.1146700     0.1437236   -0.6460731     0.2100064   -0.6483570    -0.7082187   -0.0738278 
   5.017500000    -0.7096695   -0.1158851     0.1440769   -0.6447446     0.2101251   -0.6489540    -0.7079285   -0.0738572 
   5.020000000    -0.7103294   -0.1170018     0.1445670   -0.6437818     0.2107539   -0.6494819    -0.7078463   -0.0731650 
   5.022500000    -0.7111899   -0.1177301     0.1445230   -0.6425559     0.2110382   -0.6503788    -0.7067913   -0.0731255 
   5.025000000    -0.7113724   -0.1187691     0.1453221   -0.6412047     0.2115807   -0.6508729    -0.7061921   -0.0732594 
   5.027500000    -0.7119495   -0.1187434     0.1457806   -0.6399326     0.2117397   -0.6516819    -0.7061753   -0.0733990 
   5.030000000    -0.7118971   -0.1193296     0.1463730   -0.6382772     0.2121378   -0.6523926    -0.7057976   -0.0737192 
   5.032500000    -0.7117118   -0.1198587     0.1471801   -0.6367601     0.2121515   -0.6530894    -0.7051409   -0.0741406 
   5.035000000    -0.7118694   -0.1198603     0.1467126   -0.6354202     0.2123668   -0.6535227    -0.7049974   -0.0739496 
   5.037500000    -0.7125152   -0.1193759     0.1478303   -0.6339455     0.2120651   -0.6538199    -0.7049490   -0.0737239 
   5.040000000    -0.7123335   -0.1196833     0.1479879   -0.6328872     0.2121903   -0.6542826    -0.7050142   -0.0737381 
   5.042500000    -0.7129529   -0.1198492     0.1491161   -0.6318437     0.2120984   -0.6550089    -0.7047741   -0.0730975 
   5.045000000    -0.7129391   -0.1204652     0.1502179   -0.6307632     0.2124745   -0.6549792    -0.7049243   -0.0729856 
   5.047500000    -0.7132761   -0.1209188     0.1517440   -0.6294308     0.2122293   -0.6555351    -0.7054331   -0.0723428 
   5.050000000    -0.7132295   -0.1217047     0.1519066   -0.6291744     0.2130947   -0.6560533    -0.7053648   -0.0722393 
   5.052500000    -0.7137080   -0.1217366     0.1536148   -0.6280180     0.2132744   -0.6565440    -0.7056165   -0.0718019 
   5.055000000    -0.7138491   -0.1222297     0.1557188   -0.6275377     0.2135944   -0.6573210    -0.7057019   -0.0714104 
   5.057500000    -0.7141672   -0.1232504     0.1572905   -0.6268855     0.2144736   -0.6581859    -0.7063577   -0.0705737 
   5.060000000    -0.7140143   -0.1242142     0.1593664   -0.6260449     0.2151226   -0.6584931    -0.7063981   -0.0695123 
   5.062500000    -0.7143388   -0.1248615     0.1609802   -0.6255082     0.2157330   -0.6591414    -0.7066225   -0.0686405 
   5.065000000    -0.7147205   -0.1256197     0.1623027   -0.6250811     0.2164459   -0.6595671    -0.7064835   -0.0678622 
   5.067500000    -0.7148662   -0.1264068     0.1638969   -0.6245223     0.2171730   -0.6605307    -0.7068072   -0.0661877 
   5.070000000    -0.7150619   -0.1272583     0.1661980   -0.6237773     0.2177897   -0.6611804    -0.7066110   -0.0643931 
   5.072500000    -0.7152003   -0.1280156     0.1680515   -0.6232834     0.2184823   -0.6617538    -0.7061874   -0.0635500 
   5.075000000    -0.7156342   -0.1288155     0.1701663   -0.6229348     0.2193592   -0.6628514    -0.7059605   -0.0623014 
   5.077500000    -0.7158387   -0.1298471     0.1717940   -0.6230177     0.2198728   -0.6636844    -0.7063234   -0.0604809 
   5.080000000    -0.7159859   -0.1307174     0.1730187   -0.6230285     0.2206192   -0.6650360    -0.7061362   -0.0593740 
   5.082500000    -0.7159537   -0.1317261     0.1754200   -0.6233844     0.2211412   -0.6660398    -0.7057895   -0.0575137 
   5.085000000    -0.7162748   -0.1318753     0.1768027   -0.6236417     0.2217866   -0.6673353    -0.7055694   -0.0554797 
   5.087500000    -0.7163279   -0.1327773     0.1788506   -0.6234276     0.2219202   -0.6690397    -0.7058093   -0.0543449 
   5.090000000    -0.7172081   -0.1334578     0.1799518   -0.6242177     0.2226002   -0.6704574    -0.7055656   -0.0526221 
   5.092500000    -0.7176022   -0.1342556     0.1816483   -0.6252397     0.2230318   -0.6722234    -0.7052916   -0.0514185 
   5.095000000    -0.7178235   -0.1349455     0.1832058   -0.6263086     0.2236012   -0.6741291    -0.7046191   -0.0502260 
   5.097500000    -0.7180490   -0.1350748     0.1847536   -0.6270480     0.2240389   -0.6759380    -0.7047266   -0.0493659 
   5.100000000    -0.7180125   -0.1353931     0.1864689   -0.6277075     0.2245229   -0.6778919    -0.7044350   -0.0482282 
   5.102500000    -0.7180064   -0.1363525     0.1878402   -0.6291545     0.2252657   -0.6803104    -0.7044226   -0.0465243 
   5.105000000    -0.7178394   -0.1368174     0.1890012   -0.6299556     0.2253999   -0.6825480    -0.7041225   -0.0460725 
   5.107500000    -0.7179149   -0.1375060     0.1904588   -0.6312385     0.2258642   -0.6851497    -0.7038498   -0.0450938 
   5.110000000    -0.7171434   -0.1375786     0.1920174   -0.6322418     0.2263058   -0.6868907    -0.7041616   -0.0443779 
   5.112500000    -0.7169979   -0.1376271     0.1931175   -0.6332840     0.2265481   -0.6893919    -0.7048716   -0.0429159 
   5.115000000    -0.7158300   -0.1381495     0.1945135   -0.6343616     0.2262641   -0.6915892    -0.7046531   -0.0417846 
   5.117500000    -0.7148722   -0.1385087     0.1950743   -0.6355810     0.2261681   -0.6936799    -0.7048174   -0.0409960 
   5.120000000    -0.7132697   -0.1385660     0.1966841   -0.6366366     0.2256585   -0.6957570    -0.7046458   -0.0392104 
   5.122500000    -0.7116964   -0.1390731     0.1975245   -0.6371765     0.2249463   -0.6981624    -0.7042125   -0.0383673 
   5.125000000    -0.7097290   -0.1396561     0.1982287   -0.6380392     0.2241508   -0.6999697    -0.7039316   -0.0370492 
   5.127500000    -0.7081506   -0.1401091     0.1996983   -0.6384453     0.2227152   -0.7023154    -0.7034716   -0.0363976 
   5.130000000    -0.7060393   -0.1405216     0.1997052   -0.6399083     0.2221407   -0.7041497    -0.7036490   -0.0348614 
   5.132500000    -0.7035531   -0.1407974     0.2007954   -0.6406711     0.2201691   -0.7063919    -0.7034921   -0.0337381 
   5.135000000    -0.7011154   -0.1406071     0.2016157   -0.6416053     0.2188588   -0.7078899    -0.7035778   -0.0330155 
   5.137500000    -0.6990432   -0.1406334     0.2028619   -0.6427221     0.2172198   -0.7097292    -0.7036536   -0.0312341 
   5.140000000    -0.6965920   -0.1416259     0.2040890   -0.6428542     0.2161918   -0.7113924    -0.7030575   -0.0307205 
   5.142500000    -0.6947997   -0.1421610     0.2047940   -0.6436303     0.2142481   -0.7133619    -0.7024044   -0.0300032 
   5.145000000    -0.6928825   -0.1424979     0.2051660   -0.6447272     0.2129923   -0.7149879    -0.7016507   -0.0295599 
   5.147500000    -0.6909139   -0.1430025     0.2064425   -0.6450337     0.2116097   -0.7163021    -0.7005440   -0.0288171 
   5.150000000    -0.6890757   -0.1428542     0.2075090   -0.6458961     0.2099184   -0.7176492    -0.6993920   -0.0291403 
   5.152500000    -0.6872856   -0.1431599     0.2080161   -0.6462229     0.2084078   -0.7189504    -0.6976753   -0.0292291 
   5.155000000    -0.6854541   -0.1437913     0.2098376   -0.6471348     0.2071332   -0.7198754    -0.6965743   -0.0286044 
   5.157500000    -0.6840761   -0.1444592     0.2114010   -0.6477118     0.2057131   -0.7210897    -0.6950445   -0.0287460 
   5.160000000    -0.6827399   -0.1445130     0.2122219   -0.6485173     0.2041650   -0.7222191    -0.6930990   -0.0289428 
   5.162500000    -0.6810430   -0.1453155     0.2135789   -0.6495647     0.2032866   -0.7226964    -0.6905652   -0.0288810 
   5.165000000    -0.6797572   -0.1461518     0.2151649   -0.6501092     0.2024059   -0.7233467    -0.6884940   -0.0286111 
   5.167500000    -0.6791181   -0.1456142     0.2172488   -0.6506868     0.2011372   -0.7237783    -0.6859900   -0.0289255 
   5.170000000    -0.6780373   -0.1455602     0.2195841   -0.6519095     0.1996869   -0.7241400    -0.6833663   -0.0286840 
   5.172500000    -0.6769506   -0.1453553     0.2221279   -0.6528684     0.1981452   -0.7239782    -0.6805589   -0.0289326 
   5.175000000    -0.6760523   -0.1448601     0.2236488   -0.6539122     0.1974010   -0.7238199    -0.6773918   -0.0288499 
   5.177500000    -0.6753707   -0.1441829     0.2259338   -0.6552405     0.1962501   -0.7238035    -0.6744198   -0.0297850 
   5.180000000    -0.6747605   -0.1425311     0.2288739   -0.6560934     0.1953331   -0.7228356    -0.6709557   -0.0305104 
   5.182500000    -0.6744494   -0.1412784     0.2310150   -0.6579394     0.1939613   -0.7225170    -0.6678697   -0.0309303 
   5.185000000    -0.6734344   -0.1399939     0.2342363   -0.6598513     0.1936355   -0.7219275    -0.6644952   -0.0322361 
   5.187500000    -0.6723812   -0.1385137     0.2361929   -0.6631161     0.1929820   -0.7215658    -0.6622075   -0.0343381 
   5.190000000    -0.6714457   -0.1366083     0.2395262   -0.6649797     0.1925341   -0.7210357    -0.6587492   -0.0362285 
   5.192500000    -0.6700165   -0.1350227     0.2410065   -0.6682516     0.1924122   -0.7201546    -0.6568007   -0.0384211 
   5.195000000    -0.6689256   -0.1332618     0.2434477   -0.6711313     0.1928427   -0.7199187    -0.6545513   -0.0418564 
   5.197500000    -0.6675571   -0.1313557     0.2454969   -0.6743657     0.1931622   -0.7206193    -0.6528313   -0.0449827 
   5.200000000    -0.6662494   -0.1291502     0.2467444   -0.6793129     0.1938998   -0.7208682    -0.6516625   -0.0485933 
   5.202500000    -0.6648785   -0.1266055     0.2479248   -0.6828130     0.1947356   -0.7216879    -0.6512138   -0.0513672 
   5.205000000    -0.6628691   -0.1248547     0.2495620   -0.6871586     0.1960955   -0.7225900    -0.6509566   -0.0547652 
   5.207500000    -0.6604576   -0.1229705     0.2505212   -0.6910274     0.1968837   -0.7236992    -0.6511135   -0.0577260 
   5.210000000    -0.6585343   -0.1210677     0.2507071   -0.6953194     0.1981373   -0.7256939    -0.6514550   -0.0604817 
   5.212500000    -0.6570266   -0.1193896     0.2511634   -0.7004433     0.1989488   -0.7278262    -0.6510218   -0.0627147 
   5.215000000    -0.6551600   -0.1180087     0.2509719   -0.7051057     0.1994707   -0.7311637    -0.6518117   -0.0647269 
   5.217500000    -0.6528284   -0.1169853     0.2506231   -0.7097807     0.2000251   -0.7341063    -0.6529275   -0.0660135 
   5.220000000    -0.6502150   -0.1163472     0.2507239   -0.7138406     0.1996813   -0.7368160    -0.6542156   -0.0673045 
   5.222500000    -0.6474460   -0.1151296     0.2492038   -0.7194805     0.1988816   -0.7399839    -0.6549600   -0.0682660 
   5.225000000    -0.6448822   -0.1143769     0.2482415   -0.7232730     0.1981503   -0.7431128    -0.6559408   -0.0696313 
   5.227500000    -0.6423159   -0.1139844     0.2470001   -0.7286631     0.1966973   -0.7467030    -0.6569072   -0.0692798 
   5.230000000    -0.6391834   -0.1134471     0.2452847   -0.7325455     0.1947215   -0.7497329    -0.6579138   -0.0692861 
   5.232500000    -0.6356184   -0.1135298     0.2428679   -0.7366437     0.1920875   -0.7521020    -0.6578540   -0.0694279 
   5.235000000    -0.6326512   -0.1134326     0.2395033   -0.7402250     0.1889869   -0.7547387    -0.6575970   -0.0696376 
   5.237500000    -0.6308076   -0.1135636     0.2357622   -0.7440085     0.1860886   -0.7567316    -0.6573384   -0.0687972 
   5.240000000    -0.6297384   -0.1137323     0.2328726   -0.7475792     0.1823431   -0.7588996    -0.6568450   -0.0683191 
   5.242500000    -0.6279121   -0.1132380     0.2295404   -0.7510889     0.1790029   -0.7609471    -0.6569999   -0.0668847 
   5.245000000    -0.6247216   -0.1137463     0.2255990   -0.7537921     0.1752169   -0.7621801    -0.6565371   -0.0667069 
   5.247500000    -0.6220667   -0.1143016     0.2220919   -0.7557923     0.1714413   -0.7631202    -0.6563913   -0.0655898 
   5.250000000    -0.6204969   -0.1146711     0.2171295   -0.7579026     0.1673325   -0.7638018    -0.6560147   -0.0651956 
   5.252500000    -0.6202328   -0.1144272     0.2131091   -0.7601110     0.1637236   -0.7643600    -0.6559622   -0.0645884 
   5.255000000    -0.6188325   -0.1146996     0.2092070   -0.7614700     0.1599478   -0.7642733    -0.6553478   -0.0641081 
   5.257500000    -0.6163293   -0.1137581     0.2051421   -0.7628471     0.1557026   -0.7639728    -0.6544876   -0.0635805 
   5.260000000    -0.6149852   -0.1126872     0.2012891   -0.7638560     0.1520678   -0.7638398    -0.6538846   -0.0630855 
   5.262500000    -0.6135628   -0.1123054     0.1981864   -0.7633454     0.1488323   -0.7629974    -0.6523774   -0.0631602 
   5.265000000    -0.6129245   -0.1115581     0.1954420   -0.7628399     0.1460110   -0.7617745    -0.6514654   -0.0632845 
   5.267500000    -0.6121852   -0.1110733     0.1915433   -0.7627176     0.1428768   -0.7612586    -0.6499927   -0.0640405 
   5.270000000    -0.6107752   -0.1101047     0.1887314   -0.7629989     0.1404828   -0.7595776    -0.6488973   -0.0640068 
   5.272500000    -0.6085817   -0.1091493     0.1864868   -0.7618067     0.1373069   -0.7577288    -0.6472628   -0.0647776 
   5.275000000    -0.6071003   -0.1076453     0.1844800   -0.7605432     0.1353446   -0.7550527    -0.6446991   -0.0652291 
   5.277500000    -0.6049870   -0.1061636     0.1826897   -0.7590666     0.1331003   -0.7523311    -0.6429868   -0.0660895 
   5.280000000    -0.6035399   -0.1051276     0.1810548   -0.7570779     0.1315273   -0.7496676    -0.6415936   -0.0665588 
   5.282500000    -0.6021739   -0.1037872     0.1807754   -0.7553501     0.1303723   -0.7472144    -0.6407368   -0.0688218 
   5.285000000    -0.6012908   -0.1028560     0.1790513   -0.7546605     0.1299637   -0.7445340    -0.6390297   -0.0707662 
   5.287500000    -0.5998530   -0.1019093     0.1792509   -0.7533138     0.1299078   -0.7413620    -0.6374466   -0.0733383 
   5.290000000    -0.5978667   -0.1000096     0.1801197   -0.7515098     0.1300350   -0.7386308    -0.6353652   -0.0756856 
   5.292500000    -0.5955239   -0.0989966     0.1808074   -0.7508796     0.1309192   -0.7353795    -0.6332421   -0.0784312 
   5.295000000    -0.5929618   -0.0981256     0.1821501   -0.7498319     0.1321943   -0.7330775    -0.6311263   -0.0802929 
   5.297500000    -0.5907633   -0.0971247     0.1831814   -0.7494822     0.1340024   -0.7310850    -0.6300271   -0.0831317 
   5.300000000    -0.5887313   -0.0963689     0.1845965   -0.7500650     0.1359848   -0.7298234    -0.6294053   -0.0868150 
   5.302500000    -0.5866398   -0.0949894     0.1863553   -0.7510766     0.1388649   -0.7288807    -0.6286501   -0.0905338 
   5.305000000    -0.5849540   -0.0942858     0.1886721   -0.7520943     0.1414835   -0.7283428    -0.6279865   -0.0943324 
   5.307500000    -0.5833698   -0.0941300     0.1908302   -0.7543514     0.1447158   -0.7292894    -0.6276596   -0.0981029 
   5.310000000    -0.5821165   -0.0943150     0.1924913   -0.7579438     0.1474377   -0.7305681    -0.6286058   -0.1025021 
   5.312500000    -0.5813314   -0.0942194     0.1927938   -0.7601907     0.1498955   -0.7332497    -0.6300418   -0.1063765 
   5.315000000    -0.5806624   -0.0947704     0.1944986   -0.7641340     0.1521641   -0.7360464    -0.6324844   -0.1106655 
   5.317500000    -0.5805635   -0.0952509     0.1960162   -0.7681785     0.1534994   -0.7400386    -0.6355577   -0.1143539 
   5.320000000    -0.5809366   -0.0957985     0.1965734   -0.7737273     0.1551933   -0.7444696    -0.6391934   -0.1183418 
   5.322500000    -0.5815720   -0.0959074     0.1973713   -0.7791448     0.1554488   -0.7492765    -0.6433184   -0.1213404 
   5.325000000    -0.5830863   -0.0955602     0.1971512   -0.7846741     0.1552749   -0.7546255    -0.6470018   -0.1234507 
   5.327500000    -0.5845007   -0.0951757     0.1964830   -0.7909362     0.1540506   -0.7598826    -0.6511179   -0.1248305 
   5.330000000    -0.5857959   -0.0946872     0.1950701   -0.7972563     0.1515014   -0.7657921    -0.6552966   -0.1246429 
   5.332500000    -0.5868136   -0.0941844     0.1926847   -0.8045522     0.1485759   -0.7706947    -0.6600668   -0.1232917 
   5.335000000    -0.5872787   -0.0932951     0.1893682   -0.8105786     0.1432168   -0.7753920    -0.6638357   -0.1214850 
   5.337500000    -0.5878313   -0.0918732     0.1845324   -0.8173717     0.1384641   -0.7794678    -0.6666316   -0.1189751 
   5.340000000    -0.5883034   -0.0910099     0.1797541   -0.8238922     0.1324835   -0.7831089    -0.6682791   -0.1158027 
   5.342500000    -0.5893472   -0.0898700     0.1733399   -0.8298150     0.1255070   -0.7857214    -0.6688287   -0.1119840 
   5.345000000    -0.5894922   -0.0900395     0.1645890   -0.8346010     0.1178650   -0.7864622    -0.6676514   -0.1087514 
   5.347500000    -0.5896028   -0.0900563     0.1549878   -0.8398178     0.1107070   -0.7869148    -0.6659055   -0.1043409 
   5.350000000    -0.5904110   -0.0903125     0.1465575   -0.8424144     0.1035605   -0.7862529    -0.6643931   -0.1016472 
   5.352500000    -0.5917665   -0.0905062     0.1365540   -0.8433209     0.0961230   -0.7845717    -0.6613304   -0.1006143 
   5.355000000    -0.5930039   -0.0911798     0.1270048   -0.8440039     0.0891484   -0.7822227    -0.6584896   -0.0999432 
   5.357500000    -0.5946496   -0.0921551     0.1178216   -0.8436951     0.0829612   -0.7788782    -0.6556252   -0.0997412 
   5.360000000    -0.5965870   -0.0926230     0.1082116   -0.8430802     0.0774917   -0.7749235    -0.6537081   -0.0992939 
   5.362500000    -0.5990356   -0.0933858     0.0999111   -0.8408313     0.0726199   -0.7708774    -0.6511243   -0.1005425 
   5.365000000    -0.6019952   -0.0940511     0.0919245   -0.8377815     0.0683626   -0.7669445    -0.6494262   -0.1015475 
   5.367500000    -0.6052123   -0.0941215     0.0848516   -0.8342243     0.0645130   -0.7622736    -0.6476991   -0.1032974 
   5.370000000    -0.6086577   -0.0943815     0.0793444   -0.8307669     0.0607823   -0.7580300    -0.6474982   -0.1055004 
   5.372500000    -0.6120275   -0.0939756     0.0737311   -0.8266049     0.0583106   -0.7527682    -0.6476671   -0.1075582 
   5.375000000    -0.6150779   -0.0932700     0.0674568   -0.8228292     0.0562011   -0.7478904    -0.6480036   -0.1082237 
   5.377500000    -0.6180416   -0.0918856     0.0631124   -0.8182640     0.0544086   -0.7429612    -0.6487555   -0.1095339 
   5.380000000    -0.6218881   -0.0901384     0.0594075   -0.8135278     0.0528229   -0.7381297    -0.6501325   -0.1102967 
   5.382500000    -0.6248390   -0.0889218     0.0563341   -0.8086074     0.0519981   -0.7331293    -0.6509303   -0.1114299 
   5.385000000    -0.6277196   -0.0867643     0.0536746   -0.8038419     0.0514865   -0.7285669    -0.6525410   -0.1117996 
   5.387500000    -0.6302646   -0.0848803     0.0505675   -0.7990453     0.0512047   -0.7235584    -0.6547618   -0.1120546 
