! 5/6/2022 1:12:33 PM
# GHZ S RI R 50.0
4.900000000000  1.57687385E-002  1.42068288E-003  9.11153495E-001  3.95111084E-001  9.09256577E-001  3.93448532E-001  0.00000000E+000  0.00000000E+000
4.907023411371  1.53159015E-002  1.16042024E-003  9.28534448E-001  3.55068028E-001  9.25887585E-001  3.53697211E-001  0.00000000E+000  0.00000000E+000
4.914046822742  1.57939363E-002 -3.08905379E-004  9.44281876E-001  3.14180464E-001  9.40739691E-001  3.13621402E-001  0.00000000E+000  0.00000000E+000
4.921070234114  1.60503164E-002 -3.02096875E-003  9.58330393E-001  2.71858454E-001  9.53569651E-001  2.72611976E-001  0.00000000E+000  0.00000000E+000
4.928093645485  1.62414778E-002 -6.02432713E-003  9.69709396E-001  2.29207546E-001  9.64869142E-001  2.30795607E-001  0.00000000E+000  0.00000000E+000
4.935117056856  1.53210396E-002 -9.24835820E-003  9.78812695E-001  1.85811684E-001  9.74463940E-001  1.88113347E-001  0.00000000E+000  0.00000000E+000
4.942140468227  1.39814354E-002 -1.24898879E-002  9.85441089E-001  1.42773613E-001  9.81953025E-001  1.45142347E-001  0.00000000E+000  0.00000000E+000
4.949163879599  1.15482230E-002 -1.53900702E-002  9.90308762E-001  9.91397798E-002  9.87859011E-001  1.01792738E-001  0.00000000E+000  0.00000000E+000
4.956187290970  8.93261842E-003 -1.83630269E-002  9.92585659E-001  5.58427535E-002  9.91713166E-001  5.83056174E-002  0.00000000E+000  0.00000000E+000
4.963210702341  5.99239115E-003 -2.05187071E-002  9.93110597E-001  1.25002312E-002  9.93323565E-001  1.48867359E-002  0.00000000E+000  0.00000000E+000
4.970234113712  2.99095409E-003 -2.18888950E-002  9.92422581E-001 -3.01041696E-002  9.92782891E-001 -2.83619165E-002  0.00000000E+000  0.00000000E+000
4.977257525084 -4.41035372E-004 -2.24957168E-002  9.90439236E-001 -7.23935664E-002  9.89851832E-001 -7.10698664E-002  0.00000000E+000  0.00000000E+000
4.984280936455 -4.04375466E-003 -2.30481438E-002  9.87228751E-001 -1.14888765E-001  9.85198915E-001 -1.13496274E-001  0.00000000E+000  0.00000000E+000
4.991304347826 -7.75523297E-003 -2.33858265E-002  9.81760919E-001 -1.56168774E-001  9.78919983E-001 -1.55316010E-001  0.00000000E+000  0.00000000E+000
4.998327759197 -1.16405878E-002 -2.42732279E-002  9.74120498E-001 -1.98130995E-001  9.71073687E-001 -1.97117716E-001  0.00000000E+000  0.00000000E+000
5.005351170569 -1.57885551E-002 -2.45574769E-002  9.64701295E-001 -2.39346564E-001  9.61806357E-001 -2.38214314E-001  0.00000000E+000  0.00000000E+000
5.012374581940 -2.05895174E-002 -2.49191020E-002  9.52982128E-001 -2.81038582E-001  9.50769901E-001 -2.79092103E-001  0.00000000E+000  0.00000000E+000
5.019397993311 -2.47256625E-002 -2.49647405E-002  9.40180361E-001 -3.21746796E-001  9.38431919E-001 -3.19370568E-001  0.00000000E+000  0.00000000E+000
5.026421404682 -3.02617308E-002 -2.52211038E-002  9.25546885E-001 -3.61838013E-001  9.24196720E-001 -3.59075814E-001  0.00000000E+000  0.00000000E+000
5.033444816054 -3.68201844E-002 -2.52933614E-002  9.09493685E-001 -4.01216716E-001  9.08324718E-001 -3.98093104E-001  0.00000000E+000  0.00000000E+000
5.040468227425 -4.34837900E-002 -2.57418193E-002  8.91652942E-001 -4.39428747E-001  8.90628219E-001 -4.36113060E-001  0.00000000E+000  0.00000000E+000
5.047491638796 -4.97612506E-002 -2.47530509E-002  8.71901095E-001 -4.76824939E-001  8.71253192E-001 -4.73171443E-001  0.00000000E+000  0.00000000E+000
5.054515050167 -5.66671677E-002 -2.29967143E-002  8.50562155E-001 -5.13013780E-001  8.50015938E-001 -5.09653747E-001  0.00000000E+000  0.00000000E+000
5.061538461538 -6.27606064E-002 -2.06876453E-002  8.27758133E-001 -5.48170507E-001  8.27367365E-001 -5.45138001E-001  0.00000000E+000  0.00000000E+000
5.068561872910 -6.89156726E-002 -1.72699410E-002  8.03603351E-001 -5.82080603E-001  8.03762734E-001 -5.79475820E-001  0.00000000E+000  0.00000000E+000
5.075585284281 -7.42901042E-002 -1.32514620E-002  7.78062284E-001 -6.15248740E-001  7.78399169E-001 -6.12680435E-001  0.00000000E+000  0.00000000E+000
5.082608695652 -7.87417442E-002 -8.10981262E-003  7.51615763E-001 -6.47151113E-001  7.52045214E-001 -6.44483984E-001  0.00000000E+000  0.00000000E+000
5.089632107023 -8.17979500E-002 -2.42744014E-003  7.24319041E-001 -6.77710772E-001  7.24327445E-001 -6.75267160E-001  0.00000000E+000  0.00000000E+000
5.096655518395 -8.36999714E-002  3.43432953E-003  6.95402980E-001 -7.07410395E-001  6.95828855E-001 -7.04741836E-001  0.00000000E+000  0.00000000E+000
5.103678929766 -8.37242752E-002  9.96429753E-003  6.65160358E-001 -7.35776722E-001  6.65840030E-001 -7.33071327E-001  0.00000000E+000  0.00000000E+000
5.110702341137 -8.26253667E-002  1.68537423E-002  6.33629918E-001 -7.62672246E-001  6.34528458E-001 -7.59848654E-001  0.00000000E+000  0.00000000E+000
5.117725752508 -7.98142329E-002  2.34512519E-002  6.01567686E-001 -7.88277626E-001  6.02013052E-001 -7.85495520E-001  0.00000000E+000  0.00000000E+000
5.124749163880 -7.59631470E-002  2.99109928E-002  5.68429112E-001 -8.12675178E-001  5.68934798E-001 -8.09427977E-001  0.00000000E+000  0.00000000E+000
5.131772575251 -7.04168230E-002  3.60765830E-002  5.34795582E-001 -8.35276306E-001  5.35214782E-001 -8.32069874E-001  0.00000000E+000  0.00000000E+000
5.138795986622 -6.48389235E-002  4.16851155E-002  4.99843389E-001 -8.56846273E-001  5.00830770E-001 -8.53032768E-001  0.00000000E+000  0.00000000E+000
5.145819397993 -5.86954542E-002  4.61907946E-002  4.64423120E-001 -8.76344502E-001  4.65552628E-001 -8.72695029E-001  0.00000000E+000  0.00000000E+000
5.152842809365 -5.20348027E-002  5.02425469E-002  4.28061068E-001 -8.95331740E-001  4.29763943E-001 -8.91179919E-001  0.00000000E+000  0.00000000E+000
5.159866220736 -4.47541289E-002  5.26047014E-002  3.90551627E-001 -9.12171602E-001  3.93101364E-001 -9.08360004E-001  0.00000000E+000  0.00000000E+000
5.166889632107 -3.71939689E-002  5.37419096E-002  3.52546215E-001 -9.28404391E-001  3.55883718E-001 -9.24310446E-001  0.00000000E+000  0.00000000E+000
5.173913043478 -2.97169648E-002  5.39350770E-002  3.13998967E-001 -9.42456722E-001  3.18224192E-001 -9.38953578E-001  0.00000000E+000  0.00000000E+000
5.180936454850 -2.30832826E-002  5.26645556E-002  2.75147140E-001 -9.55012023E-001  2.79827505E-001 -9.52349246E-001  0.00000000E+000  0.00000000E+000
5.187959866221 -1.72608811E-002  5.01950793E-002  2.35603377E-001 -9.65496480E-001  2.40807176E-001 -9.64000046E-001  0.00000000E+000  0.00000000E+000
5.194983277592 -1.24153076E-002  4.69206311E-002  1.96044281E-001 -9.74969268E-001  2.00543761E-001 -9.73894656E-001  0.00000000E+000  0.00000000E+000
5.202006688963 -8.90444219E-003  4.34769392E-002  1.55668765E-001 -9.81661975E-001  1.59638479E-001 -9.81785417E-001  0.00000000E+000  0.00000000E+000
5.209030100334 -5.80118410E-003  3.99522260E-002  1.15480386E-001 -9.87662077E-001  1.17552742E-001 -9.88055170E-001  0.00000000E+000  0.00000000E+000
5.216053511706 -2.37809867E-003  3.51490825E-002  7.45688677E-002 -9.90362406E-001  7.56586641E-002 -9.91840601E-001  0.00000000E+000  0.00000000E+000
5.223076923077  8.55098246E-004  2.86757406E-002  3.35981511E-002 -9.92367446E-001  3.40728424E-002 -9.93594289E-001  0.00000000E+000  0.00000000E+000
5.230100334448  3.50419688E-003  2.11559944E-002 -7.20107788E-003 -9.92260456E-001 -7.25908298E-003 -9.92972493E-001  0.00000000E+000  0.00000000E+000
5.237123745819  4.25488036E-003  1.25792576E-002 -4.73361500E-002 -9.91193473E-001 -4.76410277E-002 -9.90923941E-001  0.00000000E+000  0.00000000E+000
5.244147157191  3.10453819E-003  4.14430536E-003 -8.65246281E-002 -9.87813175E-001 -8.72841328E-002 -9.86986816E-001  0.00000000E+000  0.00000000E+000
5.251170568562  1.47559342E-003 -4.44909139E-003 -1.25414774E-001 -9.83636081E-001 -1.25820801E-001 -9.81415510E-001  0.00000000E+000  0.00000000E+000
5.258193979933 -9.75632749E-004 -1.29267126E-002 -1.63784936E-001 -9.77879524E-001 -1.63837358E-001 -9.74953711E-001  0.00000000E+000  0.00000000E+000
5.265217391304 -4.24527284E-003 -2.06480175E-002 -2.02157989E-001 -9.71064448E-001 -2.01886222E-001 -9.67777133E-001  0.00000000E+000  0.00000000E+000
5.272240802676 -8.89411755E-003 -2.88382806E-002 -2.41086349E-001 -9.62569356E-001 -2.39953771E-001 -9.59406137E-001  0.00000000E+000  0.00000000E+000
5.279264214047 -1.38771385E-002 -3.72986346E-002 -2.80204326E-001 -9.53699887E-001 -2.78370947E-001 -9.50258017E-001  0.00000000E+000  0.00000000E+000
5.286287625418 -2.22082548E-002 -4.41726446E-002 -3.19701582E-001 -9.41659570E-001 -3.16832393E-001 -9.39602733E-001  0.00000000E+000  0.00000000E+000
5.293311036789 -3.16902995E-002 -5.07805310E-002 -3.59187126E-001 -9.28737879E-001 -3.55308354E-001 -9.26893353E-001  0.00000000E+000  0.00000000E+000
5.300334448161 -4.24362905E-002 -5.44638745E-002 -3.97153676E-001 -9.13068354E-001 -3.93428952E-001 -9.12390113E-001  0.00000000E+000  0.00000000E+000
5.307357859532 -5.35230339E-002 -5.44613190E-002 -4.34339315E-001 -8.95906508E-001 -4.30662751E-001 -8.95591080E-001  0.00000000E+000  0.00000000E+000
5.314381270903 -6.41981438E-002 -5.22764027E-002 -4.70022261E-001 -8.76052856E-001 -4.67147678E-001 -8.77038360E-001  0.00000000E+000  0.00000000E+000
5.321404682274 -7.41236731E-002 -4.84491363E-002 -5.04602194E-001 -8.55241120E-001 -5.02444088E-001 -8.56370568E-001  0.00000000E+000  0.00000000E+000
5.328428093646 -8.31221491E-002 -4.25726697E-002 -5.37481248E-001 -8.33025336E-001 -5.36474824E-001 -8.34034383E-001  0.00000000E+000  0.00000000E+000
5.335451505017 -9.18276682E-002 -3.71353105E-002 -5.69284201E-001 -8.09888005E-001 -5.68719387E-001 -8.10447216E-001  0.00000000E+000  0.00000000E+000
5.342474916388 -9.95732099E-002 -2.92617716E-002 -6.00113153E-001 -7.86256909E-001 -5.99888146E-001 -7.86187112E-001  0.00000000E+000  0.00000000E+000
5.349498327759 -1.06700800E-001 -1.94651838E-002 -6.30921781E-001 -7.62030780E-001 -6.29337847E-001 -7.60950148E-001  0.00000000E+000  0.00000000E+000
5.356521739130 -1.12204544E-001 -9.15461313E-003 -6.59615159E-001 -7.36637414E-001 -6.58132434E-001 -7.35160589E-001  0.00000000E+000  0.00000000E+000
5.363545150502 -1.16594508E-001  2.32557277E-003 -6.88374579E-001 -7.10901082E-001 -6.85687423E-001 -7.08805084E-001  0.00000000E+000  0.00000000E+000
5.370568561873 -1.20153017E-001  1.35537405E-002 -7.15329945E-001 -6.82885349E-001 -7.12464929E-001 -6.81520939E-001  0.00000000E+000  0.00000000E+000
5.377591973244 -1.20936140E-001  2.43529901E-002 -7.41601825E-001 -6.54475689E-001 -7.38256693E-001 -6.53656840E-001  0.00000000E+000  0.00000000E+000
5.384615384615 -1.20575286E-001  3.45752314E-002 -7.66740143E-001 -6.24586165E-001 -7.63141513E-001 -6.24464869E-001  0.00000000E+000  0.00000000E+000
5.391638795987 -1.19674861E-001  4.45216335E-002 -7.90404320E-001 -5.94040990E-001 -7.87160933E-001 -5.94303548E-001  0.00000000E+000  0.00000000E+000
5.398662207358 -1.18667357E-001  5.41083999E-002 -8.12996745E-001 -5.62550426E-001 -8.10117960E-001 -5.62975228E-001  0.00000000E+000  0.00000000E+000
5.405685618729 -1.16257764E-001  6.34877533E-002 -8.33942115E-001 -5.30761361E-001 -8.31701934E-001 -5.30947804E-001  0.00000000E+000  0.00000000E+000
5.412709030100 -1.12781122E-001  7.32170045E-002 -8.53797674E-001 -4.97335106E-001 -8.51681888E-001 -4.97493267E-001  0.00000000E+000  0.00000000E+000
5.419732441472 -1.08460389E-001  8.25140327E-002 -8.72081697E-001 -4.63593036E-001 -8.70168149E-001 -4.63654786E-001  0.00000000E+000  0.00000000E+000
5.426755852843 -1.02447480E-001  9.08989906E-002 -8.88978601E-001 -4.28993136E-001 -8.86928201E-001 -4.28800613E-001  0.00000000E+000  0.00000000E+000
5.433779264214 -9.55967754E-002  9.87211615E-002 -9.04625833E-001 -3.94562244E-001 -9.02386725E-001 -3.94296736E-001  0.00000000E+000  0.00000000E+000
5.440802675585 -8.74876529E-002  1.05518408E-001 -9.19135869E-001 -3.59557718E-001 -9.16659713E-001 -3.59259844E-001  0.00000000E+000  0.00000000E+000
5.447826086957 -7.77076855E-002  1.11503176E-001 -9.32888865E-001 -3.24392468E-001 -9.30092573E-001 -3.24404597E-001  0.00000000E+000  0.00000000E+000
5.454849498328 -6.68359026E-002  1.16088375E-001 -9.45273280E-001 -2.88961768E-001 -9.42226052E-001 -2.89270729E-001  0.00000000E+000  0.00000000E+000
5.461872909699 -5.49476184E-002  1.18730605E-001 -9.56681907E-001 -2.52727062E-001 -9.53481436E-001 -2.53740937E-001  0.00000000E+000  0.00000000E+000
5.468896321070 -4.23628986E-002  1.18665196E-001 -9.66653645E-001 -2.16210842E-001 -9.63117540E-001 -2.17209488E-001  0.00000000E+000  0.00000000E+000
5.475919732442 -3.02733276E-002  1.16552502E-001 -9.75155950E-001 -1.78431243E-001 -9.71788943E-001 -1.79955006E-001  0.00000000E+000  0.00000000E+000
5.482943143813 -1.90409943E-002  1.11693129E-001 -9.82193589E-001 -1.39485583E-001 -9.79391992E-001 -1.41561627E-001  0.00000000E+000  0.00000000E+000
5.489966555184 -9.52332467E-003  1.05071649E-001 -9.87403393E-001 -1.00460537E-001 -9.85523045E-001 -1.03288338E-001  0.00000000E+000  0.00000000E+000
5.496989966555 -1.19617069E-003  9.69320312E-002 -9.91090000E-001 -6.04243539E-002 -9.89813983E-001 -6.40177131E-002  0.00000000E+000  0.00000000E+000
5.504013377926  5.93511015E-003  8.77320692E-002 -9.92669880E-001 -2.15679854E-002 -9.92609918E-001 -2.46271156E-002  0.00000000E+000  0.00000000E+000
5.511036789298  1.13335354E-002  7.75775686E-002 -9.92302835E-001  1.75680704E-002 -9.92908835E-001  1.47748739E-002  0.00000000E+000  0.00000000E+000
5.518060200669  1.51332598E-002  6.70646653E-002 -9.90509391E-001  5.55265397E-002 -9.91300166E-001  5.38946055E-002  0.00000000E+000  0.00000000E+000
5.525083612040  1.69592351E-002  5.59756719E-002 -9.87420082E-001  9.35557038E-002 -9.87606049E-001  9.23731551E-002  0.00000000E+000  0.00000000E+000
5.532107023411  1.70537401E-002  4.50653322E-002 -9.82963562E-001  1.30929694E-001 -9.82555687E-001  1.30881473E-001  0.00000000E+000  0.00000000E+000
5.539130434783  1.56558845E-002  3.41419131E-002 -9.77111578E-001  1.68674648E-001 -9.76154089E-001  1.68588623E-001  0.00000000E+000  0.00000000E+000
5.546153846154  1.25245089E-002  2.44846102E-002 -9.69945312E-001  2.06587687E-001 -9.68335927E-001  2.05861956E-001  0.00000000E+000  0.00000000E+000
5.553177257525  8.29792861E-003  1.59194525E-002 -9.61583495E-001  2.44115204E-001 -9.59673107E-001  2.42535010E-001  0.00000000E+000  0.00000000E+000
5.560200668896  2.90820329E-003  7.95071572E-003 -9.52122390E-001  2.81383485E-001 -9.49873745E-001  2.79304445E-001  0.00000000E+000  0.00000000E+000
5.567224080268 -3.16068134E-003  1.00897299E-003 -9.41285849E-001  3.18159938E-001 -9.39170897E-001  3.15250576E-001  0.00000000E+000  0.00000000E+000
5.574247491639 -1.04754707E-002 -5.24030812E-003 -9.28659201E-001  3.54345351E-001 -9.27075148E-001  3.51575077E-001  0.00000000E+000  0.00000000E+000
5.581270903010 -1.85693987E-002 -1.04981875E-002 -9.14185941E-001  3.89604837E-001 -9.13536191E-001  3.86933357E-001  0.00000000E+000  0.00000000E+000
5.588294314381 -2.76051015E-002 -1.49917221E-002 -8.98138285E-001  4.24458295E-001 -8.98272693E-001  4.22307104E-001  0.00000000E+000  0.00000000E+000
5.595317725753 -3.76324207E-002 -1.81868207E-002 -8.80695999E-001  4.58701044E-001 -8.81403387E-001  4.57058221E-001  0.00000000E+000  0.00000000E+000
5.602341137124 -4.83584106E-002 -2.04089563E-002 -8.61971557E-001  4.92772192E-001 -8.62652719E-001  4.91236717E-001  0.00000000E+000  0.00000000E+000
5.609364548495 -5.95862344E-002 -2.11777538E-002 -8.42103422E-001  5.25663733E-001 -8.42489839E-001  5.24597168E-001  0.00000000E+000  0.00000000E+000
5.616387959866 -7.13319182E-002 -2.04906557E-002 -8.20991755E-001  5.57848275E-001 -8.20813477E-001  5.56818545E-001  0.00000000E+000  0.00000000E+000
5.623411371237 -8.32320005E-002 -1.83557067E-002 -7.99209893E-001  5.88427067E-001 -7.98218727E-001  5.87967157E-001  0.00000000E+000  0.00000000E+000
5.630434782609 -9.51940566E-002 -1.44655854E-002 -7.75774419E-001  6.18446469E-001 -7.74324000E-001  6.17994547E-001  0.00000000E+000  0.00000000E+000
5.637458193980 -1.06679067E-001 -9.13471915E-003 -7.51221240E-001  6.47202730E-001 -7.49822617E-001  6.46480858E-001  0.00000000E+000  0.00000000E+000
5.644481605351 -1.17215484E-001 -2.23895977E-003 -7.25615203E-001  6.74722612E-001 -7.24109113E-001  6.74022675E-001  0.00000000E+000  0.00000000E+000
5.651505016722 -1.26799628E-001  6.01805188E-003 -6.98987186E-001  7.01215088E-001 -6.97765708E-001  7.00211585E-001  0.00000000E+000  0.00000000E+000
5.658528428094 -1.34690255E-001  1.56674050E-002 -6.71455085E-001  7.26803780E-001 -6.70256376E-001  7.25440085E-001  0.00000000E+000  0.00000000E+000
5.665551839465 -1.40653133E-001  2.64966413E-002 -6.42959058E-001  7.51556575E-001 -6.42235637E-001  7.49896049E-001  0.00000000E+000  0.00000000E+000
5.672575250836 -1.44447073E-001  3.80509980E-002 -6.13893449E-001  7.74950325E-001 -6.13035500E-001  7.73073256E-001  0.00000000E+000  0.00000000E+000
5.679598662207 -1.46230966E-001  5.01186699E-002 -5.84327102E-001  7.96883404E-001 -5.83610296E-001  7.95201421E-001  0.00000000E+000  0.00000000E+000
5.686622073579 -1.46317974E-001  6.26509041E-002 -5.54071844E-001  8.17863047E-001 -5.53072512E-001  8.15902352E-001  0.00000000E+000  0.00000000E+000
5.693645484950 -1.43903568E-001  7.47786239E-002 -5.22936821E-001  8.37888300E-001 -5.22451699E-001  8.35445523E-001  0.00000000E+000  0.00000000E+000
5.700668896321 -1.39039680E-001  8.56131017E-002 -4.91221011E-001  8.56550336E-001 -4.90486264E-001  8.53959799E-001  0.00000000E+000  0.00000000E+000
5.707692307692 -1.31920412E-001  9.60191414E-002 -4.58914846E-001  8.74164402E-001 -4.58722562E-001  8.71341944E-001  0.00000000E+000  0.00000000E+000
5.714715719064 -1.24110959E-001  1.05838902E-001 -4.26284790E-001  8.90811145E-001 -4.26106572E-001  8.87726367E-001  0.00000000E+000  0.00000000E+000
5.721739130435 -1.14469647E-001  1.14135943E-001 -3.92863721E-001  9.06122983E-001 -3.93333524E-001  9.02939200E-001  0.00000000E+000  0.00000000E+000
5.728762541806 -1.04163349E-001  1.21115476E-001 -3.58824015E-001  9.20344114E-001 -3.60353649E-001  9.17287171E-001  0.00000000E+000  0.00000000E+000
5.735785953177 -9.35370475E-002  1.26840830E-001 -3.24342459E-001  9.32888150E-001 -3.26307595E-001  9.29998457E-001  0.00000000E+000  0.00000000E+000
5.742809364549 -8.27663615E-002  1.30907238E-001 -2.89225310E-001  9.44344401E-001 -2.91905016E-001  9.41920280E-001  0.00000000E+000  0.00000000E+000
5.749832775920 -7.19598830E-002  1.34184033E-001 -2.54079729E-001  9.54393089E-001 -2.56540090E-001  9.52134252E-001  0.00000000E+000  0.00000000E+000
5.756856187291 -6.13835640E-002  1.36278272E-001 -2.18113258E-001  9.63369608E-001 -2.20510304E-001  9.61693347E-001  0.00000000E+000  0.00000000E+000
5.763879598662 -5.05581945E-002  1.37395874E-001 -1.82139397E-001  9.71110225E-001 -1.83652833E-001  9.69555616E-001  0.00000000E+000  0.00000000E+000
5.770903010033 -4.00636047E-002  1.37183532E-001 -1.46038964E-001  9.77310598E-001 -1.46643668E-001  9.76354837E-001  0.00000000E+000  0.00000000E+000
5.777926421405 -2.95709185E-002  1.35701627E-001 -1.10192731E-001  9.82296705E-001 -1.09979168E-001  9.81528163E-001  0.00000000E+000  0.00000000E+000
5.784949832776 -1.99190918E-002  1.32804811E-001 -7.42027536E-002  9.85576272E-001 -7.38297701E-002  9.84615207E-001  0.00000000E+000  0.00000000E+000
5.791973244147 -1.02348076E-002  1.28618762E-001 -3.78923081E-002  9.87855852E-001 -3.73341627E-002  9.85945404E-001  0.00000000E+000  0.00000000E+000
5.798996655518 -1.13957888E-003  1.23417675E-001 -1.77151547E-003  9.88491237E-001 -1.76034542E-003  9.86200035E-001  0.00000000E+000  0.00000000E+000
5.806020066890  7.14028487E-003  1.16408817E-001  3.46766524E-002  9.88182127E-001  3.45090963E-002  9.84984696E-001  0.00000000E+000  0.00000000E+000
5.813043478261  1.51706655E-002  1.08403184E-001  7.07248151E-002  9.86746192E-001  7.09124431E-002  9.83491242E-001  0.00000000E+000  0.00000000E+000
