! MS46122B
! 1919307/90821646
! 7/29/2022 1:07:42 PM
! C:\USERS\PC_\DESKTOP\MEDICIONES\BANCHA ESTRECHA\55_6GHZ\S11_S21_ABS12_1002CL.S2P
! CHANNEL.1
! TR.MEASUREMENT
! CORRECTED.DATA
# GHZ S RI R 50.0
! FREQ.GHZ         S11RE         S11IM         S21RE         S21IM         S12RE         S12IM         S22RE         S22IM         
!; PortSelection: Port_12
   5.500000000    -0.7247198    0.3460846    -0.2764165   -0.4654766    -0.2726860   -0.4672400    -0.6716571    0.3050822 
   5.502500000    -0.7241294    0.3458271    -0.2780169   -0.4661628    -0.2717150   -0.4676335    -0.6736131    0.3053578 
   5.505000000    -0.7246662    0.3469136    -0.2775059   -0.4667724    -0.2703651   -0.4678172    -0.6753049    0.3059904 
   5.507500000    -0.7257202    0.3478431    -0.2764105   -0.4675483    -0.2698494   -0.4686036    -0.6772258    0.3077023 
   5.510000000    -0.7263010    0.3489215    -0.2755632   -0.4686884    -0.2685518   -0.4695425    -0.6787983    0.3083871 
   5.512500000    -0.7268880    0.3506484    -0.2750978   -0.4698974    -0.2675582   -0.4706237    -0.6800924    0.3106081 
   5.515000000    -0.7274957    0.3518471    -0.2740178   -0.4711547    -0.2662800   -0.4714434    -0.6813262    0.3128091 
   5.517500000    -0.7275786    0.3534864    -0.2731809   -0.4719439    -0.2655296   -0.4723566    -0.6833645    0.3160802 
   5.520000000    -0.7277398    0.3553296    -0.2720108   -0.4730886    -0.2651110   -0.4737051    -0.6856945    0.3180808 
   5.522500000    -0.7283731    0.3569741    -0.2721690   -0.4741798    -0.2643731   -0.4751339    -0.6874174    0.3201879 
   5.525000000    -0.7281170    0.3588701    -0.2707160   -0.4756224    -0.2639439   -0.4760258    -0.6887321    0.3235687 
   5.527500000    -0.7287797    0.3606839    -0.2713355   -0.4763665    -0.2624848   -0.4778422    -0.6900027    0.3260547 
   5.530000000    -0.7285364    0.3624157    -0.2703091   -0.4777604    -0.2626038   -0.4790863    -0.6915119    0.3291507 
   5.532500000    -0.7284496    0.3648042    -0.2693799   -0.4791946    -0.2615229   -0.4802050    -0.6925299    0.3330015 
   5.535000000    -0.7289419    0.3659708    -0.2686242   -0.4805705    -0.2610157   -0.4815907    -0.6938188    0.3363530 
   5.537500000    -0.7290213    0.3684281    -0.2687626   -0.4814956    -0.2607091   -0.4830313    -0.6955757    0.3399263 
   5.540000000    -0.7292719    0.3700816    -0.2681613   -0.4830979    -0.2596128   -0.4847824    -0.6972329    0.3429998 
   5.542500000    -0.7292613    0.3720727    -0.2672538   -0.4844521    -0.2588200   -0.4869336    -0.6982797    0.3459094 
   5.545000000    -0.7289615    0.3730082    -0.2665846   -0.4858099    -0.2582052   -0.4884410    -0.6991659    0.3495463 
   5.547500000    -0.7283574    0.3749591    -0.2660216   -0.4869990    -0.2573541   -0.4900954    -0.7005298    0.3527814 
   5.550000000    -0.7278243    0.3764440    -0.2660251   -0.4881409    -0.2571445   -0.4913425    -0.7006126    0.3556677 
   5.552500000    -0.7284329    0.3777026    -0.2659738   -0.4895135    -0.2570316   -0.4927786    -0.7009864    0.3593579 
   5.555000000    -0.7292542    0.3788039    -0.2651418   -0.4908565    -0.2565066   -0.4945166    -0.7014201    0.3621570 
   5.557500000    -0.7294756    0.3801357    -0.2648983   -0.4921022    -0.2557114   -0.4961322    -0.7018938    0.3646248 
   5.560000000    -0.7279471    0.3813462    -0.2643115   -0.4933126    -0.2554508   -0.4976687    -0.7018222    0.3676837 
   5.562500000    -0.7259547    0.3832945    -0.2643085   -0.4945307    -0.2555172   -0.4993660    -0.7029216    0.3710187 
   5.565000000    -0.7260139    0.3848673    -0.2648497   -0.4957263    -0.2554122   -0.5011535    -0.7030683    0.3736236 
   5.567500000    -0.7262711    0.3846657    -0.2646396   -0.4973187    -0.2551656   -0.5023052    -0.7032008    0.3765118 
   5.570000000    -0.7262311    0.3846177    -0.2640504   -0.4989868    -0.2549934   -0.5043328    -0.7030902    0.3790501 
   5.572500000    -0.7257083    0.3867064    -0.2638527   -0.5005100    -0.2549304   -0.5058546    -0.7034057    0.3817095 
   5.575000000    -0.7253878    0.3882188    -0.2641576   -0.5019797    -0.2547036   -0.5073831    -0.7032269    0.3841205 
   5.577500000    -0.7253643    0.3901975    -0.2641933   -0.5035519    -0.2552289   -0.5096236    -0.7034287    0.3865582 
   5.580000000    -0.7247289    0.3913901    -0.2643392   -0.5054619    -0.2556457   -0.5108954    -0.7028778    0.3891865 
   5.582500000    -0.7242246    0.3923288    -0.2640624   -0.5069705    -0.2556290   -0.5129484    -0.7028467    0.3915913 
   5.585000000    -0.7241648    0.3934815    -0.2640209   -0.5090029    -0.2553432   -0.5149651    -0.7028890    0.3935441 
   5.587500000    -0.7245628    0.3952014    -0.2635666   -0.5108613    -0.2555447   -0.5168200    -0.7027077    0.3956021 
   5.590000000    -0.7238788    0.3969632    -0.2638330   -0.5124707    -0.2560542   -0.5191383    -0.7023255    0.3976654 
   5.592500000    -0.7237923    0.3983367    -0.2639413   -0.5143444    -0.2562004   -0.5208234    -0.7014850    0.3998337 
   5.595000000    -0.7234784    0.3992897    -0.2634147   -0.5161587    -0.2559640   -0.5229249    -0.7011280    0.4018031 
   5.597500000    -0.7231049    0.4006532    -0.2633927   -0.5179967    -0.2561223   -0.5245519    -0.7008298    0.4037923 
   5.600000000    -0.7228440    0.4018089    -0.2629857   -0.5198494    -0.2556625   -0.5271370    -0.7005208    0.4051823 
   5.602500000    -0.7223940    0.4036142    -0.2627184   -0.5218373    -0.2556563   -0.5288003    -0.6995648    0.4068731 
   5.605000000    -0.7223917    0.4049671    -0.2635119   -0.5237029    -0.2558292   -0.5306711    -0.6990996    0.4082889 
   5.607500000    -0.7220022    0.4065842    -0.2635171   -0.5255991    -0.2566198   -0.5324897    -0.6992474    0.4099395 
   5.610000000    -0.7211230    0.4081184    -0.2636116   -0.5275139    -0.2568239   -0.5348356    -0.6989380    0.4113522 
   5.612500000    -0.7203819    0.4095312    -0.2638871   -0.5297099    -0.2568954   -0.5370321    -0.6980576    0.4130183 
   5.615000000    -0.7198792    0.4118412    -0.2643737   -0.5320912    -0.2572451   -0.5390117    -0.6978889    0.4143261 
   5.617500000    -0.7187547    0.4141575    -0.2643387   -0.5343806    -0.2574343   -0.5405795    -0.6971748    0.4154652 
   5.620000000    -0.7179223    0.4163569    -0.2663378   -0.5359977    -0.2584220   -0.5427657    -0.6962664    0.4182686 
   5.622500000    -0.7169034    0.4186072    -0.2671627   -0.5381287    -0.2583160   -0.5448867    -0.6950403    0.4196745 
   5.625000000    -0.7152479    0.4207533    -0.2663217   -0.5410990    -0.2604737   -0.5467455    -0.6934655    0.4220147 
   5.627500000    -0.7135590    0.4232741    -0.2672975   -0.5433139    -0.2607911   -0.5492150    -0.6925579    0.4233162 
   5.630000000    -0.7126395    0.4262902    -0.2679048   -0.5460542    -0.2611096   -0.5518239    -0.6916809    0.4251304 
   5.632500000    -0.7110770    0.4293171    -0.2693049   -0.5479562    -0.2621429   -0.5539182    -0.6909522    0.4276376 
   5.635000000    -0.7094750    0.4320736    -0.2704296   -0.5507739    -0.2630743   -0.5562145    -0.6900513    0.4299422 
   5.637500000    -0.7078988    0.4348403    -0.2714867   -0.5532621    -0.2647732   -0.5585427    -0.6888252    0.4326432 
   5.640000000    -0.7065912    0.4386598    -0.2721772   -0.5562137    -0.2657754   -0.5614465    -0.6877344    0.4349818 
   5.642500000    -0.7050538    0.4414671    -0.2730651   -0.5585871    -0.2669604   -0.5641741    -0.6867130    0.4373717 
   5.645000000    -0.7027363    0.4450293    -0.2738527   -0.5614527    -0.2681247   -0.5668383    -0.6864218    0.4403099 
   5.647500000    -0.7013354    0.4484914    -0.2762449   -0.5637548    -0.2694375   -0.5692356    -0.6850706    0.4435270 
   5.650000000    -0.6994598    0.4512117    -0.2775589   -0.5660805    -0.2709338   -0.5720381    -0.6838672    0.4462709 
   5.652500000    -0.6978927    0.4548362    -0.2785476   -0.5686584    -0.2728036   -0.5747516    -0.6830038    0.4496773 
   5.655000000    -0.6962674    0.4578516    -0.2799802   -0.5714150    -0.2742736   -0.5772669    -0.6820996    0.4527257 
   5.657500000    -0.6941943    0.4605792    -0.2812371   -0.5740046    -0.2753583   -0.5801111    -0.6818374    0.4556151 
   5.660000000    -0.6919758    0.4634373    -0.2830625   -0.5760676    -0.2770367   -0.5824535    -0.6803932    0.4591846 
   5.662500000    -0.6890084    0.4661514    -0.2853590   -0.5783572    -0.2788563   -0.5845714    -0.6798767    0.4618404 
   5.665000000    -0.6867064    0.4686300    -0.2871571   -0.5805231    -0.2808490   -0.5874075    -0.6796950    0.4649391 
   5.667500000    -0.6845125    0.4707876    -0.2893834   -0.5828055    -0.2829766   -0.5892527    -0.6791195    0.4678225 
   5.670000000    -0.6821321    0.4733013    -0.2909421   -0.5857919    -0.2838446   -0.5920653    -0.6786742    0.4702125 
   5.672500000    -0.6792369    0.4755043    -0.2937215   -0.5877396    -0.2864330   -0.5944470    -0.6776606    0.4732692 
   5.675000000    -0.6765829    0.4777346    -0.2961342   -0.5903407    -0.2892483   -0.5963219    -0.6766847    0.4761844 
   5.677500000    -0.6733285    0.4804939    -0.2989885   -0.5922856    -0.2915964   -0.5986787    -0.6753161    0.4792778 
   5.680000000    -0.6701798    0.4827219    -0.3011428   -0.5946338    -0.2945017   -0.6007820    -0.6738203    0.4820437 
   5.682500000    -0.6671352    0.4850752    -0.3040331   -0.5967814    -0.2979718   -0.6025423    -0.6726716    0.4851666 
   5.685000000    -0.6638597    0.4877826    -0.3066361   -0.5987853    -0.3006416   -0.6046563    -0.6717972    0.4872076 
   5.687500000    -0.6606949    0.4904565    -0.3088985   -0.6011716    -0.3034667   -0.6068815    -0.6699906    0.4894846 
   5.690000000    -0.6576856    0.4924749    -0.3123520   -0.6031548    -0.3062044   -0.6086436    -0.6674356    0.4919294 
   5.692500000    -0.6543136    0.4943987    -0.3147713   -0.6051515    -0.3098176   -0.6105311    -0.6652805    0.4941283 
   5.695000000    -0.6510344    0.4963764    -0.3173968   -0.6075046    -0.3127701   -0.6125144    -0.6632642    0.4966769 
   5.697500000    -0.6484633    0.4974610    -0.3201114   -0.6096675    -0.3161983   -0.6145407    -0.6614131    0.4983852 
   5.700000000    -0.6456992    0.4984051    -0.3227349   -0.6112202    -0.3195428   -0.6159180    -0.6587868    0.5005555 
   5.702500000    -0.6424844    0.4990495    -0.3252079   -0.6124970    -0.3224775   -0.6178409    -0.6563665    0.5023873 
   5.705000000    -0.6390455    0.5005060    -0.3289307   -0.6137365    -0.3256841   -0.6196522    -0.6531709    0.5045708 
   5.707500000    -0.6354142    0.5014848    -0.3320066   -0.6151807    -0.3293131   -0.6209715    -0.6498646    0.5063422 
   5.710000000    -0.6319827    0.5021478    -0.3342264   -0.6168175    -0.3320355   -0.6220492    -0.6465405    0.5073953 
   5.712500000    -0.6287355    0.5027973    -0.3372079   -0.6180228    -0.3351951   -0.6230677    -0.6431628    0.5088518 
   5.715000000    -0.6252433    0.5033476    -0.3396615   -0.6192614    -0.3383850   -0.6238421    -0.6395135    0.5104678 
   5.717500000    -0.6216741    0.5035607    -0.3435377   -0.6207714    -0.3413575   -0.6250104    -0.6361823    0.5118831 
   5.720000000    -0.6179191    0.5043889    -0.3473076   -0.6206989    -0.3433469   -0.6269490    -0.6331136    0.5126638 
   5.722500000    -0.6141058    0.5044662    -0.3489290   -0.6224617    -0.3479498   -0.6265650    -0.6298423    0.5139775 
   5.725000000    -0.6104469    0.5041443    -0.3522888   -0.6230152    -0.3500209   -0.6276452    -0.6261759    0.5140449 
   5.727500000    -0.6064101    0.5037900    -0.3546665   -0.6238675    -0.3535442   -0.6277540    -0.6220778    0.5147903 
   5.730000000    -0.6025781    0.5042399    -0.3589680   -0.6252850    -0.3564306   -0.6284522    -0.6186500    0.5149665 
   5.732500000    -0.5988514    0.5044977    -0.3622553   -0.6256455    -0.3599164   -0.6293119    -0.6146317    0.5152081 
   5.735000000    -0.5952343    0.5045839    -0.3657791   -0.6268585    -0.3635844   -0.6298851    -0.6106297    0.5151423 
   5.737500000    -0.5914226    0.5043012    -0.3687706   -0.6278524    -0.3667052   -0.6309403    -0.6059688    0.5152415 
   5.740000000    -0.5874872    0.5044810    -0.3717911   -0.6290255    -0.3703398   -0.6317815    -0.6017711    0.5153363 
   5.742500000    -0.5839614    0.5047542    -0.3756981   -0.6306230    -0.3732034   -0.6325708    -0.5974688    0.5149069 
   5.745000000    -0.5804099    0.5045608    -0.3788755   -0.6312736    -0.3771519   -0.6331602    -0.5927934    0.5143762 
   5.747500000    -0.5767636    0.5048860    -0.3825869   -0.6320081    -0.3806415   -0.6339625    -0.5883141    0.5150245 
   5.750000000    -0.5732780    0.5049790    -0.3854927   -0.6332310    -0.3831365   -0.6349313    -0.5839907    0.5152721 
   5.752500000    -0.5694610    0.5053214    -0.3889628   -0.6340108    -0.3870754   -0.6354304    -0.5798013    0.5145009 
   5.755000000    -0.5659756    0.5053484    -0.3923199   -0.6352999    -0.3901347   -0.6359071    -0.5757322    0.5136861 
   5.757500000    -0.5623252    0.5048685    -0.3962300   -0.6349648    -0.3928989   -0.6370526    -0.5715238    0.5130080 
   5.760000000    -0.5587609    0.5049343    -0.3987849   -0.6360193    -0.3962598   -0.6377675    -0.5678383    0.5122894 
   5.762500000    -0.5551100    0.5048773    -0.4023944   -0.6366431    -0.3994847   -0.6384690    -0.5637244    0.5121156 
   5.765000000    -0.5515586    0.5051200    -0.4053458   -0.6371647    -0.4025314   -0.6387787    -0.5602631    0.5108072 
   5.767500000    -0.5474097    0.5049586    -0.4091506   -0.6375253    -0.4060459   -0.6390874    -0.5571892    0.5100030 
   5.770000000    -0.5438843    0.5051690    -0.4125628   -0.6376899    -0.4105527   -0.6387344    -0.5534953    0.5085351 
   5.772500000    -0.5404269    0.5050645    -0.4174798   -0.6368453    -0.4117315   -0.6399487    -0.5502357    0.5069522 
   5.775000000    -0.5358282    0.5049572    -0.4207018   -0.6371241    -0.4167979   -0.6393560    -0.5472162    0.5064623 
   5.777500000    -0.5317792    0.5048600    -0.4233223   -0.6372662    -0.4208360   -0.6391982    -0.5439687    0.5052439 
   5.780000000    -0.5281339    0.5055423    -0.4276986   -0.6368185    -0.4251615   -0.6388430    -0.5406533    0.5043680 
   5.782500000    -0.5242184    0.5058787    -0.4315570   -0.6361222    -0.4296967   -0.6378233    -0.5374725    0.5031976 
   5.785000000    -0.5200831    0.5062152    -0.4365001   -0.6355844    -0.4329247   -0.6376860    -0.5349000    0.5014863 
   5.787500000    -0.5162462    0.5064174    -0.4405152   -0.6357555    -0.4370689   -0.6374909    -0.5325528    0.5006003 
   5.790000000    -0.5123732    0.5060290    -0.4442812   -0.6352222    -0.4413838   -0.6370408    -0.5301738    0.4989081 
   5.792500000    -0.5081517    0.5061442    -0.4480615   -0.6345746    -0.4450380   -0.6365012    -0.5273097    0.4978319 
   5.795000000    -0.5040365    0.5070866    -0.4511970   -0.6337484    -0.4494618   -0.6354613    -0.5247929    0.4965225 
   5.797500000    -0.5000847    0.5073296    -0.4559038   -0.6323956    -0.4529947   -0.6343409    -0.5225311    0.4946111 
   5.800000000    -0.4958296    0.5074222    -0.4600606   -0.6309738    -0.4574088   -0.6330348    -0.5200019    0.4937232 
   5.802500000    -0.4913940    0.5074387    -0.4639949   -0.6307947    -0.4595117   -0.6323050    -0.5180473    0.4920989 
   5.805000000    -0.4878209    0.5069084    -0.4672163   -0.6299686    -0.4635858   -0.6308573    -0.5160324    0.4914629 
   5.807500000    -0.4838262    0.5065579    -0.4704996   -0.6283522    -0.4674855   -0.6291312    -0.5140317    0.4888933 
   5.810000000    -0.4795742    0.5060421    -0.4737244   -0.6267701    -0.4700052   -0.6275821    -0.5116073    0.4878169 
   5.812500000    -0.4753586    0.5061719    -0.4766214   -0.6244292    -0.4728123   -0.6257890    -0.5098153    0.4856618 
   5.815000000    -0.4707147    0.5054785    -0.4803448   -0.6224326    -0.4761024   -0.6230441    -0.5070934    0.4843443 
   5.817500000    -0.4666609    0.5042752    -0.4831684   -0.6202141    -0.4790983   -0.6210852    -0.5045701    0.4824166 
   5.820000000    -0.4624957    0.5028735    -0.4852002   -0.6190810    -0.4816998   -0.6190743    -0.5021153    0.4809513 
   5.822500000    -0.4578860    0.5012733    -0.4875408   -0.6172167    -0.4849165   -0.6156834    -0.5002586    0.4794067 
   5.825000000    -0.4540413    0.4996327    -0.4918910   -0.6137722    -0.4843869   -0.6153407    -0.4983804    0.4769171 
   5.827500000    -0.4499418    0.4973809    -0.4936231   -0.6130896    -0.4886596   -0.6116478    -0.4960665    0.4743378 
   5.830000000    -0.4449980    0.4960208    -0.4957575   -0.6098685    -0.4901654   -0.6097231    -0.4927363    0.4724818 
   5.832500000    -0.4406019    0.4935816    -0.4983536   -0.6077417    -0.4932124   -0.6070034    -0.4900006    0.4698685 
   5.835000000    -0.4365153    0.4910626    -0.5002429   -0.6055534    -0.4950371   -0.6049605    -0.4870718    0.4674538 
   5.837500000    -0.4329809    0.4883149    -0.5033333   -0.6034514    -0.4963314   -0.6030955    -0.4845674    0.4650991 
   5.840000000    -0.4293281    0.4852959    -0.5046920   -0.6026364    -0.4979556   -0.6013891    -0.4822426    0.4626843 
   5.842500000    -0.4259367    0.4827968    -0.5071631   -0.6003494    -0.4998126   -0.5995164    -0.4794301    0.4607955 
   5.845000000    -0.4229422    0.4803857    -0.5090869   -0.5982809    -0.5027443   -0.5974481    -0.4770457    0.4589751 
   5.847500000    -0.4203253    0.4774713    -0.5112486   -0.5965225    -0.5036549   -0.5967193    -0.4746202    0.4566325 
   5.850000000    -0.4176364    0.4748571    -0.5132242   -0.5956657    -0.5065418   -0.5947557    -0.4722081    0.4546648 
   5.852500000    -0.4155671    0.4721425    -0.5153876   -0.5942408    -0.5071517   -0.5943415    -0.4702911    0.4525755 
   5.855000000    -0.4136625    0.4694781    -0.5171338   -0.5931836    -0.5101564   -0.5925673    -0.4682443    0.4508148 
   5.857500000    -0.4119749    0.4670882    -0.5195776   -0.5906870    -0.5110902   -0.5922133    -0.4661974    0.4492320 
   5.860000000    -0.4104789    0.4645308    -0.5210969   -0.5897351    -0.5121650   -0.5911871    -0.4637880    0.4479407 
   5.862500000    -0.4084871    0.4624031    -0.5242059   -0.5881372    -0.5156564   -0.5896391    -0.4609259    0.4468567 
   5.865000000    -0.4075296    0.4598728    -0.5266719   -0.5863959    -0.5157383   -0.5896009    -0.4579972    0.4446977 
   5.867500000    -0.4066412    0.4576531    -0.5280103   -0.5851007    -0.5190699   -0.5872800    -0.4548973    0.4425320 
   5.870000000    -0.4054776    0.4551124    -0.5296925   -0.5834822    -0.5220300   -0.5854883    -0.4521289    0.4404370 
   5.872500000    -0.4045046    0.4526652    -0.5323464   -0.5821676    -0.5233267   -0.5843616    -0.4492338    0.4382801 
   5.875000000    -0.4037256    0.4508145    -0.5342342   -0.5800524    -0.5248146   -0.5823714    -0.4467664    0.4367537 
   5.877500000    -0.4025612    0.4494337    -0.5368020   -0.5788034    -0.5279411   -0.5807303    -0.4437274    0.4348634 
   5.880000000    -0.4011772    0.4474845    -0.5396370   -0.5765597    -0.5304739   -0.5784419    -0.4409106    0.4326467 
   5.882500000    -0.4000735    0.4457760    -0.5423154   -0.5737219    -0.5321187   -0.5774360    -0.4382634    0.4298492 
   5.885000000    -0.3989812    0.4438501    -0.5429778   -0.5737259    -0.5364085   -0.5737440    -0.4360461    0.4272106 
   5.887500000    -0.3983406    0.4417915    -0.5465689   -0.5705202    -0.5369248   -0.5735887    -0.4338513    0.4237909 
   5.890000000    -0.3972707    0.4406243    -0.5484228   -0.5706083    -0.5414879   -0.5692700    -0.4311073    0.4222623 
