! MS46122B
! 1919307/90821646
! 7/29/2022 2:56:26 PM
! C:\USERS\PC_\DESKTOP\MEDICIONES\BANCHA ESTRECHA\65_7GHZ\S11_S21_ABS12_502CL.S2P
! CHANNEL.1
! TR.MEASUREMENT
! CORRECTED.DATA
# GHZ S RI R 50.0
! FREQ.GHZ         S11RE         S11IM         S21RE         S21IM         S12RE         S12IM         S22RE         S22IM         
!; PortSelection: Port_12
   6.500000000    -0.4904071    0.3379007    -0.3537990   -0.7364764    -0.3497145   -0.7344681    -0.5312656    0.2914428 
   6.502500000    -0.4951688    0.3333357    -0.3589331   -0.7319774    -0.3516833   -0.7340813    -0.5308807    0.2905264 
   6.505000000    -0.4963785    0.3312595    -0.3605095   -0.7308496    -0.3529326   -0.7339207    -0.5307510    0.2895020 
   6.507500000    -0.4972375    0.3303128    -0.3615547   -0.7297482    -0.3545218   -0.7338821    -0.5307831    0.2883396 
   6.510000000    -0.4980386    0.3290712    -0.3636875   -0.7292926    -0.3552947   -0.7332265    -0.5304077    0.2865936 
   6.512500000    -0.4984896    0.3278599    -0.3642960   -0.7289266    -0.3566856   -0.7321819    -0.5294506    0.2863097 
   6.515000000    -0.4991796    0.3265152    -0.3652276   -0.7287858    -0.3574226   -0.7316129    -0.5286442    0.2848947 
   6.517500000    -0.4997452    0.3254451    -0.3665968   -0.7283078    -0.3585332   -0.7319043    -0.5277421    0.2836533 
   6.520000000    -0.5003291    0.3241922    -0.3672955   -0.7274118    -0.3597790   -0.7316031    -0.5267856    0.2823106 
   6.522500000    -0.5004241    0.3237209    -0.3687891   -0.7274752    -0.3602354   -0.7314455    -0.5258681    0.2812144 
   6.525000000    -0.5006735    0.3227566    -0.3702971   -0.7259964    -0.3614956   -0.7313095    -0.5249816    0.2796935 
   6.527500000    -0.5012198    0.3221397    -0.3713821   -0.7256458    -0.3622397   -0.7306094    -0.5234162    0.2782522 
   6.530000000    -0.5016117    0.3211904    -0.3719801   -0.7255370    -0.3631366   -0.7308891    -0.5225447    0.2768488 
   6.532500000    -0.5018066    0.3204249    -0.3729241   -0.7257821    -0.3644803   -0.7305424    -0.5219760    0.2759477 
   6.535000000    -0.5018716    0.3200693    -0.3750688   -0.7263866    -0.3654173   -0.7309414    -0.5213705    0.2747786 
   6.537500000    -0.5015912    0.3191442    -0.3764633   -0.7247699    -0.3670253   -0.7308650    -0.5200658    0.2736512 
   6.540000000    -0.5013812    0.3184607    -0.3772173   -0.7245885    -0.3681564   -0.7306933    -0.5192336    0.2724774 
   6.542500000    -0.5014610    0.3176526    -0.3784215   -0.7241389    -0.3693910   -0.7306027    -0.5179856    0.2720507 
   6.545000000    -0.5009391    0.3169905    -0.3798158   -0.7236975    -0.3709818   -0.7305798    -0.5169094    0.2710869 
   6.547500000    -0.5004105    0.3163790    -0.3814342   -0.7241505    -0.3723845   -0.7305490    -0.5164351    0.2707901 
   6.550000000    -0.4999171    0.3156362    -0.3829762   -0.7233607    -0.3741766   -0.7300881    -0.5154543    0.2700234 
   6.552500000    -0.4992976    0.3149914    -0.3844178   -0.7230393    -0.3759513   -0.7295846    -0.5138729    0.2702366 
   6.555000000    -0.4987911    0.3146276    -0.3853305   -0.7220871    -0.3773965   -0.7294375    -0.5128397    0.2698700 
   6.557500000    -0.4978203    0.3136833    -0.3860702   -0.7213874    -0.3788182   -0.7287515    -0.5121146    0.2701419 
   6.560000000    -0.4971986    0.3127974    -0.3871288   -0.7208928    -0.3808725   -0.7286025    -0.5109500    0.2700501 
   6.562500000    -0.4967208    0.3117819    -0.3891749   -0.7198361    -0.3827477   -0.7286786    -0.5089293    0.2706521 
   6.565000000    -0.4957550    0.3112751    -0.3909715   -0.7194030    -0.3843270   -0.7276325    -0.5080857    0.2706508 
   6.567500000    -0.4947526    0.3108422    -0.3919902   -0.7193574    -0.3861226   -0.7271384    -0.5075465    0.2716488 
   6.570000000    -0.4937518    0.3103943    -0.3931574   -0.7182238    -0.3873653   -0.7262911    -0.5069591    0.2719567 
   6.572500000    -0.4934219    0.3087218    -0.3935089   -0.7164842    -0.3887007   -0.7252744    -0.5061747    0.2716537 
   6.575000000    -0.4931089    0.3077932    -0.3940163   -0.7161412    -0.3899387   -0.7245694    -0.5049094    0.2709820 
   6.577500000    -0.4925557    0.3068637    -0.3963756   -0.7149193    -0.3915254   -0.7236896    -0.5038157    0.2713285 
   6.580000000    -0.4918123    0.3061078    -0.3971834   -0.7141867    -0.3931165   -0.7227037    -0.5035236    0.2713699 
   6.582500000    -0.4910157    0.3052088    -0.3979448   -0.7130382    -0.3944895   -0.7217233    -0.5025309    0.2719043 
   6.585000000    -0.4898194    0.3045886    -0.3995012   -0.7122644    -0.3954839   -0.7209830    -0.5013914    0.2728057 
   6.587500000    -0.4889736    0.3035418    -0.3999176   -0.7117336    -0.3966796   -0.7196701    -0.5008328    0.2730533 
   6.590000000    -0.4885164    0.3027065    -0.4006287   -0.7106977    -0.3974517   -0.7183987    -0.5000901    0.2728538 
   6.592500000    -0.4884878    0.3014812    -0.4022410   -0.7098843    -0.3982411   -0.7177821    -0.4988181    0.2734791 
   6.595000000    -0.4882548    0.3004380    -0.4029737   -0.7093161    -0.3995211   -0.7166040    -0.4982930    0.2738753 
   6.597500000    -0.4876273    0.2993523    -0.4034865   -0.7085784    -0.4004748   -0.7154999    -0.4979441    0.2741750 
   6.600000000    -0.4870703    0.2982778    -0.4046127   -0.7076170    -0.4014187   -0.7144930    -0.4972114    0.2746783 
   6.602500000    -0.4862405    0.2980410    -0.4053490   -0.7072211    -0.4022436   -0.7135175    -0.4966452    0.2749593 
   6.605000000    -0.4861044    0.2967185    -0.4062344   -0.7067115    -0.4030490   -0.7124075    -0.4962480    0.2747130 
   6.607500000    -0.4859134    0.2957199    -0.4072677   -0.7054855    -0.4034167   -0.7117872    -0.4957304    0.2747560 
   6.610000000    -0.4857076    0.2946066    -0.4072051   -0.7050354    -0.4050049   -0.7107450    -0.4949787    0.2748816 
   6.612500000    -0.4857755    0.2935449    -0.4080030   -0.7044536    -0.4054664   -0.7099221    -0.4943800    0.2741703 
   6.615000000    -0.4855368    0.2925763    -0.4085047   -0.7039739    -0.4064121   -0.7096140    -0.4941878    0.2740745 
   6.617500000    -0.4853503    0.2921522    -0.4093034   -0.7033491    -0.4076437   -0.7089967    -0.4939695    0.2737213 
   6.620000000    -0.4847986    0.2915366    -0.4104607   -0.7032149    -0.4079092   -0.7081090    -0.4931443    0.2730408 
   6.622500000    -0.4849091    0.2906052    -0.4111540   -0.7020794    -0.4088711   -0.7076005    -0.4931991    0.2723509 
   6.625000000    -0.4850484    0.2895201    -0.4116734   -0.7021920    -0.4098446   -0.7075052    -0.4930972    0.2715160 
   6.627500000    -0.4849335    0.2887695    -0.4118454   -0.7021177    -0.4103139   -0.7065948    -0.4926988    0.2707720 
   6.630000000    -0.4848915    0.2878595    -0.4127244   -0.7014229    -0.4110554   -0.7064508    -0.4926842    0.2694783 
   6.632500000    -0.4845970    0.2870523    -0.4130429   -0.7010161    -0.4113797   -0.7060980    -0.4923996    0.2682377 
   6.635000000    -0.4845746    0.2870090    -0.4144258   -0.7000772    -0.4121821   -0.7053047    -0.4919380    0.2671871 
   6.637500000    -0.4843769    0.2867392    -0.4149633   -0.6999345    -0.4130752   -0.7049817    -0.4918539    0.2657182 
   6.640000000    -0.4844907    0.2859899    -0.4151102   -0.6992897    -0.4140774   -0.7039464    -0.4917952    0.2638231 
   6.642500000    -0.4845761    0.2855704    -0.4154711   -0.6990517    -0.4144336   -0.7038874    -0.4913671    0.2630336 
   6.645000000    -0.4843034    0.2854457    -0.4160783   -0.6985478    -0.4150230   -0.7033219    -0.4912303    0.2615393 
   6.647500000    -0.4840669    0.2850007    -0.4175235   -0.6982011    -0.4158229   -0.7029389    -0.4908681    0.2598558 
   6.650000000    -0.4838594    0.2847045    -0.4183906   -0.6971110    -0.4159210   -0.7023836    -0.4903444    0.2580552 
   6.652500000    -0.4836662    0.2849541    -0.4190682   -0.6967170    -0.4173422   -0.7010578    -0.4896009    0.2561070 
   6.655000000    -0.4833106    0.2845623    -0.4187623   -0.6967294    -0.4184501   -0.7004347    -0.4891089    0.2542794 
   6.657500000    -0.4828338    0.2847448    -0.4194789   -0.6959868    -0.4187320   -0.7001090    -0.4887293    0.2529757 
   6.660000000    -0.4825374    0.2846512    -0.4195186   -0.6956905    -0.4192471   -0.6997632    -0.4882781    0.2517755 
   6.662500000    -0.4818869    0.2843502    -0.4208738   -0.6953942    -0.4195916   -0.6992585    -0.4876052    0.2499962 
   6.665000000    -0.4810490    0.2848273    -0.4216098   -0.6945394    -0.4200504   -0.6983369    -0.4869530    0.2483422 
   6.667500000    -0.4803574    0.2852378    -0.4210964   -0.6944147    -0.4207783   -0.6975702    -0.4854472    0.2462335 
   6.670000000    -0.4797153    0.2852604    -0.4214329   -0.6938622    -0.4212892   -0.6971429    -0.4842417    0.2451548 
   6.672500000    -0.4789249    0.2859900    -0.4211304   -0.6938275    -0.4221764   -0.6968465    -0.4834985    0.2448366 
   6.675000000    -0.4781666    0.2864416    -0.4215928   -0.6936829    -0.4224722   -0.6970265    -0.4830420    0.2435438 
   6.677500000    -0.4769458    0.2873777    -0.4222834   -0.6930073    -0.4228025   -0.6963671    -0.4823629    0.2425144 
   6.680000000    -0.4761540    0.2883690    -0.4231242   -0.6928004    -0.4229885   -0.6961886    -0.4811115    0.2419550 
   6.682500000    -0.4755317    0.2888919    -0.4230843   -0.6928173    -0.4234070   -0.6954997    -0.4801711    0.2407470 
   6.685000000    -0.4744780    0.2897142    -0.4228062   -0.6926100    -0.4242450   -0.6952046    -0.4794569    0.2409131 
   6.687500000    -0.4735170    0.2910262    -0.4231189   -0.6924418    -0.4244289   -0.6952614    -0.4787742    0.2405214 
   6.690000000    -0.4725970    0.2922663    -0.4235703   -0.6922089    -0.4248859   -0.6951191    -0.4780650    0.2405782 
   6.692500000    -0.4715682    0.2940311    -0.4241167   -0.6917263    -0.4252313   -0.6948981    -0.4767846    0.2405008 
   6.695000000    -0.4706595    0.2952055    -0.4243429   -0.6918657    -0.4254571   -0.6948671    -0.4761454    0.2403956 
   6.697500000    -0.4696332    0.2961662    -0.4246872   -0.6922811    -0.4253798   -0.6949601    -0.4757373    0.2408818 
   6.700000000    -0.4685569    0.2975999    -0.4253394   -0.6921353    -0.4266144   -0.6945498    -0.4749610    0.2412801 
   6.702500000    -0.4677839    0.2990912    -0.4251899   -0.6922377    -0.4271859   -0.6941429    -0.4740777    0.2420062 
   6.705000000    -0.4671175    0.3010511    -0.4262238   -0.6921175    -0.4273892   -0.6943510    -0.4736348    0.2423835 
   6.707500000    -0.4664747    0.3026364    -0.4276396   -0.6921793    -0.4283091   -0.6948797    -0.4724282    0.2434172 
   6.710000000    -0.4651710    0.3038347    -0.4272675   -0.6925370    -0.4287275   -0.6944049    -0.4719109    0.2446021 
   6.712500000    -0.4645171    0.3057697    -0.4278878   -0.6923579    -0.4293657   -0.6946746    -0.4712875    0.2455415 
   6.715000000    -0.4637848    0.3072212    -0.4295848   -0.6927874    -0.4299461   -0.6946830    -0.4706874    0.2467019 
   6.717500000    -0.4628683    0.3091016    -0.4293143   -0.6927152    -0.4311676   -0.6946808    -0.4696968    0.2483053 
   6.720000000    -0.4622369    0.3102635    -0.4309380   -0.6927492    -0.4315907   -0.6944044    -0.4691952    0.2496515 
   6.722500000    -0.4617667    0.3114831    -0.4322439   -0.6929371    -0.4321577   -0.6942233    -0.4688711    0.2508095 
   6.725000000    -0.4610657    0.3125489    -0.4323897   -0.6929694    -0.4328620   -0.6942704    -0.4683278    0.2520937 
   6.727500000    -0.4605285    0.3136891    -0.4329544   -0.6928349    -0.4339179   -0.6938632    -0.4675461    0.2544781 
   6.730000000    -0.4599489    0.3145223    -0.4328489   -0.6927394    -0.4345533   -0.6939424    -0.4671953    0.2555365 
   6.732500000    -0.4588672    0.3160071    -0.4346422   -0.6928581    -0.4351970   -0.6942378    -0.4666977    0.2568347 
   6.735000000    -0.4582413    0.3165478    -0.4356429   -0.6919591    -0.4357118   -0.6936971    -0.4660785    0.2578434 
   6.737500000    -0.4576019    0.3172378    -0.4362330   -0.6920809    -0.4360856   -0.6932455    -0.4658444    0.2589641 
   6.740000000    -0.4574114    0.3175871    -0.4370592   -0.6922886    -0.4370541   -0.6929737    -0.4654207    0.2593318 
   6.742500000    -0.4571491    0.3181137    -0.4373534   -0.6917816    -0.4376982   -0.6926053    -0.4651820    0.2601575 
   6.745000000    -0.4569034    0.3183558    -0.4385640   -0.6917639    -0.4390702   -0.6921487    -0.4648838    0.2622499 
   6.747500000    -0.4564971    0.3184910    -0.4396770   -0.6911495    -0.4393189   -0.6919717    -0.4645717    0.2623372 
   6.750000000    -0.4559694    0.3190436    -0.4402419   -0.6910908    -0.4396333   -0.6919973    -0.4640950    0.2625839 
   6.752500000    -0.4556428    0.3188376    -0.4403176   -0.6912680    -0.4398224   -0.6911272    -0.4636180    0.2625079 
   6.755000000    -0.4550118    0.3184064    -0.4408323   -0.6908427    -0.4408185   -0.6906815    -0.4631624    0.2621239 
   6.757500000    -0.4547467    0.3181777    -0.4410574   -0.6909201    -0.4414013   -0.6897693    -0.4625339    0.2616431 
   6.760000000    -0.4545258    0.3175901    -0.4416918   -0.6903229    -0.4412283   -0.6895853    -0.4618579    0.2620890 
   6.762500000    -0.4541296    0.3169529    -0.4423446   -0.6899067    -0.4417919   -0.6893577    -0.4615264    0.2613341 
   6.765000000    -0.4534675    0.3176348    -0.4423261   -0.6902207    -0.4417337   -0.6894062    -0.4612076    0.2601130 
   6.767500000    -0.4528898    0.3169509    -0.4428307   -0.6900422    -0.4418554   -0.6894348    -0.4608415    0.2589771 
   6.770000000    -0.4524028    0.3161162    -0.4427841   -0.6901724    -0.4421349   -0.6891972    -0.4603208    0.2577314 
   6.772500000    -0.4517144    0.3147568    -0.4427702   -0.6902880    -0.4433560   -0.6890072    -0.4596049    0.2566077 
   6.775000000    -0.4511525    0.3138230    -0.4436855   -0.6909504    -0.4432848   -0.6889166    -0.4590772    0.2556836 
   6.777500000    -0.4506302    0.3128596    -0.4440013   -0.6906028    -0.4429653   -0.6893110    -0.4585785    0.2543779 
   6.780000000    -0.4497394    0.3120131    -0.4438829   -0.6909449    -0.4430903   -0.6894444    -0.4583485    0.2520375 
   6.782500000    -0.4492628    0.3116418    -0.4437882   -0.6913692    -0.4430876   -0.6897326    -0.4574532    0.2497463 
   6.785000000    -0.4484664    0.3109039    -0.4446020   -0.6916310    -0.4430374   -0.6906624    -0.4561407    0.2479264 
   6.787500000    -0.4481331    0.3098167    -0.4442502   -0.6926017    -0.4432151   -0.6911203    -0.4554213    0.2457760 
   6.790000000    -0.4477944    0.3088959    -0.4449994   -0.6937315    -0.4445677   -0.6913379    -0.4550668    0.2441401 
   6.792500000    -0.4469079    0.3077998    -0.4463754   -0.6938798    -0.4450182   -0.6921992    -0.4548290    0.2419182 
   6.795000000    -0.4458650    0.3076963    -0.4466160   -0.6943607    -0.4451505   -0.6924412    -0.4544282    0.2400742 
   6.797500000    -0.4458203    0.3075367    -0.4470918   -0.6954776    -0.4452622   -0.6935046    -0.4538925    0.2380786 
   6.800000000    -0.4453781    0.3074566    -0.4473194   -0.6965539    -0.4458408   -0.6945477    -0.4536932    0.2358910 
   6.802500000    -0.4446638    0.3075645    -0.4482206   -0.6972314    -0.4462381   -0.6956546    -0.4539437    0.2346057 
   6.805000000    -0.4437987    0.3075887    -0.4487994   -0.6982904    -0.4472937   -0.6967410    -0.4535728    0.2330842 
   6.807500000    -0.4424609    0.3084536    -0.4506422   -0.6992734    -0.4489949   -0.6967472    -0.4534534    0.2321126 
   6.810000000    -0.4419537    0.3091894    -0.4523482   -0.6997395    -0.4502209   -0.6974545    -0.4526565    0.2315314 
   6.812500000    -0.4416519    0.3103666    -0.4535274   -0.7012904    -0.4515975   -0.6982765    -0.4527860    0.2309095 
   6.815000000    -0.4413179    0.3112686    -0.4549967   -0.7020742    -0.4522328   -0.6991320    -0.4525339    0.2308447 
   6.817500000    -0.4399190    0.3121739    -0.4558845   -0.7031140    -0.4538644   -0.6999497    -0.4524585    0.2309365 
   6.820000000    -0.4375289    0.3138676    -0.4582522   -0.7034990    -0.4560825   -0.7005220    -0.4524159    0.2311429 
   6.822500000    -0.4364007    0.3153034    -0.4600607   -0.7043707    -0.4581872   -0.7015020    -0.4512821    0.2317681 
   6.825000000    -0.4356260    0.3170583    -0.4624120   -0.7038272    -0.4598677   -0.7019997    -0.4507761    0.2327445 
   6.827500000    -0.4348531    0.3186011    -0.4637335   -0.7046027    -0.4617025   -0.7023295    -0.4499911    0.2342213 
   6.830000000    -0.4325567    0.3204582    -0.4647070   -0.7045075    -0.4632287   -0.7024959    -0.4489465    0.2349686 
   6.832500000    -0.4303679    0.3220721    -0.4673833   -0.7049960    -0.4651017   -0.7027807    -0.4483666    0.2358811 
   6.835000000    -0.4283870    0.3238898    -0.4689152   -0.7052863    -0.4673123   -0.7027354    -0.4472981    0.2372561 
   6.837500000    -0.4263408    0.3258635    -0.4715893   -0.7043002    -0.4695777   -0.7021803    -0.4453968    0.2390187 
   6.840000000    -0.4244106    0.3273844    -0.4729432   -0.7037344    -0.4713133   -0.7018713    -0.4439300    0.2404637 
   6.842500000    -0.4221316    0.3288815    -0.4747399   -0.7031453    -0.4730467   -0.7014897    -0.4426886    0.2414253 
   6.845000000    -0.4200505    0.3300565    -0.4769153   -0.7028911    -0.4753156   -0.7006707    -0.4418482    0.2428396 
   6.847500000    -0.4180669    0.3311780    -0.4782780   -0.7023065    -0.4770013   -0.7001727    -0.4409511    0.2442677 
   6.850000000    -0.4162383    0.3320912    -0.4795658   -0.7016840    -0.4787292   -0.6989391    -0.4400357    0.2459663 
   6.852500000    -0.4146662    0.3328718    -0.4812142   -0.7004641    -0.4800532   -0.6982641    -0.4390367    0.2471970 
   6.855000000    -0.4131477    0.3334067    -0.4828357   -0.6994027    -0.4812459   -0.6973397    -0.4382605    0.2483585 
   6.857500000    -0.4113652    0.3337544    -0.4842838   -0.6989468    -0.4826040   -0.6967541    -0.4371286    0.2492140 
   6.860000000    -0.4092347    0.3340153    -0.4860044   -0.6989228    -0.4840532   -0.6961914    -0.4358262    0.2509644 
   6.862500000    -0.4078428    0.3336493    -0.4873653   -0.6977077    -0.4851010   -0.6950743    -0.4350734    0.2519644 
   6.865000000    -0.4063484    0.3334455    -0.4881344   -0.6963962    -0.4860463   -0.6938592    -0.4345449    0.2530742 
   6.867500000    -0.4050205    0.3329189    -0.4885682   -0.6959647    -0.4867097   -0.6925349    -0.4343479    0.2539943 
   6.870000000    -0.4038633    0.3327734    -0.4892281   -0.6952102    -0.4870889   -0.6915913    -0.4337185    0.2546401 
   6.872500000    -0.4023037    0.3323446    -0.4913265   -0.6950021    -0.4883873   -0.6906149    -0.4329885    0.2554513 
   6.875000000    -0.4010443    0.3315708    -0.4919857   -0.6936759    -0.4886610   -0.6897670    -0.4322542    0.2558511 
   6.877500000    -0.3996882    0.3309276    -0.4926492   -0.6943604    -0.4894102   -0.6896785    -0.4312479    0.2569143 
   6.880000000    -0.3983156    0.3299161    -0.4935328   -0.6942925    -0.4901108   -0.6892537    -0.4311416    0.2580182 
   6.882500000    -0.3977932    0.3292599    -0.4938524   -0.6939563    -0.4904987   -0.6889969    -0.4308924    0.2576921 
   6.885000000    -0.3967237    0.3277811    -0.4937818   -0.6931761    -0.4913556   -0.6881405    -0.4303849    0.2577118 
   6.887500000    -0.3952601    0.3265534    -0.4952361   -0.6928729    -0.4911716   -0.6879916    -0.4300522    0.2573706 
   6.890000000    -0.3931869    0.3250485    -0.4965890   -0.6923147    -0.4928688   -0.6874339    -0.4291859    0.2574855 
