! MS46122B
! 1919307/90821646
! 6/10/2022 12:31:11 PM
! C:\USERS\PC_\DESKTOP\CARACTERIZACION\MEDICIONES\BANCHA ESTRECHA\5_55GHZ\S11_S21_ABS12_1002CL.S2P
! CHANNEL.1
! TR.MEASUREMENT
! CORRECTED.DATA
# GHZ S RI R 50.0
! FREQ.GHZ         S11RE         S11IM         S21RE         S21IM         S12RE         S12IM         S22RE         S22IM         
!; PortSelection: Port_12
   5.000000000    -0.8296013    0.2773860    -0.1244390   -0.4546263    -0.0864730   -0.4898586    -0.8141810    0.2770833 
   5.002500000    -0.8301542    0.2762662    -0.1258036   -0.4512137    -0.0880770   -0.4911020    -0.8140894    0.2783635 
   5.005000000    -0.8302392    0.2752895    -0.1255952   -0.4508140    -0.0890570   -0.4923714    -0.8137673    0.2790111 
   5.007500000    -0.8295929    0.2751310    -0.1249291   -0.4506357    -0.0898147   -0.4935683    -0.8141218    0.2795968 
   5.010000000    -0.8292028    0.2746567    -0.1243884   -0.4504059    -0.0903127   -0.4946856    -0.8139164    0.2807176 
   5.012500000    -0.8288528    0.2746420    -0.1240676   -0.4499643    -0.0908099   -0.4956616    -0.8140905    0.2809272 
   5.015000000    -0.8281814    0.2740766    -0.1236806   -0.4500764    -0.0920632   -0.4963474    -0.8137783    0.2817500 
   5.017500000    -0.8274545    0.2742381    -0.1229884   -0.4495969    -0.0931633   -0.4968616    -0.8137835    0.2826251 
   5.020000000    -0.8268740    0.2740219    -0.1220751   -0.4492813    -0.0938369   -0.4976864    -0.8134838    0.2834148 
   5.022500000    -0.8259996    0.2744588    -0.1212869   -0.4488469    -0.0945924   -0.4983967    -0.8132226    0.2841529 
   5.025000000    -0.8255652    0.2747599    -0.1209124   -0.4480698    -0.0951762   -0.4986640    -0.8131938    0.2848285 
   5.027500000    -0.8246365    0.2754648    -0.1205013   -0.4479652    -0.0959971   -0.4987921    -0.8129303    0.2854983 
   5.030000000    -0.8243519    0.2758683    -0.1193512   -0.4475646    -0.0965050   -0.4992039    -0.8121880    0.2854640 
   5.032500000    -0.8233184    0.2771567    -0.1184082   -0.4475938    -0.0974318   -0.4995582    -0.8127694    0.2863804 
   5.035000000    -0.8232923    0.2782119    -0.1172484   -0.4471519    -0.0979676   -0.5001103    -0.8129010    0.2872152 
   5.037500000    -0.8235016    0.2792606    -0.1162485   -0.4468874    -0.0981557   -0.5003410    -0.8133313    0.2874448 
   5.040000000    -0.8241551    0.2799367    -0.1151671   -0.4466936    -0.0984334   -0.5006277    -0.8134469    0.2884781 
   5.042500000    -0.8241618    0.2809846    -0.1145252   -0.4471538    -0.0987894   -0.5008475    -0.8134026    0.2894664 
   5.045000000    -0.8247795    0.2816683    -0.1130623   -0.4475312    -0.0987916   -0.5012127    -0.8139367    0.2899537 
   5.047500000    -0.8258811    0.2823384    -0.1112784   -0.4477411    -0.0991842   -0.5017732    -0.8143291    0.2909947 
   5.050000000    -0.8267790    0.2826876    -0.1097390   -0.4481435    -0.0988561   -0.5025851    -0.8149524    0.2915301 
   5.052500000    -0.8279040    0.2834900    -0.1081724   -0.4482185    -0.0985568   -0.5031882    -0.8156197    0.2923192 
   5.055000000    -0.8290737    0.2849412    -0.1064504   -0.4489533    -0.0985368   -0.5036851    -0.8159359    0.2932778 
   5.057500000    -0.8308103    0.2851495    -0.1051439   -0.4500810    -0.0980309   -0.5047936    -0.8167415    0.2940346 
   5.060000000    -0.8321683    0.2852769    -0.1030345   -0.4510622    -0.0979336   -0.5058964    -0.8174205    0.2943487 
   5.062500000    -0.8337376    0.2855129    -0.1014131   -0.4519572    -0.0980205   -0.5064376    -0.8179913    0.2953596 
   5.065000000    -0.8355356    0.2860288    -0.0991525   -0.4530819    -0.0977763   -0.5076569    -0.8191238    0.2958824 
   5.067500000    -0.8372687    0.2869128    -0.0980300   -0.4538975    -0.0975048   -0.5088934    -0.8194426    0.2966534 
   5.070000000    -0.8391350    0.2870700    -0.0962788   -0.4553576    -0.0973378   -0.5101191    -0.8201831    0.2977143 
   5.072500000    -0.8407125    0.2866333    -0.0944942   -0.4567480    -0.0973016   -0.5119904    -0.8209614    0.2974419 
   5.075000000    -0.8426178    0.2870382    -0.0927206   -0.4583572    -0.0970780   -0.5135568    -0.8216247    0.2984830 
   5.077500000    -0.8440700    0.2872225    -0.0909932   -0.4601351    -0.0975656   -0.5151505    -0.8224777    0.2990356 
   5.080000000    -0.8451687    0.2873491    -0.0897475   -0.4620613    -0.0979052   -0.5169708    -0.8233916    0.2995482 
   5.082500000    -0.8462605    0.2873359    -0.0890893   -0.4642090    -0.0982293   -0.5186780    -0.8237194    0.3003780 
   5.085000000    -0.8474844    0.2876066    -0.0880901   -0.4662826    -0.0989070   -0.5208499    -0.8245504    0.3011136 
   5.087500000    -0.8483894    0.2879524    -0.0867390   -0.4688717    -0.0997246   -0.5230227    -0.8251241    0.3022218 
   5.090000000    -0.8492673    0.2881830    -0.0859021   -0.4713936    -0.1006578   -0.5251824    -0.8257552    0.3026804 
   5.092500000    -0.8500550    0.2887315    -0.0848489   -0.4741476    -0.1017311   -0.5272963    -0.8260972    0.3034351 
   5.095000000    -0.8506839    0.2885411    -0.0853134   -0.4771167    -0.1025816   -0.5295507    -0.8266320    0.3037379 
   5.097500000    -0.8505875    0.2890477    -0.0850376   -0.4800011    -0.1038304   -0.5320173    -0.8268022    0.3046747 
   5.100000000    -0.8506289    0.2882402    -0.0845056   -0.4829496    -0.1049257   -0.5346014    -0.8272905    0.3052799 
   5.102500000    -0.8507018    0.2880493    -0.0842307   -0.4863248    -0.1062399   -0.5369001    -0.8276817    0.3065115 
   5.105000000    -0.8502222    0.2876582    -0.0845335   -0.4889397    -0.1081010   -0.5391003    -0.8274084    0.3078535 
   5.107500000    -0.8500211    0.2874220    -0.0853654   -0.4920657    -0.1096260   -0.5414211    -0.8274000    0.3090315 
   5.110000000    -0.8488827    0.2869207    -0.0858491   -0.4951271    -0.1103376   -0.5434355    -0.8277799    0.3108391 
   5.112500000    -0.8475573    0.2867348    -0.0863139   -0.4979420    -0.1125416   -0.5458374    -0.8280770    0.3128637 
   5.115000000    -0.8455418    0.2860623    -0.0866345   -0.5007682    -0.1151398   -0.5471171    -0.8275767    0.3144194 
   5.117500000    -0.8441025    0.2850508    -0.0878889   -0.5032315    -0.1171573   -0.5490143    -0.8273459    0.3164826 
   5.120000000    -0.8421977    0.2847210    -0.0884096   -0.5056587    -0.1198836   -0.5505337    -0.8267964    0.3191825 
   5.122500000    -0.8396876    0.2838306    -0.0897504   -0.5079921    -0.1221745   -0.5519865    -0.8256605    0.3213323 
   5.125000000    -0.8370872    0.2832195    -0.0909632   -0.5101193    -0.1245612   -0.5531363    -0.8247123    0.3235581 
   5.127500000    -0.8343472    0.2831855    -0.0919615   -0.5120916    -0.1274417   -0.5541152    -0.8232343    0.3260493 
   5.130000000    -0.8308951    0.2825159    -0.0931885   -0.5140867    -0.1300379   -0.5553123    -0.8223723    0.3292249 
   5.132500000    -0.8269256    0.2824298    -0.0950730   -0.5154103    -0.1334545   -0.5562468    -0.8211733    0.3317430 
   5.135000000    -0.8237678    0.2827737    -0.0965628   -0.5172116    -0.1360267   -0.5570655    -0.8198200    0.3342385 
   5.137500000    -0.8204790    0.2831159    -0.0977287   -0.5190948    -0.1386577   -0.5578169    -0.8185129    0.3376266 
   5.140000000    -0.8172845    0.2836039    -0.0991433   -0.5206689    -0.1410362   -0.5582014    -0.8168313    0.3395974 
   5.142500000    -0.8139888    0.2840785    -0.1003425   -0.5220940    -0.1437562   -0.5587229    -0.8150918    0.3420437 
   5.145000000    -0.8103384    0.2860726    -0.1011355   -0.5233042    -0.1468179   -0.5588290    -0.8129704    0.3453457 
   5.147500000    -0.8068290    0.2868690    -0.1029866   -0.5240545    -0.1489828   -0.5592262    -0.8097106    0.3471296 
   5.150000000    -0.8024282    0.2885955    -0.1026897   -0.5255977    -0.1520936   -0.5585762    -0.8072782    0.3482257 
   5.152500000    -0.7996080    0.2889704    -0.1038944   -0.5262426    -0.1535447   -0.5587860    -0.8045161    0.3495512 
   5.155000000    -0.7954504    0.2900258    -0.1042597   -0.5276035    -0.1556028   -0.5585297    -0.8015505    0.3518333 
   5.157500000    -0.7918631    0.2921327    -0.1043725   -0.5286405    -0.1574452   -0.5579536    -0.7984875    0.3539366 
   5.160000000    -0.7886992    0.2941990    -0.1044399   -0.5298361    -0.1595048   -0.5577888    -0.7958283    0.3558650 
   5.162500000    -0.7850575    0.2954414    -0.1040026   -0.5306689    -0.1606571   -0.5571877    -0.7924304    0.3569778 
   5.165000000    -0.7816769    0.2972053    -0.1043293   -0.5315683    -0.1619197   -0.5565671    -0.7892051    0.3587952 
   5.167500000    -0.7778872    0.2990228    -0.1040548   -0.5333249    -0.1630151   -0.5555252    -0.7862377    0.3598972 
   5.170000000    -0.7741925    0.3019440    -0.1030468   -0.5353036    -0.1638174   -0.5545796    -0.7829227    0.3613228 
   5.172500000    -0.7707450    0.3038785    -0.1020859   -0.5374805    -0.1645797   -0.5536242    -0.7799381    0.3626371 
   5.175000000    -0.7670410    0.3060186    -0.1011005   -0.5394225    -0.1650473   -0.5532903    -0.7773820    0.3630851 
   5.177500000    -0.7637285    0.3082008    -0.1001851   -0.5420474    -0.1655297   -0.5526594    -0.7749524    0.3635803 
   5.180000000    -0.7601742    0.3107649    -0.0999683   -0.5447907    -0.1656623   -0.5518729    -0.7725530    0.3642242 
   5.182500000    -0.7568475    0.3129384    -0.0992186   -0.5477905    -0.1658370   -0.5517741    -0.7703279    0.3645265 
   5.185000000    -0.7536924    0.3149936    -0.0986578   -0.5514616    -0.1659628   -0.5519035    -0.7690083    0.3642873 
   5.187500000    -0.7505937    0.3167067    -0.0988778   -0.5555447    -0.1663010   -0.5522550    -0.7687710    0.3648791 
   5.190000000    -0.7474287    0.3189360    -0.0987026   -0.5597616    -0.1662319   -0.5529761    -0.7675440    0.3642803 
   5.192500000    -0.7444342    0.3200833    -0.0999602   -0.5640718    -0.1666401   -0.5534008    -0.7679859    0.3643569 
   5.195000000    -0.7419398    0.3216467    -0.1005585   -0.5687762    -0.1669729   -0.5549024    -0.7687589    0.3637696 
   5.197500000    -0.7401228    0.3230399    -0.1022716   -0.5735058    -0.1679704   -0.5566357    -0.7692330    0.3637714 
   5.200000000    -0.7378966    0.3248279    -0.1042031   -0.5785650    -0.1688902   -0.5585674    -0.7704337    0.3642097 
   5.202500000    -0.7357430    0.3266704    -0.1070358   -0.5839626    -0.1698331   -0.5605636    -0.7711426    0.3650238 
   5.205000000    -0.7341307    0.3278000    -0.1094502   -0.5891955    -0.1713747   -0.5624464    -0.7722803    0.3660654 
   5.207500000    -0.7320589    0.3285369    -0.1130809   -0.5937375    -0.1729767   -0.5638534    -0.7727131    0.3666411 
   5.210000000    -0.7301915    0.3292778    -0.1169076   -0.5982359    -0.1751883   -0.5656162    -0.7729172    0.3679665 
   5.212500000    -0.7290996    0.3304005    -0.1215898   -0.6027253    -0.1775049   -0.5671628    -0.7720908    0.3693961 
   5.215000000    -0.7277190    0.3305446    -0.1265781   -0.6067256    -0.1805301   -0.5687110    -0.7716386    0.3711323 
   5.217500000    -0.7258587    0.3307517    -0.1318480   -0.6104836    -0.1835501   -0.5697596    -0.7703892    0.3723922 
   5.220000000    -0.7240075    0.3302974    -0.1369177   -0.6134065    -0.1863260   -0.5705262    -0.7692677    0.3735000 
   5.222500000    -0.7218176    0.3293479    -0.1430256   -0.6155385    -0.1899267   -0.5708980    -0.7671737    0.3733658 
   5.225000000    -0.7208518    0.3286044    -0.1487232   -0.6169336    -0.1929655   -0.5715679    -0.7658991    0.3737726 
   5.227500000    -0.7197925    0.3281720    -0.1555516   -0.6189815    -0.1964720   -0.5715822    -0.7636904    0.3741528 
   5.230000000    -0.7179362    0.3267887    -0.1605928   -0.6197576    -0.1997448   -0.5710968    -0.7623175    0.3748021 
   5.232500000    -0.7157915    0.3261323    -0.1665811   -0.6199249    -0.2025822   -0.5705001    -0.7599552    0.3732885 
   5.235000000    -0.7138546    0.3253430    -0.1719863   -0.6198652    -0.2057478   -0.5695680    -0.7572401    0.3729859 
   5.237500000    -0.7134513    0.3244639    -0.1777869   -0.6188438    -0.2084503   -0.5681660    -0.7545897    0.3726150 
   5.240000000    -0.7130057    0.3233876    -0.1830268   -0.6179601    -0.2120495   -0.5672369    -0.7522555    0.3721834 
   5.242500000    -0.7117041    0.3237431    -0.1883128   -0.6174351    -0.2153324   -0.5660491    -0.7504492    0.3719665 
   5.245000000    -0.7088494    0.3243779    -0.1936644   -0.6165332    -0.2179410   -0.5647444    -0.7489371    0.3722856 
   5.247500000    -0.7063342    0.3240325    -0.1976527   -0.6150573    -0.2206612   -0.5629735    -0.7471365    0.3726550 
   5.250000000    -0.7041255    0.3246607    -0.2022309   -0.6129681    -0.2232818   -0.5610574    -0.7448907    0.3725731 
   5.252500000    -0.7026207    0.3263244    -0.2062511   -0.6111252    -0.2258479   -0.5589767    -0.7421909    0.3741383 
   5.255000000    -0.7004764    0.3261790    -0.2102736   -0.6085564    -0.2275125   -0.5569245    -0.7401720    0.3738246 
   5.257500000    -0.6963813    0.3267176    -0.2139466   -0.6063514    -0.2302384   -0.5545005    -0.7378373    0.3744713 
   5.260000000    -0.6916317    0.3279912    -0.2170919   -0.6038967    -0.2322209   -0.5519942    -0.7345089    0.3752122 
   5.262500000    -0.6882115    0.3295531    -0.2202264   -0.6014667    -0.2338304   -0.5493085    -0.7310451    0.3762445 
   5.265000000    -0.6845949    0.3304650    -0.2219361   -0.5988351    -0.2345615   -0.5467476    -0.7286602    0.3771620 
   5.267500000    -0.6801268    0.3312786    -0.2239476   -0.5963857    -0.2357899   -0.5437462    -0.7249699    0.3773233 
   5.270000000    -0.6757507    0.3319741    -0.2257118   -0.5938056    -0.2354041   -0.5412471    -0.7213453    0.3779610 
   5.272500000    -0.6694041    0.3330544    -0.2261317   -0.5916558    -0.2360035   -0.5383127    -0.7174661    0.3787323 
   5.275000000    -0.6636236    0.3332205    -0.2273330   -0.5884140    -0.2347051   -0.5356579    -0.7130170    0.3791272 
   5.277500000    -0.6573960    0.3326727    -0.2282448   -0.5865579    -0.2338120   -0.5326369    -0.7087319    0.3789089 
   5.280000000    -0.6509727    0.3330786    -0.2277722   -0.5838669    -0.2325722   -0.5305467    -0.7045120    0.3794925 
   5.282500000    -0.6457359    0.3329036    -0.2269780   -0.5824001    -0.2306194   -0.5287511    -0.7016309    0.3787076 
   5.285000000    -0.6405160    0.3318598    -0.2265467   -0.5812925    -0.2280144   -0.5276471    -0.6987466    0.3775386 
   5.287500000    -0.6349161    0.3303522    -0.2257175   -0.5807378    -0.2254323   -0.5264332    -0.6953292    0.3765233 
   5.290000000    -0.6290110    0.3281590    -0.2254055   -0.5804011    -0.2230177   -0.5266147    -0.6917698    0.3753037 
   5.292500000    -0.6233070    0.3263890    -0.2244180   -0.5811896    -0.2201865   -0.5267376    -0.6889346    0.3739945 
   5.295000000    -0.6183913    0.3241425    -0.2237975   -0.5819724    -0.2177485   -0.5274908    -0.6867671    0.3735248 
   5.297500000    -0.6142946    0.3219307    -0.2234045   -0.5833462    -0.2155356   -0.5294336    -0.6851937    0.3726427 
   5.300000000    -0.6111934    0.3198081    -0.2236954   -0.5856389    -0.2139159   -0.5322202    -0.6842926    0.3719424 
   5.302500000    -0.6087672    0.3180491    -0.2250215   -0.5878755    -0.2129284   -0.5353094    -0.6836658    0.3717714 
   5.305000000    -0.6072300    0.3170017    -0.2256812   -0.5911080    -0.2124975   -0.5385324    -0.6832260    0.3717358 
   5.307500000    -0.6064475    0.3158076    -0.2278712   -0.5945475    -0.2127901   -0.5424049    -0.6835705    0.3726953 
   5.310000000    -0.6067054    0.3148739    -0.2314451   -0.5976561    -0.2131899   -0.5464603    -0.6835814    0.3743128 
   5.312500000    -0.6070476    0.3150400    -0.2333574   -0.6007219    -0.2166276   -0.5499026    -0.6839831    0.3766149 
   5.315000000    -0.6078710    0.3157660    -0.2383306   -0.6042070    -0.2187022   -0.5536595    -0.6842853    0.3789705 
   5.317500000    -0.6085401    0.3161941    -0.2428965   -0.6067777    -0.2225852   -0.5568110    -0.6842898    0.3818935 
   5.320000000    -0.6092843    0.3172159    -0.2484309   -0.6089141    -0.2268522   -0.5594165    -0.6832447    0.3847509 
   5.322500000    -0.6103851    0.3184774    -0.2551825   -0.6104589    -0.2313018   -0.5617543    -0.6809850    0.3875731 
   5.325000000    -0.6113752    0.3204955    -0.2615165   -0.6120679    -0.2371121   -0.5630015    -0.6775284    0.3897111 
   5.327500000    -0.6122212    0.3225554    -0.2685993   -0.6118662    -0.2427445   -0.5631390    -0.6739706    0.3912916 
   5.330000000    -0.6128870    0.3234493    -0.2757073   -0.6106570    -0.2485271   -0.5622450    -0.6707842    0.3924702 
   5.332500000    -0.6142530    0.3243671    -0.2821516   -0.6082774    -0.2536479   -0.5607455    -0.6670453    0.3928195 
   5.335000000    -0.6147300    0.3247413    -0.2894084   -0.6048644    -0.2591394   -0.5579856    -0.6635752    0.3912868 
   5.337500000    -0.6158733    0.3254108    -0.2956559   -0.6008955    -0.2637171   -0.5550615    -0.6603363    0.3897239 
   5.340000000    -0.6171792    0.3264189    -0.3007982   -0.5968088    -0.2682433   -0.5513233    -0.6575265    0.3866920 
   5.342500000    -0.6187959    0.3274268    -0.3055573   -0.5921599    -0.2719043   -0.5473234    -0.6546366    0.3843609 
   5.345000000    -0.6212916    0.3275048    -0.3097872   -0.5862264    -0.2744161   -0.5426875    -0.6531035    0.3803798 
   5.347500000    -0.6237639    0.3274493    -0.3134640   -0.5805596    -0.2761952   -0.5378915    -0.6513457    0.3771153 
   5.350000000    -0.6258083    0.3280784    -0.3167866   -0.5756729    -0.2779025   -0.5333735    -0.6507058    0.3738144 
   5.352500000    -0.6287932    0.3295108    -0.3185286   -0.5704829    -0.2796757   -0.5289835    -0.6501986    0.3699005 
   5.355000000    -0.6313770    0.3305725    -0.3205700   -0.5654498    -0.2807407   -0.5243474    -0.6503026    0.3661409 
   5.357500000    -0.6334190    0.3319682    -0.3216332   -0.5608250    -0.2807828   -0.5200179    -0.6507615    0.3629060 
   5.360000000    -0.6357883    0.3333563    -0.3231001   -0.5555341    -0.2806342   -0.5155843    -0.6504749    0.3599764 
   5.362500000    -0.6386254    0.3344154    -0.3235452   -0.5512411    -0.2799969   -0.5117181    -0.6511405    0.3576020 
   5.365000000    -0.6413036    0.3348987    -0.3236395   -0.5467634    -0.2795688   -0.5078911    -0.6517100    0.3545949 
   5.367500000    -0.6437004    0.3358674    -0.3231566   -0.5424643    -0.2780612   -0.5042794    -0.6523545    0.3512860 
   5.370000000    -0.6461712    0.3373189    -0.3235566   -0.5390586    -0.2776636   -0.5005426    -0.6530701    0.3495309 
   5.372500000    -0.6482106    0.3382977    -0.3230184   -0.5351948    -0.2759768   -0.4971502    -0.6541098    0.3469846 
   5.375000000    -0.6494893    0.3401597    -0.3222385   -0.5314373    -0.2740797   -0.4938359    -0.6538669    0.3459070 
   5.377500000    -0.6505502    0.3412278    -0.3215488   -0.5272420    -0.2720118   -0.4907761    -0.6545114    0.3449437 
   5.380000000    -0.6518642    0.3421034    -0.3202974   -0.5238985    -0.2695554   -0.4881224    -0.6555440    0.3439626 
   5.382500000    -0.6532671    0.3429151    -0.3186941   -0.5209922    -0.2667017   -0.4857120    -0.6564379    0.3423092 
   5.385000000    -0.6541128    0.3439486    -0.3179565   -0.5182640    -0.2637207   -0.4833431    -0.6564284    0.3419961 
   5.387500000    -0.6542031    0.3441754    -0.3163231   -0.5152012    -0.2605500   -0.4811578    -0.6569101    0.3410874 
