! MS46122B
! 1919307/90821646
! 7/29/2022 2:47:02 PM
! C:\USERS\PC_\DESKTOP\MEDICIONES\BANCHA ESTRECHA\65_7GHZ\S11_S21_ABS12_1002CL.S2P
! CHANNEL.1
! TR.MEASUREMENT
! CORRECTED.DATA
# GHZ S RI R 50.0
! FREQ.GHZ         S11RE         S11IM         S21RE         S21IM         S12RE         S12IM         S22RE         S22IM         
!; PortSelection: Port_12
   6.500000000    -0.1580951    0.3255391    -0.8482380   -0.4049183    -0.8430852   -0.4051805    -0.1224393    0.3622119 
   6.502500000    -0.1628815    0.3287920    -0.8471695   -0.3998829    -0.8439872   -0.4025713    -0.1208127    0.3596371 
   6.505000000    -0.1639452    0.3274346    -0.8472344   -0.3979174    -0.8443344   -0.4015127    -0.1191021    0.3567818 
   6.507500000    -0.1643000    0.3257538    -0.8483496   -0.3964766    -0.8450546   -0.3998639    -0.1184048    0.3543691 
   6.510000000    -0.1647574    0.3242111    -0.8494082   -0.3945126    -0.8453653   -0.3989433    -0.1178043    0.3515900 
   6.512500000    -0.1649162    0.3227279    -0.8497512   -0.3929997    -0.8461264   -0.3972103    -0.1166083    0.3485822 
   6.515000000    -0.1652234    0.3211053    -0.8507218   -0.3909857    -0.8465265   -0.3955030    -0.1156970    0.3459672 
   6.517500000    -0.1652265    0.3194307    -0.8518295   -0.3892546    -0.8476262   -0.3944026    -0.1147976    0.3436156 
   6.520000000    -0.1651250    0.3180135    -0.8529180   -0.3875940    -0.8488763   -0.3927953    -0.1138394    0.3412617 
   6.522500000    -0.1650765    0.3165540    -0.8540123   -0.3860133    -0.8495890   -0.3916738    -0.1127973    0.3390023 
   6.525000000    -0.1648773    0.3150481    -0.8548567   -0.3842958    -0.8509187   -0.3901569    -0.1118670    0.3363995 
   6.527500000    -0.1648050    0.3135169    -0.8558261   -0.3814126    -0.8516043   -0.3886984    -0.1108997    0.3334637 
   6.530000000    -0.1645568    0.3123813    -0.8565174   -0.3803433    -0.8529315   -0.3873391    -0.1098607    0.3310340 
   6.532500000    -0.1641910    0.3110155    -0.8583542   -0.3795144    -0.8539695   -0.3860123    -0.1086255    0.3288077 
   6.535000000    -0.1636833    0.3095896    -0.8603843   -0.3777007    -0.8555641   -0.3846005    -0.1075661    0.3267915 
   6.537500000    -0.1631633    0.3079687    -0.8608007   -0.3762618    -0.8569877   -0.3831012    -0.1064305    0.3246169 
   6.540000000    -0.1622131    0.3066456    -0.8616749   -0.3743618    -0.8585441   -0.3814591    -0.1052853    0.3227534 
   6.542500000    -0.1615727    0.3049155    -0.8623058   -0.3720919    -0.8598440   -0.3796487    -0.1040878    0.3209139 
   6.545000000    -0.1606511    0.3032112    -0.8634759   -0.3702343    -0.8615419   -0.3778499    -0.1028095    0.3190467 
   6.547500000    -0.1596580    0.3015924    -0.8648887   -0.3691021    -0.8628597   -0.3761320    -0.1014807    0.3174894 
   6.550000000    -0.1585297    0.2999374    -0.8669066   -0.3674037    -0.8644880   -0.3739381    -0.1002528    0.3158723 
   6.552500000    -0.1573980    0.2983931    -0.8680785   -0.3652182    -0.8657095   -0.3722493    -0.0987475    0.3142062 
   6.555000000    -0.1561385    0.2966334    -0.8682398   -0.3626656    -0.8676673   -0.3698239    -0.0975123    0.3132282 
   6.557500000    -0.1551341    0.2946993    -0.8688827   -0.3610892    -0.8685009   -0.3675866    -0.0962153    0.3124115 
   6.560000000    -0.1540407    0.2933456    -0.8699569   -0.3595080    -0.8704267   -0.3658183    -0.0947838    0.3116676 
   6.562500000    -0.1530585    0.2913900    -0.8714728   -0.3575836    -0.8718873   -0.3639746    -0.0931199    0.3102488 
   6.565000000    -0.1516834    0.2896505    -0.8728999   -0.3559936    -0.8732813   -0.3621070    -0.0919738    0.3093379 
   6.567500000    -0.1502437    0.2886027    -0.8738248   -0.3531103    -0.8745147   -0.3599159    -0.0903575    0.3089783 
   6.570000000    -0.1492118    0.2868879    -0.8748155   -0.3513096    -0.8755410   -0.3572903    -0.0893222    0.3080270 
   6.572500000    -0.1486745    0.2846597    -0.8749272   -0.3494305    -0.8760797   -0.3549642    -0.0878410    0.3065567 
   6.575000000    -0.1477329    0.2823560    -0.8754895   -0.3481653    -0.8770772   -0.3533120    -0.0871761    0.3051297 
   6.577500000    -0.1462271    0.2808960    -0.8769969   -0.3460105    -0.8782189   -0.3516743    -0.0858395    0.3037762 
   6.580000000    -0.1450928    0.2792733    -0.8784754   -0.3442543    -0.8795176   -0.3492912    -0.0847844    0.3031212 
   6.582500000    -0.1443187    0.2773584    -0.8786489   -0.3409622    -0.8798496   -0.3469897    -0.0838437    0.3025330 
   6.585000000    -0.1426987    0.2751257    -0.8797510   -0.3395658    -0.8804840   -0.3441882    -0.0824635    0.3019410 
   6.587500000    -0.1414965    0.2729163    -0.8806654   -0.3379383    -0.8812601   -0.3424150    -0.0817960    0.3011991 
   6.590000000    -0.1405039    0.2711000    -0.8810782   -0.3360364    -0.8815086   -0.3404613    -0.0801769    0.2997425 
   6.592500000    -0.1396658    0.2691649    -0.8828151   -0.3347188    -0.8822700   -0.3388047    -0.0793625    0.2982825 
   6.595000000    -0.1388655    0.2674159    -0.8836126   -0.3330129    -0.8834430   -0.3370465    -0.0780862    0.2980654 
   6.597500000    -0.1380323    0.2651255    -0.8839011   -0.3302938    -0.8838792   -0.3349807    -0.0774193    0.2973863 
   6.600000000    -0.1371229    0.2630485    -0.8846200   -0.3286298    -0.8846211   -0.3322733    -0.0766270    0.2964135 
   6.602500000    -0.1362942    0.2608975    -0.8857186   -0.3273324    -0.8850754   -0.3302844    -0.0757075    0.2953188 
   6.605000000    -0.1351719    0.2587346    -0.8868912   -0.3257573    -0.8857068   -0.3284834    -0.0751515    0.2938341 
   6.607500000    -0.1343581    0.2566618    -0.8878690   -0.3238425    -0.8867675   -0.3270845    -0.0740665    0.2920356 
   6.610000000    -0.1336676    0.2544798    -0.8881655   -0.3222729    -0.8879274   -0.3246621    -0.0733590    0.2905909 
   6.612500000    -0.1329819    0.2527722    -0.8887537   -0.3198277    -0.8878602   -0.3238118    -0.0728212    0.2887916 
   6.615000000    -0.1322995    0.2508291    -0.8893417   -0.3186070    -0.8889188   -0.3217091    -0.0719701    0.2873773 
   6.617500000    -0.1317989    0.2487547    -0.8902646   -0.3168555    -0.8898027   -0.3193854    -0.0713244    0.2860058 
   6.620000000    -0.1310658    0.2465356    -0.8925200   -0.3150175    -0.8903389   -0.3181508    -0.0708526    0.2839537 
   6.622500000    -0.1304157    0.2443546    -0.8926541   -0.3137446    -0.8915085   -0.3161840    -0.0702146    0.2820341 
   6.625000000    -0.1296702    0.2423972    -0.8934457   -0.3114529    -0.8926719   -0.3150144    -0.0693168    0.2797501 
   6.627500000    -0.1289958    0.2402978    -0.8935543   -0.3101812    -0.8930168   -0.3134714    -0.0689769    0.2774031 
   6.630000000    -0.1283766    0.2381067    -0.8947054   -0.3082076    -0.8941914   -0.3114968    -0.0685289    0.2749302 
   6.632500000    -0.1276252    0.2360065    -0.8958060   -0.3070816    -0.8946671   -0.3097446    -0.0679643    0.2722856 
   6.635000000    -0.1270381    0.2344604    -0.8969815   -0.3050357    -0.8958747   -0.3079575    -0.0674559    0.2694540 
   6.637500000    -0.1262753    0.2326344    -0.8979335   -0.3040863    -0.8967406   -0.3062705    -0.0661416    0.2666592 
   6.640000000    -0.1253988    0.2308180    -0.8985452   -0.3019604    -0.8973612   -0.3046127    -0.0655022    0.2640003 
   6.642500000    -0.1246577    0.2290582    -0.8990102   -0.2999613    -0.8984514   -0.3030269    -0.0648799    0.2610731 
   6.645000000    -0.1238506    0.2272220    -0.9006355   -0.2984561    -0.8990123   -0.3006055    -0.0637920    0.2580124 
   6.647500000    -0.1229425    0.2254738    -0.9018518   -0.2963504    -0.9001674   -0.2988878    -0.0626412    0.2549431 
   6.650000000    -0.1215442    0.2237382    -0.9023409   -0.2954226    -0.9011788   -0.2976005    -0.0617211    0.2519862 
   6.652500000    -0.1206439    0.2221147    -0.9035790   -0.2927866    -0.9021344   -0.2952936    -0.0607293    0.2488728 
   6.655000000    -0.1195804    0.2203705    -0.9037507   -0.2916636    -0.9028168   -0.2934842    -0.0597994    0.2459281 
   6.657500000    -0.1180459    0.2188877    -0.9046234   -0.2897480    -0.9036875   -0.2918877    -0.0589693    0.2429605 
   6.660000000    -0.1168728    0.2176138    -0.9058046   -0.2884250    -0.9043995   -0.2896690    -0.0579426    0.2399084 
   6.662500000    -0.1155546    0.2160682    -0.9072399   -0.2865267    -0.9051518   -0.2884076    -0.0567164    0.2369620 
   6.665000000    -0.1141161    0.2147306    -0.9078221   -0.2850513    -0.9059695   -0.2868719    -0.0555357    0.2339722 
   6.667500000    -0.1126011    0.2134537    -0.9082450   -0.2837612    -0.9069951   -0.2849981    -0.0543987    0.2308669 
   6.670000000    -0.1111854    0.2121999    -0.9086817   -0.2815654    -0.9076130   -0.2838625    -0.0528844    0.2280756 
   6.672500000    -0.1093113    0.2113578    -0.9095346   -0.2804745    -0.9085361   -0.2816437    -0.0513685    0.2254695 
   6.675000000    -0.1078031    0.2103920    -0.9112226   -0.2786253    -0.9093277   -0.2799093    -0.0501274    0.2229594 
   6.677500000    -0.1062890    0.2094471    -0.9122111   -0.2770016    -0.9101726   -0.2784460    -0.0488478    0.2206659 
   6.680000000    -0.1045437    0.2084546    -0.9131958   -0.2755153    -0.9114013   -0.2773657    -0.0473976    0.2188051 
   6.682500000    -0.1030289    0.2077170    -0.9140706   -0.2738754    -0.9121952   -0.2753130    -0.0460904    0.2166189 
   6.685000000    -0.1012744    0.2070032    -0.9143921   -0.2722192    -0.9132451   -0.2739504    -0.0446662    0.2148608 
   6.687500000    -0.0997429    0.2063137    -0.9164613   -0.2707124    -0.9141153   -0.2722132    -0.0432258    0.2131203 
   6.690000000    -0.0978071    0.2058065    -0.9181426   -0.2686305    -0.9151834   -0.2699921    -0.0417585    0.2113342 
   6.692500000    -0.0960013    0.2052973    -0.9186884   -0.2673078    -0.9160141   -0.2688511    -0.0406505    0.2096602 
   6.695000000    -0.0943414    0.2047610    -0.9194266   -0.2657506    -0.9168205   -0.2675152    -0.0393569    0.2081523 
   6.697500000    -0.0926386    0.2042691    -0.9200619   -0.2636021    -0.9185049   -0.2658059    -0.0380858    0.2068066 
   6.700000000    -0.0909159    0.2038134    -0.9212784   -0.2616528    -0.9195675   -0.2642607    -0.0365476    0.2061875 
   6.702500000    -0.0893946    0.2037572    -0.9227798   -0.2605675    -0.9204821   -0.2619175    -0.0353617    0.2053574 
   6.705000000    -0.0878481    0.2037120    -0.9248274   -0.2588196    -0.9214785   -0.2600490    -0.0343703    0.2044820 
   6.707500000    -0.0861827    0.2032849    -0.9256492   -0.2572174    -0.9227838   -0.2582809    -0.0333364    0.2036679 
   6.710000000    -0.0845517    0.2027428    -0.9265592   -0.2547942    -0.9244013   -0.2569276    -0.0318540    0.2024996 
   6.712500000    -0.0830926    0.2024794    -0.9278054   -0.2529830    -0.9256873   -0.2547735    -0.0307757    0.2019064 
   6.715000000    -0.0817946    0.2018269    -0.9296054   -0.2511624    -0.9263301   -0.2528156    -0.0295845    0.2018840 
   6.717500000    -0.0805746    0.2017015    -0.9304472   -0.2484142    -0.9285065   -0.2507253    -0.0285227    0.2008650 
   6.720000000    -0.0793715    0.2008669    -0.9313232   -0.2468529    -0.9289948   -0.2485628    -0.0274583    0.2004428 
   6.722500000    -0.0781697    0.2000432    -0.9330857   -0.2444606    -0.9297604   -0.2467156    -0.0267708    0.2000281 
   6.725000000    -0.0769978    0.1989809    -0.9331273   -0.2421779    -0.9312244   -0.2446948    -0.0260442    0.1997831 
   6.727500000    -0.0760130    0.1979919    -0.9340169   -0.2399929    -0.9324605   -0.2423340    -0.0253826    0.1993532 
   6.730000000    -0.0748612    0.1969912    -0.9352391   -0.2384783    -0.9331610   -0.2407231    -0.0248420    0.1987473 
   6.732500000    -0.0740364    0.1959996    -0.9364916   -0.2357431    -0.9340282   -0.2383438    -0.0242388    0.1979004 
   6.735000000    -0.0732052    0.1947440    -0.9372624   -0.2341654    -0.9346094   -0.2363430    -0.0237518    0.1969791 
   6.737500000    -0.0724674    0.1931862    -0.9380710   -0.2314036    -0.9350540   -0.2342504    -0.0233101    0.1958942 
   6.740000000    -0.0719679    0.1917036    -0.9392665   -0.2292850    -0.9362808   -0.2317851    -0.0222106    0.1946076 
   6.742500000    -0.0714418    0.1900212    -0.9399655   -0.2272379    -0.9370108   -0.2298799    -0.0215856    0.1935939 
   6.745000000    -0.0709501    0.1881501    -0.9416801   -0.2247889    -0.9378497   -0.2271267    -0.0214045    0.1928681 
   6.747500000    -0.0706271    0.1861279    -0.9421126   -0.2233773    -0.9382548   -0.2250413    -0.0211886    0.1916250 
   6.750000000    -0.0695326    0.1843075    -0.9429698   -0.2207332    -0.9389605   -0.2233178    -0.0208285    0.1897396 
   6.752500000    -0.0693472    0.1823972    -0.9428911   -0.2189291    -0.9393461   -0.2214354    -0.0198770    0.1878572 
   6.755000000    -0.0688169    0.1800529    -0.9436287   -0.2166543    -0.9403008   -0.2191347    -0.0195458    0.1856251 
   6.757500000    -0.0683350    0.1777350    -0.9451970   -0.2154578    -0.9406942   -0.2170542    -0.0190406    0.1834964 
   6.760000000    -0.0679951    0.1751944    -0.9457231   -0.2131096    -0.9409559   -0.2151999    -0.0181203    0.1808680 
   6.762500000    -0.0672176    0.1728203    -0.9461360   -0.2117346    -0.9415063   -0.2127237    -0.0177113    0.1783914 
   6.765000000    -0.0665738    0.1702750    -0.9463880   -0.2094700    -0.9420099   -0.2115639    -0.0174275    0.1759597 
   6.767500000    -0.0659409    0.1677692    -0.9465270   -0.2071359    -0.9424195   -0.2104748    -0.0170567    0.1733911 
   6.770000000    -0.0655725    0.1650561    -0.9468008   -0.2059150    -0.9430871   -0.2085728    -0.0167005    0.1704930 
   6.772500000    -0.0645338    0.1619901    -0.9480279   -0.2041376    -0.9440518   -0.2068301    -0.0165655    0.1674106 
   6.775000000    -0.0638758    0.1592502    -0.9492130   -0.2026403    -0.9439117   -0.2044796    -0.0160275    0.1644559 
   6.777500000    -0.0631549    0.1563307    -0.9492115   -0.2011874    -0.9443719   -0.2036264    -0.0154404    0.1612804 
   6.780000000    -0.0624838    0.1536095    -0.9497025   -0.1983493    -0.9451458   -0.2022812    -0.0151612    0.1581050 
   6.782500000    -0.0616984    0.1507515    -0.9498913   -0.1970974    -0.9458226   -0.2013461    -0.0144063    0.1545588 
   6.785000000    -0.0611696    0.1478198    -0.9508213   -0.1953498    -0.9467282   -0.2005988    -0.0139796    0.1510083 
   6.787500000    -0.0608498    0.1450601    -0.9521695   -0.1942424    -0.9482014   -0.1993081    -0.0136411    0.1473600 
   6.790000000    -0.0604954    0.1423592    -0.9540604   -0.1926900    -0.9491301   -0.1976087    -0.0130775    0.1437001 
   6.792500000    -0.0595932    0.1395363    -0.9549234   -0.1913524    -0.9501254   -0.1957602    -0.0125040    0.1403247 
   6.795000000    -0.0590564    0.1371349    -0.9555414   -0.1888299    -0.9508559   -0.1946872    -0.0118451    0.1371834 
   6.797500000    -0.0585320    0.1345918    -0.9565735   -0.1868782    -0.9519178   -0.1936398    -0.0113657    0.1339002 
   6.800000000    -0.0579090    0.1325562    -0.9575276   -0.1857593    -0.9538260   -0.1921614    -0.0108757    0.1303494 
   6.802500000    -0.0571979    0.1307148    -0.9596892   -0.1835627    -0.9554312   -0.1907447    -0.0106348    0.1274215 
   6.805000000    -0.0562055    0.1286433    -0.9608108   -0.1825851    -0.9570156   -0.1892208    -0.0101809    0.1243566 
   6.807500000    -0.0549865    0.1266750    -0.9623853   -0.1800152    -0.9581466   -0.1865196    -0.0092497    0.1220291 
   6.810000000    -0.0544653    0.1251297    -0.9632719   -0.1778089    -0.9596791   -0.1845011    -0.0084514    0.1194073 
   6.812500000    -0.0541887    0.1237822    -0.9644855   -0.1760810    -0.9614594   -0.1823205    -0.0077754    0.1171036 
   6.815000000    -0.0535800    0.1228348    -0.9661781   -0.1739472    -0.9634090   -0.1803479    -0.0071775    0.1149368 
   6.817500000    -0.0520658    0.1216877    -0.9676345   -0.1721139    -0.9652075   -0.1779430    -0.0062644    0.1130871 
   6.820000000    -0.0501645    0.1204053    -0.9689675   -0.1693499    -0.9668171   -0.1745602    -0.0052320    0.1113162 
   6.822500000    -0.0492207    0.1196092    -0.9698567   -0.1665496    -0.9683031   -0.1720563    -0.0041688    0.1093466 
   6.825000000    -0.0487341    0.1187734    -0.9709820   -0.1635799    -0.9698149   -0.1695202    -0.0030538    0.1079392 
   6.827500000    -0.0480372    0.1180018    -0.9726413   -0.1616467    -0.9708741   -0.1667304    -0.0019793    0.1065623 
   6.830000000    -0.0466023    0.1172141    -0.9735089   -0.1587503    -0.9728171   -0.1635357    -0.0009116    0.1051443 
   6.832500000    -0.0446417    0.1162092    -0.9746757   -0.1562873    -0.9735556   -0.1613342    -0.0001476    0.1038058 
   6.835000000    -0.0430584    0.1153674    -0.9753069   -0.1533879    -0.9746027   -0.1572879     0.0008417    0.1024851 
   6.837500000    -0.0419747    0.1143764    -0.9759519   -0.1494156    -0.9756919   -0.1539086     0.0018894    0.1011975 
   6.840000000    -0.0409544    0.1133186    -0.9764439   -0.1467674    -0.9762341   -0.1509407     0.0027431    0.0999574 
   6.842500000    -0.0400557    0.1123802    -0.9776185   -0.1437771    -0.9766377   -0.1476072     0.0034878    0.0989201 
   6.845000000    -0.0386662    0.1110234    -0.9784390   -0.1403359    -0.9774841   -0.1439863     0.0042770    0.0979767 
   6.847500000    -0.0378755    0.1097274    -0.9780993   -0.1381430    -0.9775895   -0.1410722     0.0046865    0.0973140 
   6.850000000    -0.0373229    0.1082979    -0.9782620   -0.1354715    -0.9774107   -0.1375896     0.0050495    0.0965511 
   6.852500000    -0.0369862    0.1070594    -0.9781024   -0.1322102    -0.9772604   -0.1352743     0.0054098    0.0955900 
   6.855000000    -0.0366024    0.1057884    -0.9785358   -0.1291789    -0.9769368   -0.1324720     0.0058577    0.0948203 
   6.857500000    -0.0363193    0.1042480    -0.9788486   -0.1267671    -0.9769582   -0.1298904     0.0061286    0.0939538 
   6.860000000    -0.0356467    0.1027758    -0.9797548   -0.1245117    -0.9772768   -0.1271952     0.0065619    0.0932751 
   6.862500000    -0.0353789    0.1011072    -0.9798328   -0.1214357    -0.9770027   -0.1242307     0.0066674    0.0921499 
   6.865000000    -0.0353027    0.0994347    -0.9789871   -0.1187098    -0.9767982   -0.1216119     0.0063654    0.0912595 
   6.867500000    -0.0351910    0.0978610    -0.9787477   -0.1169239    -0.9759514   -0.1190371     0.0060292    0.0907321 
   6.870000000    -0.0347314    0.0961702    -0.9791934   -0.1142764    -0.9754117   -0.1169780     0.0058757    0.0898438 
   6.872500000    -0.0346409    0.0939976    -0.9794418   -0.1111121    -0.9756100   -0.1137516     0.0057347    0.0887877 
   6.875000000    -0.0343586    0.0921641    -0.9791628   -0.1099387    -0.9751161   -0.1120633     0.0054957    0.0880353 
   6.877500000    -0.0341530    0.0898597    -0.9792715   -0.1072311    -0.9753054   -0.1102155     0.0054337    0.0870500 
   6.880000000    -0.0336835    0.0877030    -0.9792368   -0.1053508    -0.9751022   -0.1076373     0.0051664    0.0860403 
   6.882500000    -0.0338232    0.0853540    -0.9789357   -0.1036438    -0.9751550   -0.1060052     0.0047434    0.0849154 
   6.885000000    -0.0336240    0.0828244    -0.9791439   -0.1017741    -0.9750686   -0.1040795     0.0047567    0.0835907 
   6.887500000    -0.0330676    0.0801993    -0.9795852   -0.0992782    -0.9752280   -0.1024013     0.0044802    0.0821650 
   6.890000000    -0.0316484    0.0776067    -0.9796577   -0.0971043    -0.9754031   -0.1004951     0.0039912    0.0806561 
