! MS46122B
! 1919307/90821646
! 6/13/2022 11:48:38 AM
! C:\USERS\PC_\DESKTOP\CARACTERIZACION\MEDICIONES\BANCHA ESTRECHA\55_6GHZ\S11_S21_ABS65_502CL.S2P
! CHANNEL.1
! TR.MEASUREMENT
! CORRECTED.DATA
# GHZ S RI R 50.0
! FREQ.GHZ         S11RE         S11IM         S21RE         S21IM         S12RE         S12IM         S22RE         S22IM         
!; PortSelection: Port_12
   5.500000000    -0.7623819   -0.0486684    -0.0109980   -0.6606258    -0.0031986   -0.6586761    -0.6814542   -0.1092634 
   5.502500000    -0.7607002   -0.0470163    -0.0107912   -0.6611748    -0.0020364   -0.6565197    -0.6834322   -0.1084454 
   5.505000000    -0.7622721   -0.0449600    -0.0087021   -0.6601133     0.0000240   -0.6544355    -0.6851658   -0.1078735 
   5.507500000    -0.7633788   -0.0438367    -0.0067790   -0.6585262     0.0015932   -0.6529297    -0.6872919   -0.1063686 
   5.510000000    -0.7640148   -0.0417875    -0.0049188   -0.6573056     0.0035489   -0.6513240    -0.6893682   -0.1057402 
   5.512500000    -0.7650335   -0.0404333    -0.0031257   -0.6563068     0.0053828   -0.6498573    -0.6914908   -0.1047060 
   5.515000000    -0.7659268   -0.0392580    -0.0008633   -0.6552818     0.0068912   -0.6484680    -0.6943659   -0.1028642 
   5.517500000    -0.7670470   -0.0378209    -0.0005900   -0.6543745     0.0083688   -0.6474059    -0.6973429   -0.1009224 
   5.520000000    -0.7677959   -0.0359000     0.0016744   -0.6532944     0.0100140   -0.6467585    -0.6999806   -0.0997909 
   5.522500000    -0.7680899   -0.0346294     0.0033184   -0.6527402     0.0123026   -0.6463861    -0.7021931   -0.0976187 
   5.525000000    -0.7685978   -0.0324481     0.0049364   -0.6520866     0.0141317   -0.6454722    -0.7046121   -0.0957130 
   5.527500000    -0.7686897   -0.0310888     0.0068806   -0.6515366     0.0162808   -0.6452356    -0.7071550   -0.0934707 
   5.530000000    -0.7686940   -0.0296504     0.0085916   -0.6508797     0.0176401   -0.6449223    -0.7096403   -0.0913320 
   5.532500000    -0.7694522   -0.0280401     0.0094436   -0.6507435     0.0192177   -0.6443326    -0.7117280   -0.0890899 
   5.535000000    -0.7693594   -0.0266116     0.0112213   -0.6502660     0.0212069   -0.6440089    -0.7138743   -0.0871443 
   5.537500000    -0.7694755   -0.0250035     0.0133392   -0.6497725     0.0230918   -0.6435765    -0.7159618   -0.0845032 
   5.540000000    -0.7695611   -0.0233027     0.0147726   -0.6497717     0.0256509   -0.6432865    -0.7180948   -0.0828058 
   5.542500000    -0.7695460   -0.0220221     0.0166837   -0.6494367     0.0274603   -0.6430014    -0.7198070   -0.0800219 
   5.545000000    -0.7687547   -0.0210881     0.0181477   -0.6494075     0.0293479   -0.6433405    -0.7215483   -0.0781750 
   5.547500000    -0.7680797   -0.0198660     0.0188892   -0.6490265     0.0311571   -0.6431153    -0.7229152   -0.0757837 
   5.550000000    -0.7672702   -0.0183692     0.0205827   -0.6489360     0.0325735   -0.6426886    -0.7237462   -0.0736596 
   5.552500000    -0.7671258   -0.0177514     0.0219823   -0.6488063     0.0342622   -0.6427501    -0.7245531   -0.0706409 
   5.555000000    -0.7677276   -0.0166478     0.0237778   -0.6483542     0.0361793   -0.6426710    -0.7249369   -0.0687017 
   5.557500000    -0.7676665   -0.0157189     0.0252179   -0.6480565     0.0378126   -0.6427203    -0.7255205   -0.0665163 
   5.560000000    -0.7657162   -0.0144459     0.0258808   -0.6477945     0.0394706   -0.6428342    -0.7257580   -0.0639846 
   5.562500000    -0.7636878   -0.0129949     0.0269296   -0.6474814     0.0407800   -0.6427911    -0.7267143   -0.0615843 
   5.565000000    -0.7635553   -0.0116471     0.0280089   -0.6478822     0.0421328   -0.6427583    -0.7271127   -0.0592593 
   5.567500000    -0.7638313   -0.0118354     0.0290920   -0.6476007     0.0435229   -0.6426298    -0.7270757   -0.0570120 
   5.570000000    -0.7625940   -0.0120525     0.0301821   -0.6467611     0.0449534   -0.6426833    -0.7267616   -0.0543332 
   5.572500000    -0.7618993   -0.0106260     0.0314559   -0.6472903     0.0460545   -0.6427574    -0.7269095   -0.0523833 
   5.575000000    -0.7613788   -0.0089863     0.0321272   -0.6464650     0.0473790   -0.6424350    -0.7263278   -0.0505612 
   5.577500000    -0.7606543   -0.0074043     0.0333404   -0.6470268     0.0480553   -0.6430753    -0.7261763   -0.0484233 
   5.580000000    -0.7600889   -0.0065627     0.0341962   -0.6472908     0.0487784   -0.6428901    -0.7259217   -0.0461581 
   5.582500000    -0.7591546   -0.0051002     0.0350875   -0.6463280     0.0499217   -0.6432335    -0.7251664   -0.0442206 
   5.585000000    -0.7585005   -0.0041703     0.0362088   -0.6465030     0.0511211   -0.6432467    -0.7247576   -0.0423304 
   5.587500000    -0.7576189   -0.0019981     0.0369571   -0.6463441     0.0523706   -0.6434457    -0.7237959   -0.0411921 
   5.590000000    -0.7568642   -0.0005081     0.0388481   -0.6460766     0.0533566   -0.6435900    -0.7232835   -0.0385146 
   5.592500000    -0.7559836    0.0012461     0.0398763   -0.6459341     0.0547937   -0.6431308    -0.7216651   -0.0367040 
   5.595000000    -0.7547107    0.0029999     0.0417044   -0.6452351     0.0564981   -0.6427295    -0.7207528   -0.0343276 
   5.597500000    -0.7538674    0.0056804     0.0435395   -0.6446987     0.0575700   -0.6423885    -0.7196065   -0.0326207 
   5.600000000    -0.7528315    0.0080161     0.0451920   -0.6438742     0.0600275   -0.6419765    -0.7180634   -0.0308655 
   5.602500000    -0.7509655    0.0103556     0.0472611   -0.6429815     0.0621020   -0.6410301    -0.7161556   -0.0282540 
   5.605000000    -0.7481798    0.0121502     0.0508859   -0.6423624     0.0649503   -0.6404353    -0.7139484   -0.0259095 
   5.607500000    -0.7447737    0.0131933     0.0540114   -0.6425971     0.0679308   -0.6409206    -0.7122537   -0.0245013 
   5.610000000    -0.7431975    0.0129443     0.0568645   -0.6441599     0.0708360   -0.6423655    -0.7098676   -0.0242462 
   5.612500000    -0.7429845    0.0128231     0.0588312   -0.6457211     0.0726633   -0.6439366    -0.7088827   -0.0234591 
   5.615000000    -0.7434525    0.0134372     0.0588793   -0.6473132     0.0733727   -0.6454139    -0.7085035   -0.0231257 
   5.617500000    -0.7436313    0.0154795     0.0601860   -0.6477172     0.0743803   -0.6457782    -0.7077378   -0.0220517 
   5.620000000    -0.7432368    0.0175274     0.0611536   -0.6480052     0.0748752   -0.6460279    -0.7069539   -0.0196142 
   5.622500000    -0.7431984    0.0199813     0.0622550   -0.6484227     0.0775230   -0.6456768    -0.7063807   -0.0177138 
   5.625000000    -0.7425945    0.0221845     0.0647825   -0.6485653     0.0767483   -0.6465287    -0.7054023   -0.0153849 
   5.627500000    -0.7419397    0.0246158     0.0665550   -0.6489772     0.0792840   -0.6467344    -0.7053072   -0.0137578 
   5.630000000    -0.7419163    0.0269881     0.0672415   -0.6502542     0.0809470   -0.6477029    -0.7048157   -0.0118458 
   5.632500000    -0.7416193    0.0297379     0.0688207   -0.6511288     0.0825693   -0.6481863    -0.7043154   -0.0092583 
   5.635000000    -0.7409799    0.0325710     0.0710538   -0.6517343     0.0839932   -0.6487268    -0.7046380   -0.0065313 
   5.637500000    -0.7407028    0.0359007     0.0724560   -0.6528961     0.0853938   -0.6497958    -0.7049441   -0.0044159 
   5.640000000    -0.7407146    0.0388031     0.0749665   -0.6541291     0.0873716   -0.6506114    -0.7051710   -0.0022094 
   5.642500000    -0.7403244    0.0411871     0.0766444   -0.6550832     0.0892906   -0.6515756    -0.7052853   -0.0001824 
   5.645000000    -0.7396845    0.0439853     0.0782749   -0.6564923     0.0909467   -0.6534279    -0.7065784    0.0022776 
   5.647500000    -0.7393224    0.0466592     0.0804675   -0.6579560     0.0929699   -0.6545633    -0.7066778    0.0048876 
   5.650000000    -0.7391085    0.0497737     0.0821144   -0.6590905     0.0944390   -0.6558986    -0.7067141    0.0076063 
   5.652500000    -0.7382877    0.0531544     0.0843756   -0.6606078     0.0964293   -0.6578559    -0.7074823    0.0101049 
   5.655000000    -0.7377064    0.0552713     0.0867060   -0.6622109     0.0985540   -0.6595017    -0.7087799    0.0121702 
   5.657500000    -0.7370991    0.0574318     0.0877321   -0.6641629     0.1009363   -0.6609862    -0.7098181    0.0140620 
   5.660000000    -0.7360631    0.0590703     0.0897700   -0.6657371     0.1026055   -0.6634765    -0.7109697    0.0165559 
   5.662500000    -0.7352506    0.0613926     0.0918782   -0.6671100     0.1042616   -0.6652747    -0.7120486    0.0184007 
   5.665000000    -0.7343702    0.0634536     0.0934402   -0.6688628     0.1059640   -0.6670157    -0.7132614    0.0202972 
   5.667500000    -0.7328278    0.0648195     0.0943769   -0.6712374     0.1085709   -0.6690712    -0.7144926    0.0222218 
   5.670000000    -0.7318273    0.0666319     0.0967200   -0.6732565     0.1099510   -0.6710511    -0.7154619    0.0235415 
   5.672500000    -0.7306370    0.0682698     0.0968951   -0.6758848     0.1121790   -0.6730186    -0.7161369    0.0255604 
   5.675000000    -0.7288475    0.0695394     0.0988041   -0.6783866     0.1125201   -0.6759375    -0.7171580    0.0274085 
   5.677500000    -0.7275001    0.0711294     0.0997093   -0.6803571     0.1140353   -0.6781403    -0.7180841    0.0293180 
   5.680000000    -0.7259450    0.0725200     0.1008106   -0.6829430     0.1145802   -0.6808018    -0.7187236    0.0305217 
   5.682500000    -0.7243148    0.0739479     0.1014660   -0.6858063     0.1148907   -0.6835082    -0.7191823    0.0322540 
   5.685000000    -0.7220041    0.0757667     0.1018732   -0.6883638     0.1162647   -0.6862178    -0.7197766    0.0328830 
   5.687500000    -0.7201281    0.0773023     0.1019386   -0.6913908     0.1168655   -0.6893768    -0.7203667    0.0341340 
   5.690000000    -0.7181095    0.0780057     0.1025159   -0.6944146     0.1169177   -0.6921076    -0.7193624    0.0357054 
   5.692500000    -0.7158789    0.0792414     0.1036772   -0.6970757     0.1168989   -0.6950062    -0.7191831    0.0368477 
   5.695000000    -0.7137405    0.0798486     0.1041444   -0.7002311     0.1171122   -0.6980269    -0.7188472    0.0373316 
   5.697500000    -0.7118388    0.0804504     0.1045905   -0.7028109     0.1170885   -0.7011801    -0.7182427    0.0375929 
   5.700000000    -0.7095489    0.0805467     0.1047491   -0.7058223     0.1169985   -0.7042914    -0.7171117    0.0383089 
   5.702500000    -0.7068963    0.0805842     0.1043561   -0.7086132     0.1171199   -0.7076011    -0.7159162    0.0393037 
   5.705000000    -0.7043459    0.0810453     0.1043148   -0.7118924     0.1165112   -0.7109518    -0.7145280    0.0401725 
   5.707500000    -0.7013126    0.0812004     0.1041116   -0.7142732     0.1161616   -0.7139206    -0.7122562    0.0410146 
   5.710000000    -0.6986005    0.0812726     0.1046191   -0.7164131     0.1154871   -0.7164574    -0.7096230    0.0413526 
   5.712500000    -0.6957899    0.0813377     0.1042469   -0.7186109     0.1155038   -0.7190120    -0.7072337    0.0425829 
   5.715000000    -0.6933500    0.0817891     0.1036817   -0.7210132     0.1146108   -0.7214630    -0.7046549    0.0431369 
   5.717500000    -0.6901977    0.0823559     0.1023636   -0.7231938     0.1140353   -0.7241253    -0.7022185    0.0442751 
   5.720000000    -0.6870155    0.0817166     0.1019532   -0.7251983     0.1150022   -0.7264095    -0.6991275    0.0448468 
   5.722500000    -0.6837068    0.0823792     0.1022288   -0.7269746     0.1124260   -0.7282425    -0.6966773    0.0461150 
   5.725000000    -0.6805122    0.0818996     0.1008604   -0.7285681     0.1121878   -0.7299613    -0.6931868    0.0464269 
   5.727500000    -0.6770839    0.0819906     0.1002809   -0.7304765     0.1110937   -0.7315982    -0.6894775    0.0474423 
   5.730000000    -0.6743997    0.0825174     0.0988781   -0.7327014     0.1104350   -0.7333124    -0.6862901    0.0482694 
   5.732500000    -0.6712220    0.0827316     0.0977237   -0.7341256     0.1095807   -0.7348418    -0.6824788    0.0490830 
   5.735000000    -0.6683348    0.0831368     0.0968827   -0.7362839     0.1079085   -0.7368912    -0.6788156    0.0499779 
   5.737500000    -0.6653993    0.0832668     0.0961798   -0.7379028     0.1073710   -0.7386031    -0.6746392    0.0505581 
   5.740000000    -0.6626779    0.0838188     0.0955516   -0.7401371     0.1063793   -0.7402840    -0.6703458    0.0515118 
   5.742500000    -0.6599575    0.0842103     0.0950646   -0.7421625     0.1054891   -0.7418826    -0.6664037    0.0525182 
   5.745000000    -0.6575273    0.0847720     0.0947207   -0.7439271     0.1039874   -0.7434685    -0.6618697    0.0534487 
   5.747500000    -0.6551037    0.0854975     0.0934692   -0.7454380     0.1029836   -0.7451425    -0.6583812    0.0545465 
   5.750000000    -0.6526041    0.0862059     0.0933965   -0.7473447     0.1026370   -0.7467488    -0.6541577    0.0561960 
   5.752500000    -0.6501622    0.0870783     0.0927831   -0.7496163     0.1012776   -0.7484497    -0.6504616    0.0573070 
   5.755000000    -0.6479942    0.0878335     0.0926685   -0.7513620     0.1007198   -0.7499742    -0.6464484    0.0580637 
   5.757500000    -0.6455815    0.0881343     0.0920529   -0.7530965     0.1010842   -0.7514465    -0.6429009    0.0588996 
   5.760000000    -0.6433306    0.0889534     0.0919489   -0.7542662     0.1007670   -0.7537271    -0.6394325    0.0604539 
   5.762500000    -0.6413200    0.0899049     0.0920903   -0.7561984     0.1007079   -0.7556795    -0.6367927    0.0615190 
   5.765000000    -0.6393237    0.0910723     0.0917026   -0.7582676     0.1006242   -0.7572059    -0.6336622    0.0621412 
   5.767500000    -0.6371815    0.0918921     0.0910542   -0.7602670     0.1008363   -0.7587083    -0.6306681    0.0628027 
   5.770000000    -0.6355547    0.0925218     0.0905718   -0.7615014     0.1007845   -0.7609354    -0.6282617    0.0634222 
   5.772500000    -0.6337735    0.0938739     0.0900248   -0.7639291     0.1011197   -0.7620149    -0.6259022    0.0641026 
   5.775000000    -0.6315207    0.0949709     0.0888179   -0.7653434     0.1002608   -0.7642958    -0.6235656    0.0654751 
   5.777500000    -0.6299693    0.0963428     0.0890756   -0.7666613     0.0995721   -0.7664164    -0.6216951    0.0663274 
   5.780000000    -0.6282698    0.0975650     0.0872538   -0.7697492     0.0984891   -0.7685781    -0.6202933    0.0670830 
   5.782500000    -0.6272298    0.0984363     0.0866644   -0.7716424     0.0976005   -0.7703674    -0.6196184    0.0676233 
   5.785000000    -0.6258034    0.0993182     0.0845989   -0.7736886     0.0966258   -0.7725615    -0.6184216    0.0677641 
   5.787500000    -0.6241030    0.0999800     0.0838211   -0.7759622     0.0955064   -0.7749355    -0.6175752    0.0678695 
   5.790000000    -0.6221669    0.1004707     0.0827103   -0.7781915     0.0941806   -0.7774084    -0.6172419    0.0679771 
   5.792500000    -0.6204954    0.1016500     0.0812843   -0.7806280     0.0930733   -0.7800406    -0.6161049    0.0682429 
   5.795000000    -0.6186734    0.1028232     0.0800265   -0.7837793     0.0912536   -0.7828129    -0.6151040    0.0683983 
   5.797500000    -0.6167065    0.1040218     0.0773983   -0.7857766     0.0897251   -0.7850333    -0.6138615    0.0678515 
   5.800000000    -0.6144873    0.1041705     0.0754589   -0.7881280     0.0874353   -0.7880254    -0.6132606    0.0674565 
   5.802500000    -0.6122952    0.1045216     0.0744928   -0.7908922     0.0865368   -0.7899895    -0.6130434    0.0664778 
   5.805000000    -0.6106558    0.1043413     0.0729473   -0.7933534     0.0848981   -0.7924992    -0.6127788    0.0660197 
   5.807500000    -0.6083262    0.1047653     0.0714614   -0.7953350     0.0823256   -0.7947980    -0.6115426    0.0642523 
   5.810000000    -0.6055218    0.1044717     0.0686161   -0.7980043     0.0806169   -0.7967957    -0.6107087    0.0628551 
   5.812500000    -0.6025940    0.1048479     0.0667435   -0.7992292     0.0786739   -0.7986400    -0.6096618    0.0615074 
   5.815000000    -0.5993992    0.1045986     0.0640707   -0.8007866     0.0759373   -0.8005062    -0.6081422    0.0599249 
   5.817500000    -0.5963784    0.1035435     0.0621039   -0.8020964     0.0739806   -0.8022972    -0.6063700    0.0589114 
   5.820000000    -0.5931098    0.1025511     0.0609853   -0.8035907     0.0716829   -0.8036346    -0.6047802    0.0573431 
   5.822500000    -0.5896665    0.1015738     0.0580259   -0.8045959     0.0697936   -0.8044789    -0.6035804    0.0555380 
   5.825000000    -0.5870523    0.1007929     0.0558636   -0.8067135     0.0677362   -0.8055135    -0.6024138    0.0525185 
   5.827500000    -0.5831923    0.0995734     0.0543014   -0.8076347     0.0643022   -0.8062661    -0.6007702    0.0500512 
   5.830000000    -0.5791331    0.0983761     0.0514638   -0.8076529     0.0624713   -0.8068482    -0.5983315    0.0476848 
   5.832500000    -0.5752485    0.0965915     0.0485008   -0.8085032     0.0589334   -0.8078585    -0.5956528    0.0454038 
   5.835000000    -0.5709790    0.0948550     0.0460568   -0.8088564     0.0563861   -0.8083375    -0.5930672    0.0426889 
   5.837500000    -0.5673877    0.0925288     0.0434591   -0.8101982     0.0544393   -0.8085957    -0.5906453    0.0398596 
   5.840000000    -0.5635879    0.0900007     0.0413203   -0.8111901     0.0526021   -0.8090163    -0.5883462    0.0372740 
   5.842500000    -0.5602290    0.0883117     0.0397273   -0.8116388     0.0499190   -0.8093104    -0.5855383    0.0347839 
   5.845000000    -0.5567761    0.0857003     0.0357342   -0.8121518     0.0470686   -0.8104175    -0.5832841    0.0317312 
   5.847500000    -0.5531448    0.0828046     0.0345930   -0.8129566     0.0455381   -0.8108889    -0.5802758    0.0285402 
   5.850000000    -0.5499274    0.0800391     0.0316051   -0.8144136     0.0432070   -0.8117795    -0.5775999    0.0251831 
   5.852500000    -0.5467466    0.0772704     0.0299674   -0.8152897     0.0409658   -0.8124186    -0.5749491    0.0221398 
   5.855000000    -0.5437865    0.0745424     0.0289490   -0.8165542     0.0395108   -0.8131850    -0.5719331    0.0195654 
   5.857500000    -0.5411649    0.0716291     0.0257617   -0.8174754     0.0371413   -0.8141413    -0.5694034    0.0170241 
   5.860000000    -0.5387409    0.0685557     0.0230651   -0.8183643     0.0365541   -0.8145711    -0.5670500    0.0142146 
   5.862500000    -0.5368124    0.0663319     0.0210624   -0.8198117     0.0333513   -0.8160869    -0.5642354    0.0117742 
   5.865000000    -0.5347828    0.0631799     0.0193819   -0.8208005     0.0337977   -0.8163664    -0.5605695    0.0091981 
   5.867500000    -0.5330047    0.0604610     0.0181320   -0.8215758     0.0297348   -0.8178826    -0.5570915    0.0061789 
   5.870000000    -0.5313420    0.0576642     0.0155176   -0.8228040     0.0290659   -0.8193779    -0.5538024    0.0031028 
   5.872500000    -0.5296075    0.0551440     0.0150395   -0.8233028     0.0273278   -0.8201522    -0.5503888    0.0010887 
   5.875000000    -0.5288304    0.0527564     0.0099261   -0.8244997     0.0281882   -0.8201957    -0.5483510   -0.0005552 
   5.877500000    -0.5277915    0.0516348     0.0122554   -0.8253298     0.0202408   -0.8218849    -0.5452753   -0.0018730 
   5.880000000    -0.5270438    0.0502506     0.0075853   -0.8263379     0.0192611   -0.8225986    -0.5431654   -0.0033116 
   5.882500000    -0.5268394    0.0486022     0.0046959   -0.8270766     0.0189016   -0.8239609    -0.5407047   -0.0054294 
   5.885000000    -0.5263200    0.0470520     0.0025061   -0.8276867     0.0142304   -0.8250418    -0.5382501   -0.0061655 
   5.887500000    -0.5266013    0.0454519    -0.0005357   -0.8289787     0.0136658   -0.8256861    -0.5358951   -0.0081802 
