! MS46122B
! 1919307/90821646
! 7/29/2022 2:34:47 PM
! C:\USERS\PC_\DESKTOP\MEDICIONES\BANCHA ESTRECHA\65_7GHZ\S11_S21_ABS65_502CL.S2P
! CHANNEL.1
! TR.MEASUREMENT
! CORRECTED.DATA
# GHZ S RI R 50.0
! FREQ.GHZ         S11RE         S11IM         S21RE         S21IM         S12RE         S12IM         S22RE         S22IM         
!; PortSelection: Port_12
   6.500000000    -0.5588777    0.1481987    -0.1042860   -0.8109682    -0.1013905   -0.8077776    -0.5756147    0.1276091 
   6.502500000    -0.5609771    0.1420310    -0.1109733   -0.8084176    -0.1024810   -0.8073247    -0.5747516    0.1262747 
   6.505000000    -0.5615773    0.1402161    -0.1121135   -0.8078018    -0.1027945   -0.8072146    -0.5740722    0.1250780 
   6.507500000    -0.5622896    0.1383401    -0.1125353   -0.8079697    -0.1030428   -0.8070558    -0.5735589    0.1238525 
   6.510000000    -0.5628410    0.1371000    -0.1133279   -0.8077666    -0.1033935   -0.8064122    -0.5725925    0.1222633 
   6.512500000    -0.5633500    0.1360236    -0.1133713   -0.8068127    -0.1045587   -0.8066791    -0.5717353    0.1208669 
   6.515000000    -0.5641222    0.1354677    -0.1145653   -0.8066152    -0.1050598   -0.8060591    -0.5706980    0.1196544 
   6.517500000    -0.5646304    0.1343878    -0.1161010   -0.8071067    -0.1059664   -0.8061799    -0.5699148    0.1196280 
   6.520000000    -0.5651837    0.1330711    -0.1165443   -0.8065873    -0.1065780   -0.8059371    -0.5688896    0.1183195 
   6.522500000    -0.5657728    0.1320921    -0.1169981   -0.8063558    -0.1068093   -0.8060182    -0.5678547    0.1173501 
   6.525000000    -0.5660481    0.1308205    -0.1175845   -0.8057621    -0.1075011   -0.8062293    -0.5669670    0.1159521 
   6.527500000    -0.5665464    0.1298470    -0.1191437   -0.8064681    -0.1080307   -0.8060519    -0.5659351    0.1143649 
   6.530000000    -0.5667953    0.1293170    -0.1201738   -0.8057137    -0.1085900   -0.8061858    -0.5649706    0.1131795 
   6.532500000    -0.5673034    0.1283888    -0.1206200   -0.8064403    -0.1094487   -0.8059592    -0.5639519    0.1127225 
   6.535000000    -0.5681953    0.1276218    -0.1214205   -0.8067539    -0.1098305   -0.8065215    -0.5633417    0.1114674 
   6.537500000    -0.5683566    0.1265365    -0.1221783   -0.8062546    -0.1106622   -0.8071005    -0.5623259    0.1106020 
   6.540000000    -0.5685725    0.1257759    -0.1235303   -0.8070384    -0.1114807   -0.8074899    -0.5619704    0.1098024 
   6.542500000    -0.5684799    0.1250992    -0.1251086   -0.8063816    -0.1123275   -0.8077808    -0.5609204    0.1091452 
   6.545000000    -0.5684637    0.1243162    -0.1263022   -0.8064839    -0.1136481   -0.8079974    -0.5598838    0.1084291 
   6.547500000    -0.5685301    0.1233475    -0.1270529   -0.8066483    -0.1146180   -0.8081477    -0.5590426    0.1082719 
   6.550000000    -0.5690539    0.1225450    -0.1276089   -0.8070318    -0.1158935   -0.8085153    -0.5583403    0.1075697 
   6.552500000    -0.5687793    0.1223455    -0.1291934   -0.8073522    -0.1171751   -0.8089367    -0.5573712    0.1075972 
   6.555000000    -0.5684814    0.1216615    -0.1304376   -0.8070611    -0.1183047   -0.8091724    -0.5570254    0.1078101 
   6.557500000    -0.5681666    0.1206372    -0.1320065   -0.8063194    -0.1200254   -0.8090150    -0.5559061    0.1082500 
   6.560000000    -0.5683724    0.1197562    -0.1329790   -0.8064780    -0.1216041   -0.8088921    -0.5548753    0.1080381 
   6.562500000    -0.5681572    0.1190142    -0.1342095   -0.8065079    -0.1226963   -0.8095482    -0.5538079    0.1086128 
   6.565000000    -0.5676495    0.1182798    -0.1349694   -0.8061578    -0.1237882   -0.8096746    -0.5537631    0.1091581 
   6.567500000    -0.5671220    0.1180124    -0.1368205   -0.8056791    -0.1257145   -0.8099539    -0.5529066    0.1100765 
   6.570000000    -0.5672195    0.1177030    -0.1385620   -0.8057846    -0.1271049   -0.8093536    -0.5524349    0.1102991 
   6.572500000    -0.5669606    0.1162889    -0.1392382   -0.8048810    -0.1291959   -0.8090181    -0.5519710    0.1101374 
   6.575000000    -0.5666936    0.1151590    -0.1398395   -0.8047229    -0.1305173   -0.8089477    -0.5515225    0.1096617 
   6.577500000    -0.5665216    0.1140303    -0.1410700   -0.8035796    -0.1314154   -0.8089382    -0.5509054    0.1096370 
   6.580000000    -0.5662445    0.1140343    -0.1419761   -0.8028001    -0.1327514   -0.8085652    -0.5504434    0.1098456 
   6.582500000    -0.5659531    0.1132476    -0.1437932   -0.8021384    -0.1344943   -0.8073842    -0.5497053    0.1107360 
   6.585000000    -0.5656047    0.1124177    -0.1454834   -0.8017177    -0.1358117   -0.8068730    -0.5494177    0.1123200 
   6.587500000    -0.5650613    0.1109480    -0.1459589   -0.8011214    -0.1376068   -0.8066328    -0.5489396    0.1123428 
   6.590000000    -0.5647931    0.1104358    -0.1470356   -0.8003837    -0.1385373   -0.8059005    -0.5486058    0.1124711 
   6.592500000    -0.5652149    0.1097405    -0.1473248   -0.8000600    -0.1395943   -0.8055066    -0.5480444    0.1120648 
   6.595000000    -0.5652153    0.1089403    -0.1481371   -0.7994851    -0.1400559   -0.8047214    -0.5481150    0.1126844 
   6.597500000    -0.5649900    0.1080059    -0.1497358   -0.7990048    -0.1412814   -0.8038101    -0.5476924    0.1143957 
   6.600000000    -0.5648792    0.1069890    -0.1510776   -0.7982078    -0.1424500   -0.8032143    -0.5476148    0.1146508 
   6.602500000    -0.5650265    0.1060997    -0.1515257   -0.7980815    -0.1439411   -0.8024470    -0.5475439    0.1149261 
   6.605000000    -0.5650916    0.1048888    -0.1523677   -0.7974938    -0.1448445   -0.8015490    -0.5473415    0.1150694 
   6.607500000    -0.5652851    0.1047904    -0.1527934   -0.7967220    -0.1454569   -0.8010579    -0.5471690    0.1148534 
   6.610000000    -0.5655194    0.1036821    -0.1527010   -0.7960822    -0.1464005   -0.8003325    -0.5473933    0.1140771 
   6.612500000    -0.5659885    0.1025403    -0.1544917   -0.7956900    -0.1468023   -0.7993724    -0.5470179    0.1142149 
   6.615000000    -0.5661515    0.1017176    -0.1549879   -0.7952784    -0.1480043   -0.7989754    -0.5469189    0.1149714 
   6.617500000    -0.5664108    0.1012868    -0.1557822   -0.7948792    -0.1494078   -0.7984692    -0.5470951    0.1143419 
   6.620000000    -0.5665335    0.1003007    -0.1563680   -0.7947013    -0.1500587   -0.7983130    -0.5470299    0.1139101 
   6.622500000    -0.5669886    0.0994388    -0.1570396   -0.7938241    -0.1508376   -0.7982084    -0.5474899    0.1135411 
   6.625000000    -0.5675899    0.0988224    -0.1572177   -0.7936421    -0.1509396   -0.7979116    -0.5474456    0.1121435 
   6.627500000    -0.5678287    0.0984869    -0.1576684   -0.7929873    -0.1513189   -0.7971317    -0.5475769    0.1110242 
   6.630000000    -0.5681179    0.0975666    -0.1584998   -0.7933996    -0.1522916   -0.7967905    -0.5480552    0.1103901 
   6.632500000    -0.5689259    0.0971481    -0.1585986   -0.7931822    -0.1531542   -0.7967544    -0.5479157    0.1099055 
   6.635000000    -0.5693468    0.0968506    -0.1592946   -0.7925643    -0.1540110   -0.7964134    -0.5479568    0.1087339 
   6.637500000    -0.5691760    0.0962215    -0.1591650   -0.7921223    -0.1542560   -0.7962852    -0.5482642    0.1071878 
   6.640000000    -0.5695140    0.0957018    -0.1603789   -0.7914733    -0.1546017   -0.7955834    -0.5484017    0.1058685 
   6.642500000    -0.5702290    0.0956681    -0.1611374   -0.7909781    -0.1547467   -0.7953920    -0.5483811    0.1040410 
   6.645000000    -0.5704435    0.0957168    -0.1614534   -0.7907825    -0.1558990   -0.7949783    -0.5485845    0.1023802 
   6.647500000    -0.5705740    0.0956313    -0.1621949   -0.7902893    -0.1569356   -0.7947634    -0.5486955    0.1009240 
   6.650000000    -0.5709645    0.0954530    -0.1622583   -0.7897737    -0.1570337   -0.7943786    -0.5488287    0.1000620 
   6.652500000    -0.5711886    0.0952326    -0.1635316   -0.7894121    -0.1577380   -0.7938128    -0.5483479    0.0983453 
   6.655000000    -0.5710729    0.0949523    -0.1639789   -0.7888317    -0.1583840   -0.7929861    -0.5481169    0.0966762 
   6.657500000    -0.5712724    0.0950342    -0.1647321   -0.7883983    -0.1587850   -0.7923575    -0.5482799    0.0947913 
   6.660000000    -0.5715505    0.0958596    -0.1647716   -0.7881542    -0.1596174   -0.7917920    -0.5480080    0.0930090 
   6.662500000    -0.5711617    0.0958526    -0.1650585   -0.7878847    -0.1601844   -0.7918066    -0.5475976    0.0921188 
   6.665000000    -0.5707484    0.0960449    -0.1650857   -0.7871579    -0.1606919   -0.7913585    -0.5476670    0.0909630 
   6.667500000    -0.5704101    0.0960664    -0.1652694   -0.7862855    -0.1609250   -0.7907446    -0.5467494    0.0888826 
   6.670000000    -0.5701222    0.0962872    -0.1664328   -0.7859284    -0.1610864   -0.7898234    -0.5461717    0.0875498 
   6.672500000    -0.5697889    0.0974589    -0.1656678   -0.7857478    -0.1616780   -0.7892835    -0.5455521    0.0864560 
   6.675000000    -0.5696365    0.0985500    -0.1660257   -0.7855337    -0.1624037   -0.7892000    -0.5451040    0.0859047 
   6.677500000    -0.5693477    0.0991859    -0.1659492   -0.7849638    -0.1628484   -0.7886708    -0.5449744    0.0849908 
   6.680000000    -0.5687328    0.0999108    -0.1657089   -0.7847071    -0.1628107   -0.7887307    -0.5450751    0.0844133 
   6.682500000    -0.5683460    0.1006199    -0.1662481   -0.7838261    -0.1631359   -0.7880853    -0.5444206    0.0833994 
   6.685000000    -0.5673734    0.1019088    -0.1665412   -0.7836057    -0.1633212   -0.7876500    -0.5437701    0.0830819 
   6.687500000    -0.5675331    0.1033503    -0.1662383   -0.7834098    -0.1632263   -0.7875071    -0.5432675    0.0830359 
   6.690000000    -0.5670614    0.1046006    -0.1662535   -0.7833189    -0.1640733   -0.7875665    -0.5432179    0.0836535 
   6.692500000    -0.5665928    0.1060014    -0.1663462   -0.7826130    -0.1643841   -0.7871566    -0.5432583    0.0832891 
   6.695000000    -0.5656064    0.1077758    -0.1656103   -0.7822605    -0.1642623   -0.7870277    -0.5428938    0.0833151 
   6.697500000    -0.5651034    0.1089599    -0.1661323   -0.7821897    -0.1639535   -0.7867373    -0.5425657    0.0831312 
   6.700000000    -0.5650597    0.1105457    -0.1668209   -0.7818716    -0.1643747   -0.7865366    -0.5418752    0.0838127 
   6.702500000    -0.5646909    0.1121497    -0.1665884   -0.7819877    -0.1646462   -0.7860981    -0.5418276    0.0853163 
   6.705000000    -0.5645297    0.1134694    -0.1667113   -0.7829933    -0.1648249   -0.7861567    -0.5417985    0.0857237 
   6.707500000    -0.5640619    0.1155546    -0.1667118   -0.7824820    -0.1655322   -0.7862800    -0.5416749    0.0865177 
   6.710000000    -0.5638099    0.1171108    -0.1673990   -0.7823971    -0.1650499   -0.7861130    -0.5411305    0.0877376 
   6.712500000    -0.5636593    0.1191967    -0.1676690   -0.7823428    -0.1653476   -0.7861757    -0.5410501    0.0890071 
   6.715000000    -0.5632479    0.1206033    -0.1676945   -0.7831026    -0.1657851   -0.7859357    -0.5408866    0.0899799 
   6.717500000    -0.5631909    0.1223943    -0.1682848   -0.7827491    -0.1660739   -0.7859735    -0.5404998    0.0917179 
   6.720000000    -0.5630251    0.1238041    -0.1684735   -0.7828500    -0.1666575   -0.7857456    -0.5404468    0.0930663 
   6.722500000    -0.5627945    0.1256721    -0.1685886   -0.7833588    -0.1673949   -0.7855186    -0.5404766    0.0941632 
   6.725000000    -0.5626426    0.1275225    -0.1692207   -0.7827025    -0.1677095   -0.7862511    -0.5405453    0.0954205 
   6.727500000    -0.5624826    0.1287103    -0.1702555   -0.7830440    -0.1678963   -0.7862700    -0.5406333    0.0968256 
   6.730000000    -0.5623505    0.1298749    -0.1698176   -0.7829145    -0.1676985   -0.7859333    -0.5406124    0.0979509 
   6.732500000    -0.5620323    0.1308637    -0.1703133   -0.7828103    -0.1679142   -0.7858073    -0.5405516    0.1004304 
   6.735000000    -0.5618782    0.1318413    -0.1703216   -0.7828073    -0.1686151   -0.7852489    -0.5404818    0.1013789 
   6.737500000    -0.5616363    0.1330596    -0.1707693   -0.7828382    -0.1694859   -0.7852995    -0.5407036    0.1024464 
   6.740000000    -0.5619423    0.1340726    -0.1718067   -0.7831544    -0.1699423   -0.7853565    -0.5404175    0.1030940 
   6.742500000    -0.5621241    0.1348880    -0.1721082   -0.7827429    -0.1698411   -0.7852250    -0.5407192    0.1041653 
   6.745000000    -0.5621399    0.1354485    -0.1725006   -0.7828135    -0.1706812   -0.7849490    -0.5412462    0.1049701 
   6.747500000    -0.5622091    0.1360935    -0.1724519   -0.7824789    -0.1710733   -0.7843143    -0.5411555    0.1051279 
   6.750000000    -0.5621814    0.1362403    -0.1725230   -0.7822245    -0.1715631   -0.7843401    -0.5413155    0.1067703 
   6.752500000    -0.5619915    0.1362192    -0.1729284   -0.7815169    -0.1716655   -0.7841235    -0.5411784    0.1065179 
   6.755000000    -0.5620015    0.1373281    -0.1739973   -0.7818187    -0.1719351   -0.7841998    -0.5408341    0.1062165 
   6.757500000    -0.5621432    0.1370839    -0.1737344   -0.7824476    -0.1722357   -0.7829444    -0.5405089    0.1061673 
   6.760000000    -0.5620484    0.1369130    -0.1736450   -0.7819492    -0.1719681   -0.7823927    -0.5404337    0.1055663 
   6.762500000    -0.5619132    0.1367596    -0.1735737   -0.7810012    -0.1726482   -0.7823960    -0.5404251    0.1048709 
   6.765000000    -0.5619857    0.1367111    -0.1729290   -0.7809982    -0.1725276   -0.7819234    -0.5404375    0.1038330 
   6.767500000    -0.5615041    0.1362626    -0.1742025   -0.7807762    -0.1722194   -0.7819216    -0.5406071    0.1035737 
   6.770000000    -0.5612430    0.1356483    -0.1735908   -0.7809144    -0.1723800   -0.7816288    -0.5404171    0.1023947 
   6.772500000    -0.5610035    0.1356016    -0.1733706   -0.7809241    -0.1723432   -0.7817439    -0.5399799    0.1011335 
   6.775000000    -0.5606882    0.1348764    -0.1732065   -0.7813808    -0.1719219   -0.7814237    -0.5398790    0.0996087 
   6.777500000    -0.5602049    0.1339929    -0.1723507   -0.7812204    -0.1712041   -0.7813754    -0.5397155    0.0981554 
   6.780000000    -0.5598055    0.1327973    -0.1716545   -0.7811397    -0.1718034   -0.7815199    -0.5393125    0.0965002 
   6.782500000    -0.5595067    0.1321265    -0.1723662   -0.7814447    -0.1714145   -0.7814470    -0.5389043    0.0947326 
   6.785000000    -0.5591345    0.1314732    -0.1720653   -0.7819439    -0.1704603   -0.7821581    -0.5385685    0.0924703 
   6.787500000    -0.5591530    0.1316271    -0.1713868   -0.7826549    -0.1703371   -0.7826321    -0.5381655    0.0904182 
   6.790000000    -0.5590143    0.1308782    -0.1711958   -0.7835951    -0.1701087   -0.7831268    -0.5377702    0.0881243 
   6.792500000    -0.5581981    0.1300966    -0.1709281   -0.7840993    -0.1699641   -0.7836778    -0.5370819    0.0866172 
   6.795000000    -0.5579982    0.1297738    -0.1703195   -0.7845218    -0.1700679   -0.7839175    -0.5375043    0.0852194 
   6.797500000    -0.5580423    0.1288327    -0.1702353   -0.7856445    -0.1696740   -0.7850868    -0.5379885    0.0824856 
   6.800000000    -0.5580527    0.1287514    -0.1706389   -0.7864183    -0.1695623   -0.7859815    -0.5379862    0.0802945 
   6.802500000    -0.5576420    0.1295173    -0.1702689   -0.7874315    -0.1690508   -0.7868420    -0.5380666    0.0779789 
   6.805000000    -0.5573646    0.1303686    -0.1701495   -0.7884325    -0.1691263   -0.7879795    -0.5375278    0.0771155 
   6.807500000    -0.5570750    0.1309317    -0.1705709   -0.7896607    -0.1697631   -0.7887030    -0.5379604    0.0766754 
   6.810000000    -0.5568795    0.1318401    -0.1707883   -0.7907091    -0.1702949   -0.7897362    -0.5383394    0.0757606 
   6.812500000    -0.5570471    0.1326297    -0.1708772   -0.7917128    -0.1715616   -0.7909629    -0.5387747    0.0750114 
   6.815000000    -0.5566530    0.1340510    -0.1722864   -0.7927258    -0.1713284   -0.7918507    -0.5388888    0.0739271 
   6.817500000    -0.5558091    0.1351897    -0.1722971   -0.7940698    -0.1719412   -0.7931087    -0.5386149    0.0741297 
   6.820000000    -0.5548325    0.1372483    -0.1734813   -0.7955819    -0.1730120   -0.7940570    -0.5391238    0.0746839 
   6.822500000    -0.5541332    0.1389896    -0.1743536   -0.7970146    -0.1737127   -0.7954288    -0.5391343    0.0749253 
   6.825000000    -0.5540473    0.1406910    -0.1754091   -0.7977632    -0.1746374   -0.7963854    -0.5388656    0.0755420 
   6.827500000    -0.5532359    0.1426177    -0.1766042   -0.7985857    -0.1760775   -0.7975064    -0.5389371    0.0760370 
   6.830000000    -0.5521763    0.1446128    -0.1779588   -0.7994184    -0.1773413   -0.7982729    -0.5381569    0.0767845 
   6.832500000    -0.5505797    0.1468578    -0.1788915   -0.8004072    -0.1782554   -0.7992641    -0.5375754    0.0776001 
   6.835000000    -0.5493428    0.1488583    -0.1797765   -0.8011767    -0.1796310   -0.8000683    -0.5371912    0.0794790 
   6.837500000    -0.5481675    0.1511598    -0.1816973   -0.8017005    -0.1810437   -0.8005979    -0.5365964    0.0805726 
   6.840000000    -0.5465760    0.1536307    -0.1833416   -0.8026943    -0.1827410   -0.8008585    -0.5360231    0.0820648 
   6.842500000    -0.5450739    0.1550892    -0.1848650   -0.8029180    -0.1848620   -0.8011779    -0.5352637    0.0830164 
   6.845000000    -0.5433261    0.1569279    -0.1868475   -0.8024610    -0.1864216   -0.8011273    -0.5343934    0.0847541 
   6.847500000    -0.5420157    0.1588380    -0.1875788   -0.8022673    -0.1876580   -0.8012024    -0.5338795    0.0859493 
   6.850000000    -0.5406074    0.1602323    -0.1881454   -0.8023622    -0.1886014   -0.8013158    -0.5333943    0.0871424 
   6.852500000    -0.5393837    0.1617952    -0.1903021   -0.8028709    -0.1899482   -0.8012573    -0.5335366    0.0891846 
   6.855000000    -0.5379058    0.1627536    -0.1916402   -0.8025289    -0.1913645   -0.8011268    -0.5333011    0.0903267 
   6.857500000    -0.5362688    0.1635337    -0.1933540   -0.8015366    -0.1928618   -0.8005541    -0.5325791    0.0915047 
   6.860000000    -0.5346782    0.1642997    -0.1940553   -0.8018856    -0.1938430   -0.8004845    -0.5322386    0.0928106 
   6.862500000    -0.5337155    0.1646959    -0.1951648   -0.8014271    -0.1946194   -0.7998526    -0.5319108    0.0938902 
   6.865000000    -0.5324156    0.1651426    -0.1963433   -0.8014207    -0.1955610   -0.7996454    -0.5314907    0.0949315 
   6.867500000    -0.5309251    0.1653872    -0.1965529   -0.8013322    -0.1965014   -0.7990328    -0.5309923    0.0964500 
   6.870000000    -0.5294278    0.1656526    -0.1980483   -0.8002010    -0.1975824   -0.7979417    -0.5307091    0.0977380 
   6.872500000    -0.5280994    0.1655434    -0.1986338   -0.8000504    -0.1983825   -0.7972995    -0.5306996    0.0987449 
   6.875000000    -0.5273328    0.1654787    -0.1986641   -0.7998952    -0.1982632   -0.7967611    -0.5301619    0.0993862 
   6.877500000    -0.5263168    0.1647793    -0.1986346   -0.8002349    -0.1982082   -0.7966149    -0.5299548    0.0999797 
   6.880000000    -0.5249804    0.1640963    -0.1999963   -0.8008863    -0.1991948   -0.7959462    -0.5293015    0.1004686 
   6.882500000    -0.5240471    0.1632464    -0.2007012   -0.8004867    -0.1999822   -0.7959757    -0.5288504    0.1011804 
   6.885000000    -0.5228063    0.1627744    -0.2006480   -0.8007053    -0.2007122   -0.7964109    -0.5289146    0.1017504 
   6.887500000    -0.5216243    0.1619045    -0.2010318   -0.8008678    -0.2002344   -0.7958049    -0.5287962    0.1014348 
   6.890000000    -0.5201855    0.1609516    -0.2011685   -0.8003598    -0.2007536   -0.7956638    -0.5286398    0.1012154 
