! MS46122B
! 1919307/90821646
! 7/29/2022 12:31:12 PM
! C:\USERS\PC_\DESKTOP\MEDICIONES\BANCHA ESTRECHA\55_6GHZ\S11_S21_ABS3_502CL.S2P
! CHANNEL.1
! TR.MEASUREMENT
! CORRECTED.DATA
# GHZ S RI R 50.0
! FREQ.GHZ         S11RE         S11IM         S21RE         S21IM         S12RE         S12IM         S22RE         S22IM         
!; PortSelection: Port_12
   5.500000000    -0.4862098   -0.2335380     0.3222267   -0.7958468     0.3300451   -0.7920309    -0.3938001   -0.3009804 
   5.502500000    -0.4844068   -0.2289599     0.3221334   -0.7959283     0.3283864   -0.7902280    -0.3959266   -0.2995183 
   5.505000000    -0.4861440   -0.2268841     0.3224050   -0.7943863     0.3281412   -0.7874100    -0.3984645   -0.2981463 
   5.507500000    -0.4878598   -0.2252277     0.3223238   -0.7932585     0.3277423   -0.7856194    -0.4012021   -0.2969876 
   5.510000000    -0.4897681   -0.2235162     0.3214861   -0.7913029     0.3277390   -0.7836025    -0.4037985   -0.2956997 
   5.512500000    -0.4918253   -0.2211622     0.3212840   -0.7899016     0.3270862   -0.7819746    -0.4070818   -0.2930586 
   5.515000000    -0.4937285   -0.2192155     0.3218196   -0.7880626     0.3272486   -0.7797332    -0.4100450   -0.2910552 
   5.517500000    -0.4954682   -0.2172882     0.3212887   -0.7864164     0.3268131   -0.7781453    -0.4131249   -0.2886244 
   5.520000000    -0.4972106   -0.2150419     0.3214538   -0.7842212     0.3268673   -0.7767261    -0.4160293   -0.2866215 
   5.522500000    -0.4985948   -0.2125914     0.3210545   -0.7839571     0.3275137   -0.7749461    -0.4192157   -0.2838567 
   5.525000000    -0.5000177   -0.2100477     0.3220542   -0.7817538     0.3264130   -0.7743960    -0.4226208   -0.2813559 
   5.527500000    -0.5015400   -0.2076697     0.3201610   -0.7813140     0.3284913   -0.7719917    -0.4254652   -0.2779970 
   5.530000000    -0.5026332   -0.2050194     0.3208977   -0.7795824     0.3278016   -0.7710582    -0.4283945   -0.2754141 
   5.532500000    -0.5041267   -0.2026828     0.3215857   -0.7780176     0.3281588   -0.7692978    -0.4313212   -0.2720648 
   5.535000000    -0.5050880   -0.2001926     0.3215221   -0.7764325     0.3282155   -0.7680712    -0.4342980   -0.2690808 
   5.537500000    -0.5061558   -0.1975530     0.3219358   -0.7757595     0.3288241   -0.7663963    -0.4375930   -0.2656740 
   5.540000000    -0.5075431   -0.1948640     0.3214619   -0.7743816     0.3294837   -0.7648911    -0.4405596   -0.2622390 
   5.542500000    -0.5084537   -0.1919698     0.3220986   -0.7729670     0.3303896   -0.7635985    -0.4435447   -0.2595111 
   5.545000000    -0.5088127   -0.1897395     0.3225809   -0.7715119     0.3309203   -0.7621983    -0.4465674   -0.2564655 
   5.547500000    -0.5090765   -0.1874064     0.3228628   -0.7701769     0.3318425   -0.7607047    -0.4489061   -0.2532915 
   5.550000000    -0.5093787   -0.1852343     0.3232862   -0.7697800     0.3322453   -0.7592973    -0.4507758   -0.2498040 
   5.552500000    -0.5101845   -0.1832171     0.3239739   -0.7682233     0.3327979   -0.7581448    -0.4529727   -0.2461245 
   5.555000000    -0.5119470   -0.1810078     0.3239030   -0.7663664     0.3333094   -0.7567036    -0.4553867   -0.2424118 
   5.557500000    -0.5131180   -0.1786622     0.3245785   -0.7647152     0.3343318   -0.7551294    -0.4572146   -0.2387881 
   5.560000000    -0.5123425   -0.1762650     0.3253082   -0.7628816     0.3353367   -0.7537504    -0.4597234   -0.2357208 
   5.562500000    -0.5111935   -0.1738050     0.3256858   -0.7619316     0.3356817   -0.7525136    -0.4622823   -0.2325325 
   5.565000000    -0.5123272   -0.1714883     0.3258552   -0.7608215     0.3365889   -0.7512510    -0.4644549   -0.2291729 
   5.567500000    -0.5133929   -0.1709650     0.3261502   -0.7595856     0.3372889   -0.7494582    -0.4662600   -0.2259146 
   5.570000000    -0.5135794   -0.1700201     0.3267106   -0.7580653     0.3383725   -0.7482563    -0.4682218   -0.2222694 
   5.572500000    -0.5136728   -0.1681315     0.3273688   -0.7561011     0.3387444   -0.7474602    -0.4696940   -0.2190544 
   5.575000000    -0.5141543   -0.1658477     0.3274384   -0.7553157     0.3394981   -0.7458328    -0.4713944   -0.2166167 
   5.577500000    -0.5148903   -0.1638290     0.3286510   -0.7544549     0.3402255   -0.7454959    -0.4734438   -0.2135520 
   5.580000000    -0.5148301   -0.1625070     0.3293141   -0.7537562     0.3407542   -0.7446055    -0.4749235   -0.2107753 
   5.582500000    -0.5146913   -0.1609907     0.3290860   -0.7526270     0.3414221   -0.7438362    -0.4763101   -0.2079477 
   5.585000000    -0.5147347   -0.1598173     0.3302637   -0.7518151     0.3425623   -0.7429461    -0.4775212   -0.2056487 
   5.587500000    -0.5147201   -0.1582453     0.3315484   -0.7506963     0.3437284   -0.7422336    -0.4782279   -0.2036018 
   5.590000000    -0.5149934   -0.1563489     0.3328689   -0.7504572     0.3446854   -0.7419133    -0.4795180   -0.2005919 
   5.592500000    -0.5151098   -0.1548169     0.3337600   -0.7498370     0.3459339   -0.7409156    -0.4802531   -0.1975807 
   5.595000000    -0.5146322   -0.1533440     0.3350082   -0.7487959     0.3474078   -0.7400123    -0.4810668   -0.1954886 
   5.597500000    -0.5144210   -0.1517771     0.3359248   -0.7477674     0.3479750   -0.7391691    -0.4814716   -0.1937133 
   5.600000000    -0.5141114   -0.1504891     0.3371757   -0.7464237     0.3500210   -0.7385294    -0.4813990   -0.1915865 
   5.602500000    -0.5138575   -0.1489571     0.3389596   -0.7455395     0.3510838   -0.7374923    -0.4816839   -0.1897160 
   5.605000000    -0.5135855   -0.1469607     0.3406944   -0.7454607     0.3524169   -0.7369320    -0.4826129   -0.1870411 
   5.607500000    -0.5137821   -0.1451727     0.3421478   -0.7443966     0.3538560   -0.7365789    -0.4828449   -0.1853438 
   5.610000000    -0.5133224   -0.1435973     0.3424831   -0.7435135     0.3547906   -0.7357782    -0.4828455   -0.1833600 
   5.612500000    -0.5128615   -0.1420637     0.3441989   -0.7427082     0.3562667   -0.7350373    -0.4834428   -0.1817614 
   5.615000000    -0.5123795   -0.1398841     0.3455783   -0.7421252     0.3576389   -0.7347306    -0.4836280   -0.1801956 
   5.617500000    -0.5119296   -0.1378221     0.3471517   -0.7410683     0.3586928   -0.7338718    -0.4841901   -0.1777932 
   5.620000000    -0.5116628   -0.1355103     0.3476795   -0.7418348     0.3595454   -0.7338617    -0.4838310   -0.1752232 
   5.622500000    -0.5111372   -0.1335599     0.3474518   -0.7413189     0.3615954   -0.7325761    -0.4834788   -0.1729018 
   5.625000000    -0.5104100   -0.1314141     0.3503628   -0.7401602     0.3610581   -0.7333459    -0.4832192   -0.1707659 
   5.627500000    -0.5094523   -0.1288614     0.3515964   -0.7400457     0.3627786   -0.7326121    -0.4831184   -0.1682937 
   5.630000000    -0.5087500   -0.1268155     0.3532164   -0.7398205     0.3647366   -0.7322085    -0.4834335   -0.1656271 
   5.632500000    -0.5084855   -0.1241371     0.3543471   -0.7398806     0.3655113   -0.7320852    -0.4833437   -0.1632768 
   5.635000000    -0.5076086   -0.1215545     0.3558302   -0.7402430     0.3672059   -0.7318783    -0.4832926   -0.1607808 
   5.637500000    -0.5067233   -0.1191920     0.3560911   -0.7407172     0.3680556   -0.7322927    -0.4835133   -0.1578271 
   5.640000000    -0.5057952   -0.1160000     0.3582647   -0.7409640     0.3695137   -0.7322399    -0.4839819   -0.1548966 
   5.642500000    -0.5051414   -0.1134028     0.3598570   -0.7407511     0.3707836   -0.7326013    -0.4839829   -0.1523973 
   5.645000000    -0.5043554   -0.1105577     0.3617200   -0.7406064     0.3721806   -0.7327915    -0.4840194   -0.1497524 
   5.647500000    -0.5034969   -0.1079033     0.3631649   -0.7412612     0.3737981   -0.7332283    -0.4839287   -0.1472794 
   5.650000000    -0.5023068   -0.1049435     0.3634168   -0.7421587     0.3750142   -0.7337325    -0.4839962   -0.1435671 
   5.652500000    -0.5014915   -0.1019278     0.3655324   -0.7422031     0.3766704   -0.7345508    -0.4842794   -0.1403896 
   5.655000000    -0.5004390   -0.0987934     0.3676434   -0.7426354     0.3781915   -0.7350436    -0.4843143   -0.1379032 
   5.657500000    -0.4995836   -0.0959397     0.3695180   -0.7427485     0.3798801   -0.7353756    -0.4844016   -0.1349234 
   5.660000000    -0.4979829   -0.0935082     0.3711267   -0.7425253     0.3813422   -0.7361683    -0.4845786   -0.1320072 
   5.662500000    -0.4965734   -0.0905800     0.3719732   -0.7425854     0.3829139   -0.7367641    -0.4847362   -0.1293347 
   5.665000000    -0.4951870   -0.0879809     0.3729795   -0.7438431     0.3845876   -0.7371348    -0.4849796   -0.1263446 
   5.667500000    -0.4934328   -0.0855303     0.3744515   -0.7444916     0.3862896   -0.7375152    -0.4858073   -0.1230249 
   5.670000000    -0.4924091   -0.0827300     0.3768087   -0.7443649     0.3883379   -0.7379788    -0.4857391   -0.1210562 
   5.672500000    -0.4906035   -0.0804953     0.3774183   -0.7458430     0.3900301   -0.7384809    -0.4861650   -0.1181429 
   5.675000000    -0.4892718   -0.0777621     0.3791754   -0.7460063     0.3904613   -0.7399050    -0.4856855   -0.1150784 
   5.677500000    -0.4875825   -0.0752741     0.3794620   -0.7467900     0.3922317   -0.7402281    -0.4854912   -0.1120359 
   5.680000000    -0.4859856   -0.0730534     0.3807283   -0.7484420     0.3930432   -0.7414988    -0.4856293   -0.1094436 
   5.682500000    -0.4840780   -0.0705685     0.3816935   -0.7498562     0.3939988   -0.7426797    -0.4861043   -0.1066280 
   5.685000000    -0.4822225   -0.0682425     0.3826164   -0.7506857     0.3957460   -0.7435718    -0.4857357   -0.1047407 
   5.687500000    -0.4810472   -0.0659563     0.3838783   -0.7517885     0.3965703   -0.7450032    -0.4855667   -0.1019034 
   5.690000000    -0.4788725   -0.0635207     0.3847188   -0.7543326     0.3970109   -0.7461768    -0.4843830   -0.0988010 
   5.692500000    -0.4768215   -0.0615942     0.3865474   -0.7550576     0.3977096   -0.7476913    -0.4836053   -0.0966938 
   5.695000000    -0.4751101   -0.0599602     0.3868625   -0.7564034     0.3988687   -0.7490661    -0.4827590   -0.0948788 
   5.697500000    -0.4731626   -0.0589401     0.3881758   -0.7577704     0.3998885   -0.7509294    -0.4825073   -0.0933523 
   5.700000000    -0.4710237   -0.0578858     0.3891872   -0.7592971     0.4005868   -0.7528265    -0.4818150   -0.0913169 
   5.702500000    -0.4686203   -0.0569450     0.3905497   -0.7602343     0.4014422   -0.7545397    -0.4807326   -0.0895943 
   5.705000000    -0.4664459   -0.0557222     0.3911606   -0.7626845     0.4025928   -0.7567554    -0.4790203   -0.0880658 
   5.707500000    -0.4642034   -0.0545716     0.3918658   -0.7638452     0.4029035   -0.7585611    -0.4773084   -0.0857112 
   5.710000000    -0.4620222   -0.0537366     0.3924246   -0.7644728     0.4035834   -0.7600142    -0.4751391   -0.0841464 
   5.712500000    -0.4595994   -0.0531566     0.3930247   -0.7656250     0.4044736   -0.7614741    -0.4731362   -0.0825238 
   5.715000000    -0.4572876   -0.0522577     0.3939917   -0.7664866     0.4051298   -0.7631785    -0.4711834   -0.0810070 
   5.717500000    -0.4548430   -0.0519296     0.3946152   -0.7682229     0.4055315   -0.7647328    -0.4689645   -0.0794660 
   5.720000000    -0.4523088   -0.0516354     0.3942035   -0.7697355     0.4079314   -0.7656414    -0.4670807   -0.0773404 
   5.722500000    -0.4501925   -0.0513017     0.3961445   -0.7696065     0.4059964   -0.7676241    -0.4654970   -0.0760664 
   5.725000000    -0.4476820   -0.0513371     0.3949833   -0.7710789     0.4072132   -0.7683498    -0.4631764   -0.0750857 
   5.727500000    -0.4449748   -0.0510170     0.3950554   -0.7714441     0.4071012   -0.7693964    -0.4604082   -0.0739915 
   5.730000000    -0.4424030   -0.0510243     0.3946993   -0.7730124     0.4076972   -0.7701254    -0.4579003   -0.0730764 
   5.732500000    -0.4394725   -0.0509839     0.3956073   -0.7745025     0.4075084   -0.7712325    -0.4549688   -0.0718357 
   5.735000000    -0.4372407   -0.0505245     0.3955180   -0.7763278     0.4072432   -0.7731740    -0.4522750   -0.0703842 
   5.737500000    -0.4347402   -0.0505829     0.3953651   -0.7775401     0.4076071   -0.7738073    -0.4494256   -0.0693818 
   5.740000000    -0.4325211   -0.0507674     0.3957244   -0.7786844     0.4076917   -0.7753624    -0.4459263   -0.0687442 
   5.742500000    -0.4300749   -0.0504460     0.3958190   -0.7795871     0.4076368   -0.7763120    -0.4426181   -0.0674198 
   5.745000000    -0.4276245   -0.0506027     0.3971966   -0.7811082     0.4070556   -0.7779270    -0.4388355   -0.0665058 
   5.747500000    -0.4252372   -0.0501079     0.3964186   -0.7830418     0.4066235   -0.7793756    -0.4360306   -0.0659100 
   5.750000000    -0.4227357   -0.0500994     0.3975001   -0.7842048     0.4072863   -0.7801768    -0.4323005   -0.0644195 
   5.752500000    -0.4202647   -0.0500255     0.3975540   -0.7857779     0.4067290   -0.7817913    -0.4287463   -0.0637024 
   5.755000000    -0.4177442   -0.0498916     0.3981525   -0.7866753     0.4066467   -0.7833001    -0.4247060   -0.0626665 
   5.757500000    -0.4149611   -0.0499641     0.3984591   -0.7884818     0.4078339   -0.7837034    -0.4215159   -0.0622102 
   5.760000000    -0.4122987   -0.0498158     0.3997600   -0.7893242     0.4078304   -0.7855627    -0.4183218   -0.0613190 
   5.762500000    -0.4098737   -0.0498914     0.4009228   -0.7905695     0.4088595   -0.7870454    -0.4150477   -0.0610589 
   5.765000000    -0.4072401   -0.0494670     0.4009817   -0.7919514     0.4093649   -0.7878823    -0.4114795   -0.0605369 
   5.767500000    -0.4044318   -0.0492127     0.4010260   -0.7929896     0.4102058   -0.7890154    -0.4083593   -0.0603500 
   5.770000000    -0.4025005   -0.0488462     0.4025620   -0.7940811     0.4097014   -0.7911199    -0.4055776   -0.0605430 
   5.772500000    -0.3998623   -0.0486712     0.4008486   -0.7964016     0.4127404   -0.7903419    -0.4024262   -0.0602209 
   5.775000000    -0.3971278   -0.0481218     0.4021710   -0.7972402     0.4119527   -0.7926920    -0.3995834   -0.0595503 
   5.777500000    -0.3949082   -0.0475338     0.4022603   -0.7983602     0.4125809   -0.7940446    -0.3967434   -0.0592086 
   5.780000000    -0.3924440   -0.0470913     0.4016764   -0.8001174     0.4128000   -0.7956412    -0.3940752   -0.0590102 
   5.782500000    -0.3901802   -0.0466273     0.4021522   -0.8018761     0.4124326   -0.7973132    -0.3915690   -0.0589658 
   5.785000000    -0.3878548   -0.0460589     0.4019983   -0.8038673     0.4126890   -0.7988357    -0.3894216   -0.0587532 
   5.787500000    -0.3857821   -0.0454419     0.4015853   -0.8062360     0.4129567   -0.8002727    -0.3868595   -0.0588529 
   5.790000000    -0.3831151   -0.0451486     0.4014486   -0.8079195     0.4124324   -0.8029344    -0.3843465   -0.0588180 
   5.792500000    -0.3802094   -0.0442644     0.4006693   -0.8103221     0.4128506   -0.8044448    -0.3817539   -0.0590307 
   5.795000000    -0.3776896   -0.0436044     0.4003751   -0.8117874     0.4120440   -0.8073626    -0.3793254   -0.0586182 
   5.797500000    -0.3750356   -0.0427886     0.3996750   -0.8147656     0.4115463   -0.8094150    -0.3770908   -0.0583585 
   5.800000000    -0.3725588   -0.0416696     0.3985915   -0.8173884     0.4107628   -0.8122076    -0.3745054   -0.0587978 
   5.802500000    -0.3696440   -0.0410647     0.3987452   -0.8196816     0.4105380   -0.8136830    -0.3719629   -0.0594934 
   5.805000000    -0.3666402   -0.0408993     0.3981476   -0.8219234     0.4104340   -0.8160732    -0.3694866   -0.0600445 
   5.807500000    -0.3634286   -0.0403609     0.3973361   -0.8235727     0.4088586   -0.8185222    -0.3664735   -0.0609648 
   5.810000000    -0.3602518   -0.0400673     0.3959726   -0.8257099     0.4085910   -0.8203776    -0.3637220   -0.0617584 
   5.812500000    -0.3568929   -0.0394620     0.3958026   -0.8272932     0.4075930   -0.8227097    -0.3602551   -0.0628067 
   5.815000000    -0.3535840   -0.0392783     0.3944508   -0.8295489     0.4065052   -0.8244727    -0.3570938   -0.0630702 
   5.817500000    -0.3502765   -0.0389436     0.3934480   -0.8307855     0.4046036   -0.8264861    -0.3539850   -0.0631318 
   5.820000000    -0.3469493   -0.0388901     0.3926292   -0.8317550     0.4042664   -0.8276074    -0.3509446   -0.0640074 
   5.822500000    -0.3435821   -0.0388814     0.3923856   -0.8325310     0.4008733   -0.8292482    -0.3477690   -0.0646047 
   5.825000000    -0.3403057   -0.0392847     0.3894733   -0.8345522     0.4042047   -0.8284906    -0.3442543   -0.0673157 
   5.827500000    -0.3369579   -0.0396332     0.3890236   -0.8353510     0.4000336   -0.8309386    -0.3414192   -0.0689184 
   5.830000000    -0.3330945   -0.0400435     0.3876850   -0.8359842     0.3981687   -0.8321440    -0.3378558   -0.0702623 
   5.832500000    -0.3296602   -0.0404139     0.3863142   -0.8368453     0.3966294   -0.8327377    -0.3346476   -0.0717384 
   5.835000000    -0.3265594   -0.0412745     0.3837459   -0.8375421     0.3945888   -0.8339296    -0.3312927   -0.0731294 
   5.837500000    -0.3233014   -0.0422954     0.3832091   -0.8379338     0.3938229   -0.8338969    -0.3278629   -0.0749943 
   5.840000000    -0.3198833   -0.0435894     0.3818884   -0.8382166     0.3921842   -0.8343698    -0.3245565   -0.0769494 
   5.842500000    -0.3166254   -0.0448766     0.3817798   -0.8389499     0.3912446   -0.8347964    -0.3210536   -0.0790831 
   5.845000000    -0.3137522   -0.0463209     0.3791209   -0.8406610     0.3887989   -0.8363547    -0.3179021   -0.0818565 
   5.847500000    -0.3104073   -0.0478521     0.3789074   -0.8409504     0.3888271   -0.8362122    -0.3143175   -0.0835014 
   5.850000000    -0.3076126   -0.0495002     0.3775593   -0.8422287     0.3869171   -0.8377281    -0.3109319   -0.0863192 
   5.852500000    -0.3045794   -0.0509380     0.3779120   -0.8419588     0.3876243   -0.8373933    -0.3072034   -0.0885286 
   5.855000000    -0.3020680   -0.0525879     0.3766333   -0.8440332     0.3856639   -0.8392921    -0.3041586   -0.0912309 
   5.857500000    -0.2990189   -0.0545703     0.3766452   -0.8448738     0.3864892   -0.8390348    -0.3005604   -0.0927831 
   5.860000000    -0.2967155   -0.0568162     0.3751935   -0.8465087     0.3853117   -0.8399525    -0.2974729   -0.0951158 
   5.862500000    -0.2946806   -0.0590227     0.3745619   -0.8480487     0.3845313   -0.8415368    -0.2939802   -0.0975884 
   5.865000000    -0.2925156   -0.0611702     0.3740315   -0.8490016     0.3850306   -0.8417944    -0.2902799   -0.1005923 
   5.867500000    -0.2903337   -0.0634929     0.3744445   -0.8499359     0.3849597   -0.8430759    -0.2859645   -0.1036901 
   5.870000000    -0.2883586   -0.0657455     0.3741358   -0.8511887     0.3841313   -0.8450353    -0.2822782   -0.1066341 
   5.872500000    -0.2860799   -0.0683861     0.3755102   -0.8517742     0.3848522   -0.8454987    -0.2783875   -0.1093051 
   5.875000000    -0.2843004   -0.0706673     0.3744675   -0.8535222     0.3846857   -0.8458465    -0.2756575   -0.1116532 
   5.877500000    -0.2828465   -0.0726737     0.3750431   -0.8540506     0.3842798   -0.8480335    -0.2724212   -0.1144733 
   5.880000000    -0.2817927   -0.0738821     0.3728229   -0.8562682     0.3839300   -0.8492027    -0.2697124   -0.1168282 
   5.882500000    -0.2805295   -0.0759947     0.3727056   -0.8571969     0.3843816   -0.8503286    -0.2666890   -0.1199528 
   5.885000000    -0.2793431   -0.0780336     0.3720435   -0.8588477     0.3811670   -0.8528547    -0.2641510   -0.1224434 
   5.887500000    -0.2787075   -0.0809257     0.3714568   -0.8601744     0.3836128   -0.8535045    -0.2614479   -0.1260226 
   5.890000000    -0.2781522   -0.0823359     0.3703544   -0.8618657     0.3795870   -0.8570470    -0.2592120   -0.1284268 
