! MS46122B
! 1919307/90821646
! 7/29/2022 12:47:03 PM
! C:\USERS\PC_\DESKTOP\MEDICIONES\BANCHA ESTRECHA\55_6GHZ\S11_S21_ABS8_1002CL.S2P
! CHANNEL.1
! TR.MEASUREMENT
! CORRECTED.DATA
# GHZ S RI R 50.0
! FREQ.GHZ         S11RE         S11IM         S21RE         S21IM         S12RE         S12IM         S22RE         S22IM         
!; PortSelection: Port_12
   5.500000000    -0.8267624    0.1804103    -0.1569443   -0.4921933    -0.1524621   -0.4931539    -0.7646314    0.1461308 
   5.502500000    -0.8259041    0.1806006    -0.1580043   -0.4930310    -0.1511998   -0.4927100    -0.7659774    0.1460422 
   5.505000000    -0.8263559    0.1817793    -0.1567672   -0.4931920    -0.1495352   -0.4920032    -0.7665285    0.1468174 
   5.507500000    -0.8266786    0.1822300    -0.1550755   -0.4931243    -0.1483356   -0.4916567    -0.7690820    0.1479080 
   5.510000000    -0.8273394    0.1827121    -0.1540604   -0.4927860    -0.1470930   -0.4916236    -0.7703425    0.1494710 
   5.512500000    -0.8282862    0.1838023    -0.1527098   -0.4928812    -0.1459346   -0.4916970    -0.7717971    0.1506759 
   5.515000000    -0.8288146    0.1850866    -0.1517305   -0.4933803    -0.1443040   -0.4915272    -0.7732946    0.1530148 
   5.517500000    -0.8289611    0.1858741    -0.1505074   -0.4933691    -0.1429947   -0.4916694    -0.7753847    0.1552398 
   5.520000000    -0.8294656    0.1873038    -0.1490580   -0.4934155    -0.1419336   -0.4922647    -0.7772921    0.1577399 
   5.522500000    -0.8299924    0.1884325    -0.1479507   -0.4936480    -0.1407437   -0.4927359    -0.7795536    0.1596510 
   5.525000000    -0.8299131    0.1899267    -0.1466053   -0.4943676    -0.1397084   -0.4927905    -0.7810237    0.1628472 
   5.527500000    -0.8306230    0.1910003    -0.1461138   -0.4940305    -0.1377360   -0.4935412    -0.7827556    0.1654620 
   5.530000000    -0.8304871    0.1927514    -0.1451367   -0.4949497    -0.1371534   -0.4939968    -0.7846125    0.1682737 
   5.532500000    -0.8305601    0.1941004    -0.1435179   -0.4954697    -0.1355744   -0.4941101    -0.7858313    0.1716653 
   5.535000000    -0.8308324    0.1949872    -0.1423690   -0.4958591    -0.1343350   -0.4947688    -0.7878533    0.1749611 
   5.537500000    -0.8308995    0.1968408    -0.1406904   -0.4961514    -0.1329159   -0.4952411    -0.7889517    0.1782716 
   5.540000000    -0.8315421    0.1980779    -0.1399771   -0.4965786    -0.1311635   -0.4958958    -0.7910125    0.1812001 
   5.542500000    -0.8315298    0.1994265    -0.1391721   -0.4972798    -0.1303888   -0.4966061    -0.7926867    0.1844275 
   5.545000000    -0.8312086    0.2000934    -0.1376764   -0.4977852    -0.1287072   -0.4974216    -0.7942902    0.1872491 
   5.547500000    -0.8306936    0.2011969    -0.1365627   -0.4981809    -0.1273269   -0.4981959    -0.7952059    0.1903304 
   5.550000000    -0.8302460    0.2023315    -0.1352563   -0.4988167    -0.1258882   -0.4986759    -0.7962698    0.1932943 
   5.552500000    -0.8306491    0.2030337    -0.1340803   -0.4993429    -0.1247994   -0.4992686    -0.7967641    0.1966775 
   5.555000000    -0.8317807    0.2035300    -0.1335765   -0.4997811    -0.1237070   -0.5002542    -0.7971789    0.1997212 
   5.557500000    -0.8322493    0.2044400    -0.1323645   -0.5001814    -0.1224363   -0.5008964    -0.7981059    0.2025586 
   5.560000000    -0.8309639    0.2052006    -0.1311043   -0.5004737    -0.1212965   -0.5019200    -0.7987210    0.2053592 
   5.562500000    -0.8291798    0.2064133    -0.1301012   -0.5009630    -0.1201643   -0.5026073    -0.7999820    0.2081754 
   5.565000000    -0.8295473    0.2075891    -0.1292439   -0.5015458    -0.1188916   -0.5035456    -0.8006982    0.2115088 
   5.567500000    -0.8303743    0.2069777    -0.1292536   -0.5023149    -0.1181616   -0.5041092    -0.8013005    0.2140502 
   5.570000000    -0.8300691    0.2061923    -0.1278208   -0.5029420    -0.1170111   -0.5052281    -0.8017387    0.2167940 
   5.572500000    -0.8298986    0.2074443    -0.1267284   -0.5036144    -0.1165230   -0.5061494    -0.8024185    0.2198399 
   5.575000000    -0.8298781    0.2083936    -0.1262506   -0.5045071    -0.1153205   -0.5067980    -0.8025264    0.2216428 
   5.577500000    -0.8300617    0.2094468    -0.1246911   -0.5053676    -0.1145291   -0.5080577    -0.8033960    0.2238030 
   5.580000000    -0.8298705    0.2096150    -0.1242092   -0.5061862    -0.1139982   -0.5089475    -0.8034981    0.2264893 
   5.582500000    -0.8295938    0.2103660    -0.1237857   -0.5072711    -0.1134500   -0.5101777    -0.8041106    0.2289159 
   5.585000000    -0.8295947    0.2108711    -0.1225600   -0.5083104    -0.1122278   -0.5113645    -0.8044767    0.2308215 
   5.587500000    -0.8297756    0.2110837    -0.1213786   -0.5093234    -0.1113169   -0.5126628    -0.8050746    0.2325408 
   5.590000000    -0.8300596    0.2118710    -0.1199017   -0.5104393    -0.1104171   -0.5138121    -0.8052225    0.2346131 
   5.592500000    -0.8303396    0.2127170    -0.1189504   -0.5114701    -0.1092772   -0.5147394    -0.8049523    0.2365626 
   5.595000000    -0.8301543    0.2130656    -0.1179056   -0.5122284    -0.1083195   -0.5160102    -0.8049395    0.2381581 
   5.597500000    -0.8300088    0.2142350    -0.1173879   -0.5135028    -0.1079096   -0.5168370    -0.8052461    0.2402648 
   5.600000000    -0.8302886    0.2142113    -0.1159138   -0.5143919    -0.1063132   -0.5183749    -0.8053056    0.2413556 
   5.602500000    -0.8301820    0.2147238    -0.1147128   -0.5155552    -0.1052610   -0.5194563    -0.8052409    0.2425790 
   5.605000000    -0.8304736    0.2152793    -0.1131681   -0.5168948    -0.1042221   -0.5206700    -0.8051573    0.2444349 
   5.607500000    -0.8303324    0.2165474    -0.1123754   -0.5177950    -0.1034566   -0.5219647    -0.8050681    0.2455301 
   5.610000000    -0.8302038    0.2173529    -0.1121245   -0.5189483    -0.1027459   -0.5231822    -0.8052562    0.2466912 
   5.612500000    -0.8301874    0.2179466    -0.1111995   -0.5204316    -0.1018768   -0.5244712    -0.8060243    0.2481958 
   5.615000000    -0.8301545    0.2187755    -0.1102852   -0.5219553    -0.1010279   -0.5257543    -0.8063322    0.2490198 
   5.617500000    -0.8296654    0.2200644    -0.1091634   -0.5232642    -0.1000706   -0.5268704    -0.8055211    0.2507101 
   5.620000000    -0.8289933    0.2221649    -0.1086157   -0.5245302    -0.0997020   -0.5282486    -0.8049021    0.2526040 
   5.622500000    -0.8289770    0.2235505    -0.1087748   -0.5257410    -0.0981200   -0.5295777    -0.8043545    0.2537574 
   5.625000000    -0.8284885    0.2249188    -0.1074074   -0.5278203    -0.0987054   -0.5310346    -0.8047451    0.2561958 
   5.627500000    -0.8275520    0.2261769    -0.1068303   -0.5295249    -0.0980573   -0.5326762    -0.8046204    0.2570165 
   5.630000000    -0.8270724    0.2275917    -0.1058698   -0.5314515    -0.0971412   -0.5342685    -0.8039814    0.2592932 
   5.632500000    -0.8269774    0.2302143    -0.1055038   -0.5331334    -0.0965136   -0.5359038    -0.8036252    0.2609201 
   5.635000000    -0.8255605    0.2327186    -0.1043066   -0.5349359    -0.0958569   -0.5377471    -0.8038097    0.2632806 
   5.637500000    -0.8250784    0.2346672    -0.1044698   -0.5364659    -0.0957194   -0.5396295    -0.8038812    0.2657845 
   5.640000000    -0.8244739    0.2367657    -0.1041641   -0.5390973    -0.0949715   -0.5414826    -0.8041181    0.2676689 
   5.642500000    -0.8237407    0.2387110    -0.1032376   -0.5410232    -0.0952627   -0.5435358    -0.8038884    0.2703499 
   5.645000000    -0.8235161    0.2416462    -0.1026361   -0.5430965    -0.0947194   -0.5457038    -0.8045040    0.2721201 
   5.647500000    -0.8231382    0.2439919    -0.1020144   -0.5452340    -0.0942370   -0.5477868    -0.8041162    0.2752688 
   5.650000000    -0.8220521    0.2467375    -0.1022420   -0.5466660    -0.0939869   -0.5499383    -0.8039873    0.2779768 
   5.652500000    -0.8211457    0.2495503    -0.1017007   -0.5486923    -0.0935741   -0.5523387    -0.8042080    0.2812887 
   5.655000000    -0.8205627    0.2511498    -0.1017082   -0.5514468    -0.0933508   -0.5545187    -0.8048574    0.2837575 
   5.657500000    -0.8201587    0.2535821    -0.1012500   -0.5535873    -0.0932841   -0.5567989    -0.8052845    0.2861134 
   5.660000000    -0.8192217    0.2556922    -0.1009299   -0.5555557    -0.0931400   -0.5589887    -0.8053435    0.2893659 
   5.662500000    -0.8180894    0.2576574    -0.1003247   -0.5575404    -0.0930503   -0.5611194    -0.8060749    0.2922778 
   5.665000000    -0.8168114    0.2600026    -0.1009495   -0.5589970    -0.0927948   -0.5633031    -0.8068212    0.2945693 
   5.667500000    -0.8156105    0.2614380    -0.1018246   -0.5616757    -0.0926633   -0.5654027    -0.8072331    0.2976169 
   5.670000000    -0.8145954    0.2634789    -0.1009890   -0.5643703    -0.0923621   -0.5677155    -0.8080763    0.2995053 
   5.672500000    -0.8133691    0.2653258    -0.1020508   -0.5661187    -0.0925856   -0.5699141    -0.8084505    0.3025457 
   5.675000000    -0.8119900    0.2672992    -0.1019142   -0.5689821    -0.0936933   -0.5721882    -0.8089503    0.3049882 
   5.677500000    -0.8103782    0.2694297    -0.1024492   -0.5708581    -0.0938904   -0.5747582    -0.8087339    0.3086095 
   5.680000000    -0.8090081    0.2709215    -0.1033546   -0.5728948    -0.0947740   -0.5768959    -0.8093632    0.3114954 
   5.682500000    -0.8075414    0.2735645    -0.1048231   -0.5756270    -0.0958010   -0.5788571    -0.8096680    0.3140273 
   5.685000000    -0.8053948    0.2756387    -0.1052592   -0.5776814    -0.0965214   -0.5813594    -0.8098275    0.3163072 
   5.687500000    -0.8040550    0.2778441    -0.1056625   -0.5801255    -0.0977814   -0.5837216    -0.8100139    0.3191372 
   5.690000000    -0.8025619    0.2795673    -0.1066020   -0.5825297    -0.0986404   -0.5862068    -0.8090506    0.3212830 
   5.692500000    -0.8008638    0.2812499    -0.1067307   -0.5849413    -0.0999562   -0.5885214    -0.8084689    0.3236248 
   5.695000000    -0.7993662    0.2828842    -0.1075891   -0.5872281    -0.1007434   -0.5908164    -0.8078380    0.3259827 
   5.697500000    -0.7983453    0.2840024    -0.1090930   -0.5894789    -0.1019490   -0.5933593    -0.8079527    0.3281094 
   5.700000000    -0.7970437    0.2851672    -0.1098146   -0.5916876    -0.1036670   -0.5955027    -0.8069547    0.3301694 
   5.702500000    -0.7952474    0.2857455    -0.1105842   -0.5937234    -0.1050443   -0.5980864    -0.8058803    0.3325219 
   5.705000000    -0.7937863    0.2868137    -0.1116656   -0.5956688    -0.1063052   -0.6003945    -0.8046895    0.3350058 
   5.707500000    -0.7918507    0.2875145    -0.1127080   -0.5973396    -0.1077500   -0.6026826    -0.8030824    0.3368785 
   5.710000000    -0.7903199    0.2885874    -0.1137085   -0.5993863    -0.1088025   -0.6044913    -0.8012434    0.3387378 
   5.712500000    -0.7886919    0.2890479    -0.1152392   -0.6011151    -0.1099027   -0.6062713    -0.7993998    0.3405176 
   5.715000000    -0.7865553    0.2905035    -0.1159506   -0.6027240    -0.1116869   -0.6084230    -0.7975640    0.3428473 
   5.717500000    -0.7846130    0.2907845    -0.1173799   -0.6044524    -0.1133639   -0.6100063    -0.7959276    0.3444307 
   5.720000000    -0.7825484    0.2911703    -0.1188906   -0.6059690    -0.1135804   -0.6121125    -0.7943932    0.3461772 
   5.722500000    -0.7801697    0.2914313    -0.1187218   -0.6077369    -0.1160820   -0.6132101    -0.7925282    0.3478715 
   5.725000000    -0.7781315    0.2917269    -0.1213443   -0.6089456    -0.1164814   -0.6146398    -0.7900043    0.3490047 
   5.727500000    -0.7756905    0.2921406    -0.1220282   -0.6105111    -0.1182996   -0.6160583    -0.7874206    0.3495366 
   5.730000000    -0.7738796    0.2922896    -0.1238690   -0.6126526    -0.1195445   -0.6177304    -0.7850150    0.3501740 
   5.732500000    -0.7714817    0.2926097    -0.1249640   -0.6142960    -0.1213591   -0.6190534    -0.7823368    0.3515131 
   5.735000000    -0.7694618    0.2930731    -0.1265094   -0.6160352    -0.1235185   -0.6205214    -0.7795951    0.3526123 
   5.737500000    -0.7673988    0.2938851    -0.1286380   -0.6176617    -0.1244731   -0.6222638    -0.7766189    0.3530446 
   5.740000000    -0.7654832    0.2941342    -0.1297007   -0.6202506    -0.1263658   -0.6241056    -0.7735461    0.3532590 
   5.742500000    -0.7634349    0.2942915    -0.1309553   -0.6223353    -0.1278014   -0.6257292    -0.7702532    0.3537098 
   5.745000000    -0.7614420    0.2944415    -0.1317395   -0.6244892    -0.1297983   -0.6274129    -0.7664405    0.3543644 
   5.747500000    -0.7593064    0.2954706    -0.1336608   -0.6257101    -0.1318655   -0.6288344    -0.7637169    0.3550436 
   5.750000000    -0.7574351    0.2961751    -0.1354856   -0.6277526    -0.1327991   -0.6306189    -0.7603479    0.3557354 
   5.752500000    -0.7552887    0.2963201    -0.1369870   -0.6303881    -0.1343687   -0.6326886    -0.7571710    0.3551455 
   5.755000000    -0.7532470    0.2965270    -0.1380391   -0.6324446    -0.1362666   -0.6344340    -0.7537438    0.3558137 
   5.757500000    -0.7509887    0.2962858    -0.1394791   -0.6339607    -0.1365341   -0.6364121    -0.7506554    0.3552141 
   5.760000000    -0.7487800    0.2972923    -0.1405585   -0.6357437    -0.1387440   -0.6385087    -0.7480012    0.3553760 
   5.762500000    -0.7469281    0.2975708    -0.1426200   -0.6377566    -0.1401168   -0.6404471    -0.7457830    0.3549766 
   5.765000000    -0.7453238    0.2980654    -0.1442527   -0.6395944    -0.1414745   -0.6420026    -0.7430563    0.3543372 
   5.767500000    -0.7427816    0.2982375    -0.1461160   -0.6413089    -0.1429328   -0.6440322    -0.7407786    0.3543457 
   5.770000000    -0.7406903    0.2989567    -0.1471773   -0.6431716    -0.1457897   -0.6457937    -0.7379921    0.3539492 
   5.772500000    -0.7391887    0.2996836    -0.1505216   -0.6444160    -0.1453285   -0.6474598    -0.7357080    0.3532018 
   5.775000000    -0.7356353    0.3012657    -0.1532213   -0.6461023    -0.1488215   -0.6488551    -0.7332426    0.3526666 
   5.777500000    -0.7333603    0.3019868    -0.1548939   -0.6475562    -0.1511389   -0.6504746    -0.7312329    0.3528309 
   5.780000000    -0.7310871    0.3027869    -0.1576774   -0.6491105    -0.1542560   -0.6521115    -0.7293122    0.3530892 
   5.782500000    -0.7292835    0.3040395    -0.1601417   -0.6506502    -0.1569887   -0.6537318    -0.7277974    0.3523718 
   5.785000000    -0.7272332    0.3055596    -0.1625952   -0.6523232    -0.1595372   -0.6550213    -0.7260721    0.3517030 
   5.787500000    -0.7251132    0.3064466    -0.1650880   -0.6538826    -0.1625435   -0.6562837    -0.7243744    0.3511972 
   5.790000000    -0.7224618    0.3075671    -0.1691632   -0.6550792    -0.1652803   -0.6579958    -0.7226364    0.3500638 
   5.792500000    -0.7196375    0.3086548    -0.1718843   -0.6566208    -0.1681313   -0.6594359    -0.7205591    0.3502297 
   5.795000000    -0.7169541    0.3102844    -0.1739123   -0.6579757    -0.1710793   -0.6605672    -0.7188329    0.3495146 
   5.797500000    -0.7146642    0.3119086    -0.1773750   -0.6590775    -0.1742484   -0.6618888    -0.7171145    0.3489116 
   5.800000000    -0.7118260    0.3127477    -0.1805950   -0.6598425    -0.1778852   -0.6627997    -0.7154961    0.3482640 
   5.802500000    -0.7090198    0.3143209    -0.1830484   -0.6612332    -0.1801740   -0.6635388    -0.7139329    0.3472727 
   5.805000000    -0.7065880    0.3150614    -0.1868219   -0.6621180    -0.1827855   -0.6644839    -0.7124053    0.3468420 
   5.807500000    -0.7035599    0.3166937    -0.1893512   -0.6627861    -0.1863086   -0.6648025    -0.7108922    0.3454454 
   5.810000000    -0.7006363    0.3174465    -0.1924397   -0.6631305    -0.1883220   -0.6651728    -0.7089817    0.3446730 
   5.812500000    -0.6967956    0.3187872    -0.1945111   -0.6631908    -0.1909374   -0.6652438    -0.7070166    0.3433140 
   5.815000000    -0.6939205    0.3195825    -0.1974746   -0.6631705    -0.1954617   -0.6650112    -0.7050512    0.3429808 
   5.817500000    -0.6906133    0.3197754    -0.2001942   -0.6628270    -0.1977919   -0.6651756    -0.7029390    0.3412815 
   5.820000000    -0.6873091    0.3204345    -0.2026619   -0.6631339    -0.2006766   -0.6647662    -0.7008291    0.3405625 
   5.822500000    -0.6836102    0.3206955    -0.2042840   -0.6626726    -0.2043090   -0.6635780    -0.6990041    0.3396267 
   5.825000000    -0.6802197    0.3207384    -0.2091983   -0.6617581    -0.2032322   -0.6639876    -0.6974458    0.3371989 
   5.827500000    -0.6766307    0.3211581    -0.2108978   -0.6615472    -0.2076568   -0.6620407    -0.6953538    0.3361309 
   5.830000000    -0.6723989    0.3209030    -0.2128965   -0.6607500    -0.2107972   -0.6616907    -0.6925968    0.3344184 
   5.832500000    -0.6682633    0.3204602    -0.2155547   -0.6600786    -0.2129737   -0.6606946    -0.6899130    0.3329686 
   5.835000000    -0.6643002    0.3205300    -0.2187820   -0.6589043    -0.2159688   -0.6593106    -0.6874321    0.3311763 
   5.837500000    -0.6608514    0.3198684    -0.2214642   -0.6587819    -0.2173889   -0.6582841    -0.6844471    0.3297838 
   5.840000000    -0.6576412    0.3184801    -0.2228905   -0.6587477    -0.2194659   -0.6574087    -0.6824293    0.3277776 
   5.842500000    -0.6543298    0.3174693    -0.2247811   -0.6581710    -0.2210378   -0.6568591    -0.6800435    0.3255863 
   5.845000000    -0.6512931    0.3163179    -0.2267129   -0.6576723    -0.2237058   -0.6562236    -0.6771769    0.3239554 
   5.847500000    -0.6485317    0.3148655    -0.2295855   -0.6577060    -0.2250848   -0.6558471    -0.6751281    0.3225237 
   5.850000000    -0.6456813    0.3140334    -0.2314307   -0.6570783    -0.2279205   -0.6548324    -0.6731217    0.3206233 
   5.852500000    -0.6430470    0.3122738    -0.2331248   -0.6569178    -0.2279387   -0.6547804    -0.6711733    0.3183125 
   5.855000000    -0.6408628    0.3105724    -0.2348421   -0.6571189    -0.2305292   -0.6548202    -0.6694036    0.3166038 
   5.857500000    -0.6387005    0.3083435    -0.2366990   -0.6571112    -0.2312656   -0.6549149    -0.6674777    0.3148470 
   5.860000000    -0.6367790    0.3068317    -0.2384053   -0.6579295    -0.2330916   -0.6547155    -0.6656487    0.3138810 
   5.862500000    -0.6352769    0.3051772    -0.2413838   -0.6572799    -0.2350505   -0.6552832    -0.6633574    0.3124206 
   5.865000000    -0.6344403    0.3028183    -0.2427707   -0.6577193    -0.2349276   -0.6558965    -0.6608448    0.3099310 
   5.867500000    -0.6336966    0.3006518    -0.2446423   -0.6577884    -0.2381031   -0.6561248    -0.6584480    0.3073455 
   5.870000000    -0.6328672    0.2988437    -0.2472016   -0.6584414    -0.2401379   -0.6565186    -0.6562698    0.3052080 
   5.872500000    -0.6320212    0.2974122    -0.2494559   -0.6578357    -0.2422482   -0.6563526    -0.6541798    0.3035434 
   5.875000000    -0.6311514    0.2962704    -0.2521092   -0.6582983    -0.2440559   -0.6558514    -0.6523959    0.3028868 
   5.877500000    -0.6302576    0.2953147    -0.2545983   -0.6574218    -0.2483702   -0.6556795    -0.6501194    0.3009379 
   5.880000000    -0.6295721    0.2946075    -0.2565777   -0.6574782    -0.2510897   -0.6553031    -0.6480087    0.2995673 
   5.882500000    -0.6286857    0.2936057    -0.2611331   -0.6566811    -0.2530876   -0.6553757    -0.6454129    0.2985365 
   5.885000000    -0.6280093    0.2928636    -0.2627150   -0.6568539    -0.2558814   -0.6551388    -0.6436253    0.2961673 
   5.887500000    -0.6274707    0.2915753    -0.2671441   -0.6558281    -0.2588697   -0.6546668    -0.6412954    0.2939908 
   5.890000000    -0.6277350    0.2908395    -0.2681512   -0.6560839    -0.2621725   -0.6534281    -0.6396401    0.2920215 
