! MS46122B
! 1919307/90821646
! 5/18/2022 2:34:26 PM
! C:\USERS\PC_\DESKTOP\CARACTERIZACION\MEDICIONES\S11_S21_ABS8_1002CL.S2P
! CHANNEL.1
! TR.MEASUREMENT
! CORRECTED.DATA
# GHZ S RI R 50.0
! FREQ.GHZ         S11RE         S11IM         S21RE         S21IM         S12RE         S12IM         S22RE         S22IM         
!; PortSelection: Port_12
   4.950000000    -0.8560007    0.0733669    -0.0489040   -0.5039666    -0.0533290   -0.5240484    -0.8623103    0.0909278 
   4.957564576    -0.8570966    0.0760516    -0.0480812   -0.5039211    -0.0525951   -0.5232959    -0.8593895    0.0956687 
   4.965129151    -0.8605821    0.0758748    -0.0477456   -0.5026672    -0.0518307   -0.5219469    -0.8568648    0.1025112 
   4.972693727    -0.8627560    0.0763473    -0.0457123   -0.5009407    -0.0510344   -0.5207735    -0.8542714    0.1112439 
   4.980258303    -0.8635802    0.0762976    -0.0443575   -0.4994344    -0.0502925   -0.5187469    -0.8511648    0.1212767 
   4.987822878    -0.8633888    0.0768814    -0.0408149   -0.4986784    -0.0493237   -0.5168512    -0.8474240    0.1327043 
   4.995387454    -0.8628049    0.0775117    -0.0376432   -0.4995837    -0.0484560   -0.5154909    -0.8439668    0.1431049 
   5.002952030    -0.8613253    0.0776429    -0.0344324   -0.5017453    -0.0473373   -0.5138891    -0.8407883    0.1536825 
   5.010516605    -0.8584024    0.0782074    -0.0307092   -0.5048087    -0.0464362   -0.5126262    -0.8377654    0.1621804 
   5.018081181    -0.8551002    0.0774144    -0.0293194   -0.5078928    -0.0455952   -0.5104620    -0.8336915    0.1702825 
   5.025645756    -0.8516169    0.0779585    -0.0275101   -0.5110263    -0.0449590   -0.5092911    -0.8297917    0.1769597 
   5.033210332    -0.8479514    0.0794247    -0.0277716   -0.5145590    -0.0440933   -0.5070612    -0.8270606    0.1818124 
   5.040774908    -0.8457435    0.0825512    -0.0271580   -0.5176319    -0.0430669   -0.5066011    -0.8253920    0.1850688 
   5.048339483    -0.8436260    0.0857330    -0.0278544   -0.5214025    -0.0419789   -0.5055024    -0.8240317    0.1870149 
   5.055904059    -0.8429139    0.0895603    -0.0270772   -0.5252203    -0.0407052   -0.5059478    -0.8244213    0.1871138 
   5.063468635    -0.8429965    0.0932427    -0.0273211   -0.5298759    -0.0393741   -0.5069519    -0.8257463    0.1858090 
   5.071033210    -0.8432317    0.0983194    -0.0273105   -0.5335499    -0.0389044   -0.5083798    -0.8274100    0.1843241 
   5.078597786    -0.8438752    0.1021553    -0.0287006   -0.5374488    -0.0388094   -0.5108795    -0.8293530    0.1819365 
   5.086162362    -0.8432038    0.1065556    -0.0320757   -0.5413526    -0.0399215   -0.5133208    -0.8317075    0.1798530 
   5.093726937    -0.8436628    0.1105592    -0.0345604   -0.5448342    -0.0415648   -0.5166037    -0.8339213    0.1771404 
   5.101291513    -0.8443498    0.1134441    -0.0374201   -0.5480835    -0.0427002   -0.5199994    -0.8356543    0.1741736 
   5.108856089    -0.8450010    0.1158281    -0.0394565   -0.5509614    -0.0438186   -0.5237824    -0.8364716    0.1723433 
   5.116420664    -0.8449476    0.1177162    -0.0407847   -0.5538314    -0.0450840   -0.5273808    -0.8377951    0.1718005 
   5.123985240    -0.8438812    0.1199345    -0.0411030   -0.5564741    -0.0462175   -0.5316277    -0.8376618    0.1720608 
   5.131549815    -0.8409717    0.1211320    -0.0418840   -0.5600211    -0.0484381   -0.5361424    -0.8374836    0.1735158 
   5.139114391    -0.8365974    0.1226553    -0.0425761   -0.5635123    -0.0506850   -0.5410864    -0.8369348    0.1748753 
   5.146678967    -0.8318895    0.1255874    -0.0442531   -0.5684671    -0.0534476   -0.5462525    -0.8351203    0.1766421 
   5.154243542    -0.8251809    0.1284381    -0.0459702   -0.5727758    -0.0561433   -0.5512959    -0.8303429    0.1771280 
   5.161808118    -0.8187217    0.1298245    -0.0473834   -0.5788386    -0.0575190   -0.5558348    -0.8257992    0.1794211 
   5.169372694    -0.8113976    0.1302187    -0.0499252   -0.5838959    -0.0588017   -0.5602084    -0.8201472    0.1822294 
   5.176937269    -0.8040603    0.1312691    -0.0530775   -0.5904036    -0.0590211   -0.5636883    -0.8146177    0.1855449 
   5.184501845    -0.7963190    0.1313178    -0.0573972   -0.5960857    -0.0588924   -0.5676849    -0.8083366    0.1894944 
   5.192066421    -0.7898986    0.1299140    -0.0627743   -0.6017017    -0.0587273   -0.5732383    -0.8039997    0.1932115 
   5.199630996    -0.7863136    0.1289686    -0.0702011   -0.6069601    -0.0593320   -0.5808548    -0.7992812    0.1956660 
   5.207195572    -0.7840478    0.1283623    -0.0787830   -0.6115910    -0.0606982   -0.5889735    -0.7938201    0.1984077 
   5.214760148    -0.7848741    0.1279642    -0.0873787   -0.6144463    -0.0648142   -0.5973869    -0.7865212    0.2002665 
   5.222324723    -0.7845128    0.1282056    -0.0974652   -0.6150639    -0.0702405   -0.6044376    -0.7797143    0.1991800 
   5.229889299    -0.7847595    0.1279543    -0.1064777   -0.6138376    -0.0771585   -0.6107635    -0.7756941    0.1971606 
   5.237453875    -0.7844993    0.1290587    -0.1139646   -0.6113588    -0.0846750   -0.6137613    -0.7727006    0.1943844 
   5.245018450    -0.7836276    0.1309768    -0.1210151   -0.6083923    -0.0930320   -0.6157620    -0.7731993    0.1941603 
   5.252583026    -0.7833914    0.1338121    -0.1278099   -0.6061902    -0.1006292   -0.6159191    -0.7758211    0.1958662 
   5.260147601    -0.7783685    0.1374322    -0.1334522   -0.6032176    -0.1069058   -0.6147147    -0.7776433    0.1980760 
   5.267712177    -0.7752623    0.1398038    -0.1379819   -0.5999283    -0.1125047   -0.6130404    -0.7793340    0.1997850 
   5.275276753    -0.7678657    0.1401063    -0.1409795   -0.5959856    -0.1164639   -0.6094024    -0.7796331    0.2003593 
   5.282841328    -0.7615092    0.1372963    -0.1437506   -0.5919792    -0.1194546   -0.6052204    -0.7807666    0.1991816 
   5.290405904    -0.7565571    0.1323795    -0.1444581   -0.5886219    -0.1203278   -0.6018941    -0.7831936    0.1955098 
   5.297970480    -0.7520066    0.1269954    -0.1462027   -0.5866008    -0.1213290   -0.5993645    -0.7859913    0.1915207 
   5.305535055    -0.7514248    0.1225428    -0.1489841   -0.5861777    -0.1223546   -0.5980245    -0.7894392    0.1865095 
   5.313099631    -0.7536584    0.1197903    -0.1518001   -0.5877990    -0.1247305   -0.5978975    -0.7936386    0.1814139 
   5.320664207    -0.7568305    0.1187177    -0.1569593   -0.5891930    -0.1278726   -0.5981109    -0.7977441    0.1755131 
   5.328228782    -0.7612682    0.1191472    -0.1639964   -0.5890660    -0.1332958   -0.5984531    -0.8010513    0.1689320 
   5.335793358    -0.7637117    0.1193914    -0.1708655   -0.5859238    -0.1403450   -0.5966238    -0.8040572    0.1606939 
   5.343357934    -0.7664278    0.1208619    -0.1784073   -0.5812547    -0.1480023   -0.5938286    -0.8055021    0.1536962 
   5.350922509    -0.7702103    0.1208294    -0.1854573   -0.5744919    -0.1547534   -0.5883119    -0.8053909    0.1490086 
   5.358487085    -0.7740381    0.1226457    -0.1904699   -0.5682070    -0.1630666   -0.5814167    -0.8043997    0.1455111 
   5.366051661    -0.7780375    0.1241243    -0.1943145   -0.5609570    -0.1687188   -0.5749645    -0.8014638    0.1458738 
   5.373616236    -0.7831953    0.1261787    -0.1962179   -0.5538505    -0.1736166   -0.5676141    -0.7978594    0.1461594 
   5.381180812    -0.7870256    0.1287679    -0.1962022   -0.5455374    -0.1769008   -0.5616429    -0.7942397    0.1486180 
   5.388745387    -0.7911971    0.1302725    -0.1953557   -0.5375279    -0.1787811   -0.5554659    -0.7901570    0.1537798 
   5.396309963    -0.7945023    0.1297738    -0.1929301   -0.5301238    -0.1808581   -0.5505077    -0.7862161    0.1589640 
   5.403874539    -0.7972665    0.1297231    -0.1892943   -0.5225436    -0.1821321   -0.5450634    -0.7814779    0.1670090 
   5.411439114    -0.8016375    0.1298372    -0.1838724   -0.5174709    -0.1842770   -0.5402593    -0.7772392    0.1733522 
   5.419003690    -0.8056373    0.1305498    -0.1786934   -0.5141269    -0.1855404   -0.5366683    -0.7738050    0.1797838 
   5.426568266    -0.8099501    0.1314302    -0.1728674   -0.5137201    -0.1873195   -0.5333821    -0.7720554    0.1842295 
   5.434132841    -0.8125353    0.1327177    -0.1698612   -0.5144774    -0.1882641   -0.5308775    -0.7727537    0.1887074 
   5.441697417    -0.8140876    0.1335411    -0.1675168   -0.5157259    -0.1896263   -0.5283806    -0.7755109    0.1929499 
   5.449261993    -0.8145387    0.1333936    -0.1667829   -0.5156575    -0.1911316   -0.5244611    -0.7791683    0.1964954 
   5.456826568    -0.8144827    0.1327869    -0.1676621   -0.5142539    -0.1923697   -0.5201226    -0.7831828    0.1981092 
   5.464391144    -0.8146358    0.1318243    -0.1687244   -0.5120004    -0.1929205   -0.5151630    -0.7867844    0.1988354 
   5.471955720    -0.8167305    0.1306386    -0.1673399   -0.5093132    -0.1905211   -0.5108723    -0.7899501    0.1963729 
   5.479520295    -0.8181756    0.1296463    -0.1646089   -0.5059251    -0.1868108   -0.5072679    -0.7927383    0.1919046 
   5.487084871    -0.8203937    0.1302951    -0.1613109   -0.5036671    -0.1813632   -0.5053989    -0.7944667    0.1860137 
   5.494649446    -0.8224435    0.1312168    -0.1571818   -0.5011352    -0.1758341   -0.5040568    -0.7964417    0.1793517 
   5.502214022    -0.8256508    0.1327548    -0.1523866   -0.4998944    -0.1691990   -0.5041937    -0.7993415    0.1735782 
   5.509778598    -0.8288984    0.1350279    -0.1478537   -0.4984899    -0.1636519   -0.5049136    -0.8018800    0.1702998 
   5.517343173    -0.8331240    0.1386166    -0.1438409   -0.4985269    -0.1582574   -0.5061954    -0.8036819    0.1709648 
   5.524907749    -0.8367081    0.1437669    -0.1397580   -0.4979461    -0.1522491   -0.5078830    -0.8043715    0.1736539 
   5.532472325    -0.8396644    0.1497343    -0.1348853   -0.4990070    -0.1481527   -0.5096394    -0.8042054    0.1780954 
   5.540036900    -0.8428080    0.1553502    -0.1301469   -0.4990861    -0.1424295   -0.5116681    -0.8045714    0.1859855 
   5.547601476    -0.8432934    0.1609181    -0.1249025   -0.5000038    -0.1373058   -0.5132290    -0.8037497    0.1940139 
   5.555166052    -0.8453084    0.1656145    -0.1194936   -0.5013372    -0.1327776   -0.5143898    -0.8021684    0.2042710 
   5.562730627    -0.8418491    0.1706118    -0.1134606   -0.5029437    -0.1274157   -0.5155950    -0.8002889    0.2152742 
   5.570295203    -0.8412985    0.1716894    -0.1091254   -0.5057638    -0.1228013   -0.5163332    -0.7987727    0.2270907 
   5.577859779    -0.8390436    0.1766003    -0.1024192   -0.5102701    -0.1195030   -0.5167239    -0.7974906    0.2381749 
   5.585424354    -0.8363413    0.1789253    -0.0986619   -0.5153629    -0.1149798   -0.5178104    -0.7965194    0.2492621 
   5.592988930    -0.8341987    0.1816124    -0.0932437   -0.5208345    -0.1101980   -0.5186731    -0.7955484    0.2592645 
   5.600553506    -0.8316765    0.1837132    -0.0891231   -0.5270467    -0.1056590   -0.5199592    -0.7946922    0.2673780 
   5.608118081    -0.8294247    0.1871750    -0.0859022   -0.5331676    -0.1004254   -0.5213792    -0.7934852    0.2741831 
   5.615682657    -0.8272018    0.1896980    -0.0835364   -0.5405934    -0.0960549   -0.5232710    -0.7942868    0.2786917 
   5.623247232    -0.8245045    0.1950491    -0.0816175   -0.5480050    -0.0928232   -0.5258760    -0.7921776    0.2836716 
   5.630811808    -0.8225577    0.2007555    -0.0820638   -0.5557137    -0.0878131   -0.5296236    -0.7913464    0.2865925 
   5.638376384    -0.8206491    0.2073958    -0.0821185   -0.5635519    -0.0859970   -0.5345597    -0.7914988    0.2902532 
   5.645940959    -0.8202583    0.2149392    -0.0827886   -0.5718532    -0.0844828   -0.5405530    -0.7921925    0.2927120 
   5.653505535    -0.8192611    0.2229137    -0.0851234   -0.5789266    -0.0833032   -0.5471631    -0.7930033    0.2970792 
   5.661070111    -0.8191491    0.2301840    -0.0860124   -0.5853304    -0.0830500   -0.5535424    -0.7945946    0.2997329 
   5.668634686    -0.8177104    0.2364002    -0.0880409   -0.5914099    -0.0830819   -0.5597466    -0.7969994    0.3024694 
   5.676199262    -0.8156452    0.2435056    -0.0908165   -0.5973701    -0.0844112   -0.5655301    -0.7990637    0.3054851 
   5.683763838    -0.8130462    0.2509387    -0.0940473   -0.6039241    -0.0864842   -0.5719222    -0.8007879    0.3079171 
   5.691328413    -0.8095270    0.2581383    -0.0952769   -0.6107312    -0.0894454   -0.5795385    -0.8017090    0.3105035 
   5.698892989    -0.8058507    0.2644212    -0.0982808   -0.6175709    -0.0925522   -0.5868251    -0.8028361    0.3127247 
   5.706457565    -0.8005519    0.2690435    -0.1004638   -0.6239669    -0.0959427   -0.5954963    -0.8020904    0.3157908 
   5.714022140    -0.7939134    0.2738333    -0.1033641   -0.6306491    -0.0992377   -0.6025460    -0.7990823    0.3190242 
   5.721586716    -0.7854962    0.2767301    -0.1070725   -0.6368538    -0.1019773   -0.6102368    -0.7982541    0.3225390 
   5.729151292    -0.7755167    0.2795993    -0.1108687   -0.6432998    -0.1069685   -0.6171548    -0.7945245    0.3252478 
   5.736715867    -0.7662267    0.2816463    -0.1161951   -0.6511369    -0.1112419   -0.6245424    -0.7884315    0.3298346 
   5.744280443    -0.7563024    0.2825289    -0.1214226   -0.6595239    -0.1161512   -0.6334276    -0.7807085    0.3341078 
   5.751845018    -0.7472026    0.2834502    -0.1286540   -0.6675981    -0.1209667   -0.6422088    -0.7721041    0.3391110 
   5.759409594    -0.7387322    0.2825066    -0.1348216   -0.6748118    -0.1257418   -0.6521326    -0.7618319    0.3430693 
   5.766974170    -0.7312750    0.2822432    -0.1437961   -0.6814365    -0.1306555   -0.6607537    -0.7511014    0.3456827 
   5.774538745    -0.7235777    0.2829577    -0.1541387   -0.6864409    -0.1379392   -0.6688708    -0.7392035    0.3473107 
   5.782103321    -0.7171584    0.2831577    -0.1650332   -0.6898749    -0.1468621   -0.6761007    -0.7282786    0.3497314 
   5.789667897    -0.7108912    0.2838087    -0.1770075   -0.6928862    -0.1570242   -0.6814776    -0.7172160    0.3505652 
   5.797232472    -0.7045887    0.2857368    -0.1883018   -0.6947051    -0.1658295   -0.6866494    -0.7063779    0.3524897 
   5.804797048    -0.6988369    0.2859218    -0.1994247   -0.6954110    -0.1753824   -0.6900551    -0.6973792    0.3538898 
   5.812361624    -0.6913487    0.2866289    -0.2082461   -0.6942734    -0.1820227   -0.6919788    -0.6884473    0.3544458 
   5.819926199    -0.6845859    0.2858728    -0.2174395   -0.6918615    -0.1899557   -0.6928069    -0.6799642    0.3566042 
   5.827490775    -0.6765436    0.2848020    -0.2258688   -0.6885904    -0.1947064   -0.6917824    -0.6734322    0.3569300 
   5.835055351    -0.6674832    0.2818181    -0.2334641   -0.6841516    -0.2016456   -0.6911207    -0.6658486    0.3578774 
   5.842619926    -0.6607884    0.2779404    -0.2398046   -0.6815151    -0.2055273   -0.6913112    -0.6601952    0.3576472 
   5.850184502    -0.6550165    0.2748152    -0.2475786   -0.6784310    -0.2110520   -0.6919007    -0.6566102    0.3572160 
   5.857749077    -0.6501747    0.2704677    -0.2533102   -0.6773046    -0.2143850   -0.6943027    -0.6554593    0.3562388 
   5.865313653    -0.6459630    0.2663996    -0.2585788   -0.6755341    -0.2183350   -0.6966195    -0.6541426    0.3531056 
   5.872878229    -0.6434242    0.2623433    -0.2668580   -0.6739916    -0.2229277   -0.7000394    -0.6533872    0.3472364 
   5.880442804    -0.6394689    0.2616003    -0.2714165   -0.6725510    -0.2366111   -0.7003258    -0.6545854    0.3417605 
   5.888007380    -0.6348303    0.2586859    -0.2821132   -0.6689574    -0.2452522   -0.6998338    -0.6581174    0.3323586 
   5.895571956    -0.6315820    0.2552213    -0.2892814   -0.6655079    -0.2534076   -0.6979455    -0.6635665    0.3246276 
   5.903136531    -0.6293446    0.2515464    -0.2964465   -0.6625009    -0.2658483   -0.6934593    -0.6685831    0.3176321 
   5.910701107    -0.6292183    0.2480428    -0.3029374   -0.6578666    -0.2757079   -0.6874213    -0.6734706    0.3098479 
   5.918265683    -0.6309891    0.2441339    -0.3094545   -0.6522248    -0.2843226   -0.6802372    -0.6772221    0.3028238 
   5.925830258    -0.6347798    0.2412214    -0.3162034   -0.6448863    -0.2894090   -0.6729767    -0.6796051    0.2958932 
   5.933394834    -0.6374914    0.2385120    -0.3195928   -0.6385601    -0.2996147   -0.6628250    -0.6788002    0.2910661 
   5.940959410    -0.6411744    0.2358910    -0.3248226   -0.6300950    -0.3029336   -0.6542245    -0.6757751    0.2859783 
   5.948523985    -0.6452125    0.2345747    -0.3279940   -0.6220908    -0.3080393   -0.6455930    -0.6710051    0.2808209 
   5.956088561    -0.6497325    0.2320129    -0.3292142   -0.6138435    -0.3126858   -0.6375820    -0.6656210    0.2770967 
   5.963653137    -0.6540493    0.2315488    -0.3289138   -0.6064861    -0.3173233   -0.6300759    -0.6585191    0.2750962 
   5.971217712    -0.6588810    0.2313331    -0.3291357   -0.5992392    -0.3203636   -0.6232835    -0.6506782    0.2742697 
   5.978782288    -0.6632308    0.2314471    -0.3267185   -0.5928854    -0.3236190   -0.6158810    -0.6440504    0.2745343 
   5.986346863    -0.6669745    0.2312073    -0.3257126   -0.5871356    -0.3256651   -0.6097006    -0.6386510    0.2753705 
   5.993911439    -0.6695565    0.2310652    -0.3232499   -0.5824645    -0.3269876   -0.6039707    -0.6358432    0.2756442 
   6.001476015    -0.6715668    0.2304971    -0.3225975   -0.5785682    -0.3307438   -0.5976424    -0.6343409    0.2785409 
   6.009040590    -0.6736321    0.2298574    -0.3209143   -0.5749172    -0.3347484   -0.5919440    -0.6335827    0.2807751 
   6.016605166    -0.6761191    0.2277184    -0.3193029   -0.5718807    -0.3369537   -0.5866911    -0.6347988    0.2831267 
   6.024169742    -0.6785868    0.2258841    -0.3178809   -0.5684332    -0.3390335   -0.5808145    -0.6362397    0.2862100 
   6.031734317    -0.6814465    0.2229598    -0.3157382   -0.5658506    -0.3400040   -0.5756737    -0.6385958    0.2880118 
   6.039298893    -0.6845378    0.2196467    -0.3148236   -0.5629672    -0.3393435   -0.5705944    -0.6426756    0.2881666 
   6.046863469    -0.6881202    0.2157244    -0.3129011   -0.5600573    -0.3373169   -0.5660697    -0.6463343    0.2850300 
   6.054428044    -0.6912199    0.2130855    -0.3109117   -0.5577839    -0.3383578   -0.5601469    -0.6517183    0.2804565 
   6.061992620    -0.6953216    0.2117469    -0.3104493   -0.5551821    -0.3353248   -0.5574737    -0.6567898    0.2740475 
   6.069557196    -0.6992090    0.2099621    -0.3096680   -0.5531111    -0.3330342   -0.5555935    -0.6597353    0.2677388 
   6.077121771    -0.7032439    0.2107009    -0.3071853   -0.5510175    -0.3307593   -0.5533674    -0.6619366    0.2614437 
   6.084686347    -0.7063465    0.2113108    -0.3058239   -0.5489846    -0.3273903   -0.5524552    -0.6653214    0.2558217 
   6.092250923    -0.7092231    0.2151197    -0.3022412   -0.5464224    -0.3237571   -0.5508406    -0.6662956    0.2518831 
   6.099815498    -0.7121891    0.2184733    -0.3000296   -0.5437333    -0.3195846   -0.5496885    -0.6676951    0.2496464 
   6.107380074    -0.7143729    0.2244511    -0.2961816   -0.5419437    -0.3161234   -0.5479302    -0.6670784    0.2496076 
   6.114944649    -0.7168010    0.2306701    -0.2931488   -0.5400153    -0.3119169   -0.5472749    -0.6665566    0.2526447 
   6.122509225    -0.7193524    0.2362081    -0.2892807   -0.5392683    -0.3070402   -0.5474654    -0.6662657    0.2573634 
   6.130073801    -0.7204897    0.2436271    -0.2847628   -0.5392983    -0.3026743   -0.5472739    -0.6653199    0.2645828 
