! MS46122B
! 1919307/90821646
! 7/29/2022 1:09:27 PM
! C:\USERS\PC_\DESKTOP\MEDICIONES\BANCHA ESTRECHA\55_6GHZ\S11_S21_ABS15_502CL.S2P
! CHANNEL.1
! TR.MEASUREMENT
! CORRECTED.DATA
# GHZ S RI R 50.0
! FREQ.GHZ         S11RE         S11IM         S21RE         S21IM         S12RE         S12IM         S22RE         S22IM         
!; PortSelection: Port_12
   5.500000000    -0.7530042    0.2103987    -0.1921302   -0.5482121    -0.1877081   -0.5489897    -0.7188166    0.1182946 
   5.502500000    -0.7519297    0.2107318    -0.1933324   -0.5491334    -0.1865123   -0.5485043    -0.7194507    0.1187937 
   5.505000000    -0.7521764    0.2120931    -0.1920097   -0.5495217    -0.1847358   -0.5480592    -0.7203479    0.1195969 
   5.507500000    -0.7528185    0.2128783    -0.1904326   -0.5495912    -0.1836114   -0.5481189    -0.7221416    0.1208902 
   5.510000000    -0.7534283    0.2137451    -0.1894980   -0.5493050    -0.1827474   -0.5481807    -0.7237480    0.1225002 
   5.512500000    -0.7542752    0.2154918    -0.1884845   -0.5495336    -0.1813748   -0.5483237    -0.7250077    0.1243843 
   5.515000000    -0.7548261    0.2170441    -0.1875800   -0.5502977    -0.1796086   -0.5480334    -0.7261685    0.1267850 
   5.517500000    -0.7551388    0.2182741    -0.1864303   -0.5504459    -0.1788250   -0.5485785    -0.7282007    0.1297259 
   5.520000000    -0.7554055    0.2202473    -0.1849310   -0.5506336    -0.1777522   -0.5491816    -0.7296271    0.1319037 
   5.522500000    -0.7558397    0.2216243    -0.1843093   -0.5512637    -0.1765081   -0.5499483    -0.7317097    0.1341145 
   5.525000000    -0.7555470    0.2238529    -0.1826794   -0.5518815    -0.1758140   -0.5500857    -0.7325084    0.1376008 
   5.527500000    -0.7562824    0.2250860    -0.1830912   -0.5521360    -0.1738088   -0.5510058    -0.7340915    0.1403365 
   5.530000000    -0.7559637    0.2272855    -0.1814058   -0.5527094    -0.1733418   -0.5516698    -0.7356502    0.1435125 
   5.532500000    -0.7560810    0.2291397    -0.1800652   -0.5533637    -0.1719436   -0.5521060    -0.7368450    0.1469791 
   5.535000000    -0.7561098    0.2308019    -0.1789053   -0.5539826    -0.1707453   -0.5528352    -0.7383344    0.1502661 
   5.537500000    -0.7560793    0.2328312    -0.1774799   -0.5545512    -0.1693833   -0.5534921    -0.7393047    0.1539639 
   5.540000000    -0.7565534    0.2347288    -0.1768377   -0.5552027    -0.1680770   -0.5544683    -0.7409334    0.1570987 
   5.542500000    -0.7567021    0.2360640    -0.1760384   -0.5560436    -0.1671378   -0.5557069    -0.7422222    0.1605410 
   5.545000000    -0.7562031    0.2374440    -0.1747928   -0.5566012    -0.1657763   -0.5566716    -0.7432888    0.1637654 
   5.547500000    -0.7555601    0.2389813    -0.1739751   -0.5571213    -0.1641927   -0.5576158    -0.7440521    0.1670046 
   5.550000000    -0.7549074    0.2406718    -0.1728075   -0.5579138    -0.1631223   -0.5581141    -0.7443660    0.1699009 
   5.552500000    -0.7554857    0.2415027    -0.1717252   -0.5586076    -0.1624198   -0.5594237    -0.7447149    0.1740016 
   5.555000000    -0.7564744    0.2428757    -0.1712854   -0.5591954    -0.1615310   -0.5600204    -0.7449199    0.1769422 
   5.557500000    -0.7566952    0.2438085    -0.1703249   -0.5597904    -0.1603044   -0.5608510    -0.7453296    0.1799742 
   5.560000000    -0.7551426    0.2454725    -0.1693235   -0.5600632    -0.1592923   -0.5617947    -0.7457103    0.1830070 
   5.562500000    -0.7533808    0.2466414    -0.1685077   -0.5608939    -0.1581503   -0.5626963    -0.7464464    0.1860198 
   5.565000000    -0.7534909    0.2485679    -0.1677249   -0.5614963    -0.1576210   -0.5640808    -0.7465891    0.1892154 
   5.567500000    -0.7539811    0.2481514    -0.1680210   -0.5622717    -0.1561815   -0.5647323    -0.7470307    0.1920454 
   5.570000000    -0.7537032    0.2479647    -0.1668013   -0.5633206    -0.1556504   -0.5657060    -0.7469838    0.1951368 
   5.572500000    -0.7533395    0.2493490    -0.1657480   -0.5640683    -0.1552421   -0.5668508    -0.7472053    0.1981204 
   5.575000000    -0.7530150    0.2510690    -0.1654359   -0.5652047    -0.1543264   -0.5677087    -0.7469113    0.2005293 
   5.577500000    -0.7532156    0.2524221    -0.1639903   -0.5661584    -0.1538915   -0.5693040    -0.7472408    0.2027956 
   5.580000000    -0.7528608    0.2534649    -0.1644276   -0.5673842    -0.1534631   -0.5705014    -0.7470281    0.2055855 
   5.582500000    -0.7521370    0.2546699    -0.1635413   -0.5683572    -0.1529637   -0.5718178    -0.7472215    0.2080750 
   5.585000000    -0.7522170    0.2553785    -0.1624654   -0.5698132    -0.1520996   -0.5729674    -0.7471641    0.2102584 
   5.587500000    -0.7521116    0.2562603    -0.1616728   -0.5709331    -0.1514864   -0.5744178    -0.7470900    0.2122092 
   5.590000000    -0.7521325    0.2575484    -0.1601871   -0.5723566    -0.1505674   -0.5758782    -0.7467269    0.2144197 
   5.592500000    -0.7519873    0.2589777    -0.1593817   -0.5734509    -0.1496226   -0.5773642    -0.7460572    0.2165848 
   5.595000000    -0.7517239    0.2598625    -0.1591087   -0.5747185    -0.1488986   -0.5790694    -0.7452085    0.2187831 
   5.597500000    -0.7515208    0.2611339    -0.1582616   -0.5759804    -0.1487986   -0.5798073    -0.7449376    0.2204373 
   5.600000000    -0.7515650    0.2617568    -0.1569375   -0.5770552    -0.1474076   -0.5816737    -0.7448818    0.2216523 
   5.602500000    -0.7508230    0.2629178    -0.1559968   -0.5783383    -0.1465048   -0.5829045    -0.7445817    0.2234542 
   5.605000000    -0.7507244    0.2640639    -0.1547318   -0.5800020    -0.1455407   -0.5843592    -0.7435434    0.2257425 
   5.607500000    -0.7503088    0.2657806    -0.1539364   -0.5811260    -0.1449498   -0.5858225    -0.7433999    0.2268677 
   5.610000000    -0.7499915    0.2669108    -0.1542318   -0.5825940    -0.1445984   -0.5872024    -0.7428764    0.2279885 
   5.612500000    -0.7495556    0.2682601    -0.1533455   -0.5841728    -0.1440941   -0.5888447    -0.7429057    0.2295090 
   5.615000000    -0.7490828    0.2696586    -0.1528668   -0.5858498    -0.1434566   -0.5904027    -0.7425649    0.2315225 
   5.617500000    -0.7485547    0.2717263    -0.1519273   -0.5874594    -0.1428092   -0.5918619    -0.7418054    0.2327977 
   5.620000000    -0.7474174    0.2738541    -0.1518916   -0.5890412    -0.1425798   -0.5933045    -0.7407261    0.2349365 
   5.622500000    -0.7468556    0.2757967    -0.1524837   -0.5904344    -0.1411591   -0.5947489    -0.7395819    0.2364001 
   5.625000000    -0.7458374    0.2778710    -0.1510087   -0.5928605    -0.1428077   -0.5961546    -0.7391065    0.2387868 
   5.627500000    -0.7445442    0.2797171    -0.1508094   -0.5945790    -0.1421042   -0.5981404    -0.7379835    0.2406010 
   5.630000000    -0.7438482    0.2821138    -0.1504342   -0.5967575    -0.1414671   -0.6002223    -0.7372273    0.2425703 
   5.632500000    -0.7425495    0.2851003    -0.1502737   -0.5987854    -0.1412775   -0.6021034    -0.7366450    0.2442893 
   5.635000000    -0.7416515    0.2876358    -0.1494363   -0.6009478    -0.1405116   -0.6041992    -0.7358825    0.2462027 
   5.637500000    -0.7406751    0.2902405    -0.1506815   -0.6031159    -0.1412256   -0.6062154    -0.7356537    0.2494267 
   5.640000000    -0.7393503    0.2928987    -0.1499582   -0.6055341    -0.1411555   -0.6081032    -0.7354288    0.2513565 
   5.642500000    -0.7382433    0.2954593    -0.1496193   -0.6076017    -0.1416709   -0.6106163    -0.7344958    0.2541955 
   5.645000000    -0.7374201    0.2988190    -0.1492450   -0.6098655    -0.1414662   -0.6130649    -0.7337759    0.2562896 
   5.647500000    -0.7357885    0.3022440    -0.1492866   -0.6123567    -0.1413175   -0.6153182    -0.7329879    0.2586800 
   5.650000000    -0.7343753    0.3051152    -0.1498575   -0.6140867    -0.1413031   -0.6177383    -0.7327440    0.2618204 
   5.652500000    -0.7331241    0.3081378    -0.1503197   -0.6166825    -0.1413715   -0.6202711    -0.7320722    0.2654425 
   5.655000000    -0.7319297    0.3102475    -0.1500740   -0.6190182    -0.1419989   -0.6229169    -0.7321332    0.2675492 
   5.657500000    -0.7306842    0.3133394    -0.1500443   -0.6213460    -0.1421527   -0.6251141    -0.7317904    0.2705722 
   5.660000000    -0.7291694    0.3156070    -0.1504010   -0.6233051    -0.1424204   -0.6275567    -0.7314329    0.2734063 
   5.662500000    -0.7271914    0.3185454    -0.1502459   -0.6256747    -0.1428792   -0.6297196    -0.7312335    0.2759892 
   5.665000000    -0.7249825    0.3211107    -0.1514580   -0.6274872    -0.1429472   -0.6319305    -0.7312078    0.2789611 
   5.667500000    -0.7230404    0.3228813    -0.1526967   -0.6300679    -0.1432858   -0.6342382    -0.7311991    0.2814854 
   5.670000000    -0.7215323    0.3252366    -0.1524480   -0.6328097    -0.1437642   -0.6366734    -0.7312106    0.2837554 
   5.672500000    -0.7191591    0.3276636    -0.1541417   -0.6348985    -0.1442448   -0.6391649    -0.7310008    0.2864871 
   5.675000000    -0.7173322    0.3297848    -0.1544350   -0.6376769    -0.1461139   -0.6413203    -0.7305402    0.2889813 
   5.677500000    -0.7148511    0.3319794    -0.1554511   -0.6395589    -0.1466884   -0.6436548    -0.7297717    0.2923679 
   5.680000000    -0.7126350    0.3346052    -0.1576052   -0.6419833    -0.1481339   -0.6456547    -0.7297789    0.2950738 
   5.682500000    -0.7099094    0.3370639    -0.1588009   -0.6444721    -0.1501480   -0.6484017    -0.7290085    0.2977839 
   5.685000000    -0.7070969    0.3395023    -0.1597934   -0.6466280    -0.1509297   -0.6509202    -0.7286222    0.2995093 
   5.687500000    -0.7049531    0.3417227    -0.1611238   -0.6490977    -0.1529014   -0.6530155    -0.7281093    0.3022275 
   5.690000000    -0.7025799    0.3440354    -0.1623408   -0.6514945    -0.1543779   -0.6551534    -0.7265542    0.3042332 
   5.692500000    -0.6999568    0.3455950    -0.1629901   -0.6538287    -0.1561913   -0.6573257    -0.7250908    0.3064278 
   5.695000000    -0.6977034    0.3473267    -0.1653089   -0.6562029    -0.1575065   -0.6597066    -0.7239088    0.3085150 
   5.697500000    -0.6956997    0.3489189    -0.1664355   -0.6583003    -0.1598190   -0.6626499    -0.7228950    0.3100531 
   5.700000000    -0.6932861    0.3500808    -0.1676368   -0.6605248    -0.1614614   -0.6649153    -0.7214500    0.3124768 
   5.702500000    -0.6908296    0.3505785    -0.1690796   -0.6627498    -0.1633774   -0.6671571    -0.7197878    0.3141185 
   5.705000000    -0.6881129    0.3516519    -0.1706169   -0.6643254    -0.1654319   -0.6691944    -0.7178333    0.3164965 
   5.707500000    -0.6853206    0.3527114    -0.1729009   -0.6660113    -0.1673878   -0.6713393    -0.7157868    0.3177562 
   5.710000000    -0.6824716    0.3538196    -0.1741713   -0.6676753    -0.1690331   -0.6731965    -0.7132537    0.3194052 
   5.712500000    -0.6799456    0.3546726    -0.1759097   -0.6700223    -0.1708412   -0.6749733    -0.7103752    0.3211745 
   5.715000000    -0.6770717    0.3554592    -0.1772220   -0.6717815    -0.1727412   -0.6766376    -0.7081028    0.3225721 
   5.717500000    -0.6742263    0.3559325    -0.1788666   -0.6732904    -0.1749586   -0.6783251    -0.7056878    0.3236919 
   5.720000000    -0.6712202    0.3563493    -0.1810235   -0.6745383    -0.1755631   -0.6801908    -0.7030420    0.3253562 
   5.722500000    -0.6682693    0.3569149    -0.1820346   -0.6763785    -0.1787219   -0.6809063    -0.7008197    0.3267868 
   5.725000000    -0.6653965    0.3570364    -0.1847116   -0.6773465    -0.1797484   -0.6825137    -0.6979687    0.3272711 
   5.727500000    -0.6619890    0.3571689    -0.1860883   -0.6787693    -0.1822148   -0.6834056    -0.6947663    0.3276346 
   5.730000000    -0.6591226    0.3574098    -0.1883565   -0.6803133    -0.1836803   -0.6848280    -0.6921654    0.3278999 
   5.732500000    -0.6558100    0.3575811    -0.1897846   -0.6819604    -0.1859451   -0.6861859    -0.6888589    0.3288642 
   5.735000000    -0.6527230    0.3582470    -0.1926489   -0.6843770    -0.1885167   -0.6873497    -0.6857711    0.3294663 
   5.737500000    -0.6498493    0.3586759    -0.1948890   -0.6851439    -0.1904670   -0.6890846    -0.6822502    0.3293941 
   5.740000000    -0.6468933    0.3588915    -0.1965770   -0.6870760    -0.1929673   -0.6907163    -0.6786720    0.3291836 
   5.742500000    -0.6439875    0.3588887    -0.1983112   -0.6889133    -0.1946978   -0.6920430    -0.6745163    0.3292306 
   5.745000000    -0.6408686    0.3592991    -0.1996133   -0.6909381    -0.1975035   -0.6934914    -0.6708031    0.3294639 
   5.747500000    -0.6381578    0.3602841    -0.2024487   -0.6929734    -0.1996148   -0.6947581    -0.6676745    0.3299300 
   5.750000000    -0.6353418    0.3606647    -0.2048824   -0.6940777    -0.2013153   -0.6966902    -0.6640297    0.3300038 
   5.752500000    -0.6324304    0.3608093    -0.2066775   -0.6959282    -0.2036260   -0.6981930    -0.6599896    0.3296939 
   5.755000000    -0.6292945    0.3610997    -0.2081568   -0.6975849    -0.2055493   -0.6993719    -0.6565242    0.3295753 
   5.757500000    -0.6264735    0.3615186    -0.2100839   -0.6990975    -0.2070950   -0.7011943    -0.6531129    0.3289261 
   5.760000000    -0.6233134    0.3618842    -0.2123249   -0.7012534    -0.2090714   -0.7030683    -0.6499965    0.3286499 
   5.762500000    -0.6203740    0.3621856    -0.2148760   -0.7021516    -0.2111537   -0.7046968    -0.6469572    0.3279632 
   5.765000000    -0.6173967    0.3624471    -0.2167247   -0.7036508    -0.2130575   -0.7058188    -0.6438178    0.3268639 
   5.767500000    -0.6140575    0.3626696    -0.2191075   -0.7050495    -0.2148586   -0.7072715    -0.6404372    0.3267009 
   5.770000000    -0.6108849    0.3638054    -0.2202035   -0.7065697    -0.2183191   -0.7086685    -0.6376758    0.3254678 
   5.772500000    -0.6077241    0.3641784    -0.2249390   -0.7071564    -0.2180197   -0.7100479    -0.6350136    0.3244155 
   5.775000000    -0.6041560    0.3649640    -0.2274583   -0.7083669    -0.2221913   -0.7107567    -0.6324377    0.3236822 
   5.777500000    -0.6008188    0.3654265    -0.2290704   -0.7094999    -0.2252389   -0.7121605    -0.6295760    0.3228712 
   5.780000000    -0.5973316    0.3659932    -0.2324881   -0.7105675    -0.2284232   -0.7132602    -0.6273586    0.3221075 
   5.782500000    -0.5941997    0.3666265    -0.2352460   -0.7115628    -0.2314101   -0.7140611    -0.6256948    0.3216983 
   5.785000000    -0.5913873    0.3679107    -0.2379929   -0.7122355    -0.2344095   -0.7150467    -0.6233844    0.3206127 
   5.787500000    -0.5879112    0.3688078    -0.2416155   -0.7132503    -0.2378323   -0.7156832    -0.6211025    0.3194805 
   5.790000000    -0.5841170    0.3693583    -0.2454136   -0.7137098    -0.2412495   -0.7167400    -0.6186867    0.3181004 
   5.792500000    -0.5801399    0.3698332    -0.2485213   -0.7152748    -0.2437392   -0.7177429    -0.6164403    0.3168277 
   5.795000000    -0.5765868    0.3707575    -0.2512096   -0.7163374    -0.2477997   -0.7186634    -0.6147360    0.3161195 
   5.797500000    -0.5732124    0.3720195    -0.2543578   -0.7164505    -0.2505817   -0.7192777    -0.6125830    0.3149545 
   5.800000000    -0.5695133    0.3727193    -0.2575679   -0.7162867    -0.2542987   -0.7196102    -0.6106865    0.3135720 
   5.802500000    -0.5658853    0.3730872    -0.2608986   -0.7173544    -0.2570337   -0.7194881    -0.6090896    0.3120691 
   5.805000000    -0.5623434    0.3736116    -0.2644433   -0.7173625    -0.2599698   -0.7196938    -0.6074831    0.3113006 
   5.807500000    -0.5581519    0.3741839    -0.2674753   -0.7177588    -0.2633113   -0.7195203    -0.6055834    0.3089436 
   5.810000000    -0.5543135    0.3742931    -0.2705638   -0.7178771    -0.2658117   -0.7194247    -0.6033176    0.3081062 
   5.812500000    -0.5499155    0.3743645    -0.2723415   -0.7175157    -0.2688138   -0.7191473    -0.6016400    0.3062965 
   5.815000000    -0.5458084    0.3742930    -0.2751395   -0.7163482    -0.2716003   -0.7183511    -0.5993241    0.3052798 
   5.817500000    -0.5424095    0.3742591    -0.2782845   -0.7152144    -0.2749866   -0.7175005    -0.5971761    0.3031046 
   5.820000000    -0.5377296    0.3740453    -0.2812769   -0.7149447    -0.2767738   -0.7164406    -0.5948932    0.3014789 
   5.822500000    -0.5331309    0.3729551    -0.2821471   -0.7144660    -0.2805538   -0.7148196    -0.5932332    0.3003303 
   5.825000000    -0.5292139    0.3719778    -0.2860963   -0.7130196    -0.2790675   -0.7149611    -0.5909405    0.2973763 
   5.827500000    -0.5248780    0.3712104    -0.2875205   -0.7125310    -0.2837181   -0.7126568    -0.5890145    0.2956011 
   5.830000000    -0.5200526    0.3698510    -0.2893805   -0.7112283    -0.2854354   -0.7116184    -0.5860541    0.2933461 
   5.832500000    -0.5155204    0.3686541    -0.2921806   -0.7107978    -0.2882829   -0.7099773    -0.5829449    0.2915637 
   5.835000000    -0.5111583    0.3673363    -0.2950069   -0.7083867    -0.2899147   -0.7087430    -0.5801614    0.2896733 
   5.837500000    -0.5072230    0.3652582    -0.2974557   -0.7074481    -0.2916801   -0.7075003    -0.5777565    0.2873442 
   5.840000000    -0.5034523    0.3627854    -0.2987549   -0.7069353    -0.2929492   -0.7067178    -0.5754067    0.2848439 
   5.842500000    -0.4997071    0.3605392    -0.3001977   -0.7064543    -0.2948479   -0.7058188    -0.5731410    0.2822280 
   5.845000000    -0.4959940    0.3584448    -0.3031020   -0.7060478    -0.2968539   -0.7051149    -0.5708199    0.2798440 
   5.847500000    -0.4927684    0.3559095    -0.3039337   -0.7058387    -0.2988449   -0.7048427    -0.5683126    0.2774633 
   5.850000000    -0.4898987    0.3536406    -0.3066425   -0.7046994    -0.2999042   -0.7044333    -0.5663115    0.2750901 
   5.852500000    -0.4872822    0.3508475    -0.3066849   -0.7049184    -0.3007325   -0.7045324    -0.5644740    0.2723096 
   5.855000000    -0.4846981    0.3484450    -0.3092093   -0.7052522    -0.3034873   -0.7043494    -0.5627335    0.2701569 
   5.857500000    -0.4824615    0.3456693    -0.3112168   -0.7051398    -0.3047149   -0.7043381    -0.5606006    0.2681354 
   5.860000000    -0.4804722    0.3428411    -0.3132891   -0.7050206    -0.3049234   -0.7046199    -0.5587583    0.2655425 
   5.862500000    -0.4788047    0.3407562    -0.3152336   -0.7045362    -0.3088153   -0.7047519    -0.5565451    0.2637079 
   5.865000000    -0.4771758    0.3379036    -0.3170070   -0.7044904    -0.3073831   -0.7055283    -0.5538790    0.2609465 
   5.867500000    -0.4759582    0.3351405    -0.3179716   -0.7052984    -0.3115471   -0.7054212    -0.5513774    0.2585833 
   5.870000000    -0.4747414    0.3323196    -0.3198261   -0.7056001    -0.3122733   -0.7060350    -0.5492445    0.2553028 
   5.872500000    -0.4735945    0.3296901    -0.3217361   -0.7051460    -0.3141788   -0.7059881    -0.5472793    0.2528906 
   5.875000000    -0.4725644    0.3275126    -0.3241021   -0.7058364    -0.3160479   -0.7055722    -0.5451668    0.2510846 
   5.877500000    -0.4713608    0.3252625    -0.3264993   -0.7050249    -0.3191669   -0.7058743    -0.5432972    0.2486694 
   5.880000000    -0.4700757    0.3234674    -0.3294730   -0.7054586    -0.3232508   -0.7053609    -0.5406291    0.2471373 
   5.882500000    -0.4693441    0.3218574    -0.3332937   -0.7050210    -0.3239823   -0.7062145    -0.5387225    0.2442404 
   5.885000000    -0.4685260    0.3193698    -0.3343126   -0.7057478    -0.3293254   -0.7047306    -0.5368511    0.2419483 
   5.887500000    -0.4681278    0.3169529    -0.3390800   -0.7042601    -0.3310680   -0.7049761    -0.5345068    0.2386639 
   5.890000000    -0.4678784    0.3150502    -0.3400254   -0.7048178    -0.3358613   -0.7035266    -0.5328531    0.2361065 
