! MS46122B
! 1919307/90821646
! 7/29/2022 3:00:59 PM
! C:\USERS\PC_\DESKTOP\MEDICIONES\BANCHA ESTRECHA\5_55GHZ\S11_S21_ABS15_502CL.S2P
! CHANNEL.1
! TR.MEASUREMENT
! CORRECTED.DATA
# GHZ S RI R 50.0
! FREQ.GHZ         S11RE         S11IM         S21RE         S21IM         S12RE         S12IM         S22RE         S22IM         
!; PortSelection: Port_12
   5.000000000    -0.8089526    0.1041179    -0.0372585   -0.5308554     0.0095359   -0.5519960    -0.7801678    0.1471917 
   5.002500000    -0.8107731    0.1018633    -0.0403738   -0.5276510     0.0088532   -0.5537788    -0.7802567    0.1483097 
   5.005000000    -0.8115190    0.1004884    -0.0402423   -0.5272849     0.0087386   -0.5554788    -0.7805501    0.1495558 
   5.007500000    -0.8121995    0.0993379    -0.0392831   -0.5269424     0.0085861   -0.5567583    -0.7809852    0.1496501 
   5.010000000    -0.8131063    0.0985674    -0.0384103   -0.5267832     0.0088256   -0.5581729    -0.7805228    0.1498011 
   5.012500000    -0.8138528    0.0974689    -0.0374963   -0.5266147     0.0093412   -0.5595928    -0.7807791    0.1505675 
   5.015000000    -0.8144972    0.0964885    -0.0368504   -0.5259700     0.0092237   -0.5608804    -0.7806397    0.1507844 
   5.017500000    -0.8147265    0.0954481    -0.0366849   -0.5257603     0.0088262   -0.5622997    -0.7806343    0.1509257 
   5.020000000    -0.8153571    0.0946853    -0.0352797   -0.5253599     0.0087759   -0.5634842    -0.7804893    0.1520012 
   5.022500000    -0.8158188    0.0941175    -0.0346448   -0.5249664     0.0081708   -0.5645275    -0.7797972    0.1521384 
   5.025000000    -0.8156434    0.0935431    -0.0335405   -0.5245025     0.0080729   -0.5655963    -0.7796605    0.1519855 
   5.027500000    -0.8156189    0.0929295    -0.0333599   -0.5239080     0.0079734   -0.5664026    -0.7796550    0.1525505 
   5.030000000    -0.8158024    0.0923854    -0.0320450   -0.5234715     0.0075522   -0.5674762    -0.7790648    0.1524844 
   5.032500000    -0.8158774    0.0922172    -0.0315843   -0.5235078     0.0071151   -0.5688531    -0.7795498    0.1524738 
   5.035000000    -0.8159055    0.0927642    -0.0304904   -0.5229448     0.0065032   -0.5695546    -0.7797439    0.1527088 
   5.037500000    -0.8160983    0.0924620    -0.0294111   -0.5226364     0.0065402   -0.5700200    -0.7799773    0.1532221 
   5.040000000    -0.8164421    0.0926149    -0.0285101   -0.5225751     0.0058351   -0.5709757    -0.7804731    0.1538360 
   5.042500000    -0.8164839    0.0922749    -0.0275896   -0.5225961     0.0057816   -0.5719910    -0.7802716    0.1542556 
   5.045000000    -0.8165076    0.0917382    -0.0268934   -0.5229166     0.0057695   -0.5724881    -0.7804421    0.1551940 
   5.047500000    -0.8172545    0.0920338    -0.0253203   -0.5230446     0.0052286   -0.5737397    -0.7815242    0.1558750 
   5.050000000    -0.8173853    0.0913777    -0.0239181   -0.5234328     0.0054801   -0.5749642    -0.7823282    0.1563704 
   5.052500000    -0.8177229    0.0913322    -0.0224568   -0.5236095     0.0052417   -0.5755892    -0.7827749    0.1569906 
   5.055000000    -0.8179777    0.0910237    -0.0203894   -0.5242908     0.0051642   -0.5767794    -0.7827518    0.1585882 
   5.057500000    -0.8186299    0.0908831    -0.0194063   -0.5247262     0.0055611   -0.5781183    -0.7834142    0.1589348 
   5.060000000    -0.8188368    0.0906307    -0.0180185   -0.5255013     0.0055468   -0.5792612    -0.7842242    0.1599874 
   5.062500000    -0.8192011    0.0902260    -0.0166303   -0.5260543     0.0054568   -0.5803534    -0.7847559    0.1611328 
   5.065000000    -0.8195484    0.0899150    -0.0145271   -0.5266275     0.0056454   -0.5815164    -0.7852916    0.1619801 
   5.067500000    -0.8198590    0.0901285    -0.0132292   -0.5272371     0.0053948   -0.5828604    -0.7852815    0.1634677 
   5.070000000    -0.8200663    0.0906230    -0.0111232   -0.5279508     0.0052784   -0.5839006    -0.7859540    0.1647053 
   5.072500000    -0.8202001    0.0901683    -0.0092135   -0.5287039     0.0048204   -0.5854507    -0.7863671    0.1655996 
   5.075000000    -0.8206398    0.0900438    -0.0092186   -0.5298198     0.0062035   -0.5869367    -0.7866909    0.1668528 
   5.077500000    -0.8210021    0.0900891    -0.0071149   -0.5309703     0.0049730   -0.5884566    -0.7869982    0.1680730 
   5.080000000    -0.8210149    0.0907366    -0.0060486   -0.5321965     0.0044062   -0.5903416    -0.7878320    0.1695202 
   5.082500000    -0.8206798    0.0912698    -0.0044037   -0.5334833     0.0040536   -0.5918221    -0.7878862    0.1711703 
   5.085000000    -0.8207826    0.0917046    -0.0044360   -0.5351337     0.0034152   -0.5937544    -0.7884248    0.1725757 
   5.087500000    -0.8205908    0.0919782    -0.0027989   -0.5368257     0.0027080   -0.5956808    -0.7891032    0.1738308 
   5.090000000    -0.8206953    0.0930652    -0.0018555   -0.5383693     0.0019985   -0.5976339    -0.7899722    0.1755259 
   5.092500000    -0.8207241    0.0936902    -0.0007026   -0.5402503     0.0011346   -0.5997225    -0.7901338    0.1766984 
   5.095000000    -0.8204221    0.0945299     0.0001091   -0.5422727     0.0001343   -0.6019018    -0.7904542    0.1773231 
   5.097500000    -0.8198644    0.0952422    -0.0001739   -0.5445369    -0.0008108   -0.6037476    -0.7906364    0.1788901 
   5.100000000    -0.8190904    0.0955950     0.0007960   -0.5466858    -0.0014125   -0.6061496    -0.7913763    0.1802436 
   5.102500000    -0.8187887    0.0957202     0.0016951   -0.5489948    -0.0024636   -0.6084285    -0.7917393    0.1815771 
   5.105000000    -0.8180929    0.0962313     0.0024146   -0.5509216    -0.0035500   -0.6105908    -0.7917768    0.1832519 
   5.107500000    -0.8175930    0.0965840     0.0029442   -0.5530289    -0.0048621   -0.6127904    -0.7920067    0.1848515 
   5.110000000    -0.8164507    0.0964845     0.0019966   -0.5555118    -0.0053365   -0.6144235    -0.7923136    0.1863444 
   5.112500000    -0.8150875    0.0973889     0.0029225   -0.5574427    -0.0071040   -0.6165426    -0.7931509    0.1883528 
   5.115000000    -0.8138140    0.0968401     0.0028231   -0.5593892    -0.0086451   -0.6185817    -0.7933256    0.1909444 
   5.117500000    -0.8123314    0.0967894     0.0031326   -0.5613726    -0.0104634   -0.6202406    -0.7937832    0.1925202 
   5.120000000    -0.8110027    0.0962491     0.0037704   -0.5633657    -0.0125956   -0.6217457    -0.7936972    0.1945540 
   5.122500000    -0.8092936    0.0957815     0.0031518   -0.5646300    -0.0147190   -0.6231096    -0.7928892    0.1970496 
   5.125000000    -0.8074897    0.0957587     0.0022034   -0.5665649    -0.0165598   -0.6244216    -0.7926317    0.1992699 
   5.127500000    -0.8056094    0.0950158     0.0024735   -0.5680323    -0.0186767   -0.6257751    -0.7919801    0.2013238 
   5.130000000    -0.8035401    0.0944765     0.0023857   -0.5696662    -0.0204706   -0.6270323    -0.7916569    0.2036917 
   5.132500000    -0.8011151    0.0943454     0.0022618   -0.5711282    -0.0233138   -0.6286508    -0.7910677    0.2063143 
   5.135000000    -0.7989367    0.0937069     0.0019303   -0.5724313    -0.0257492   -0.6294530    -0.7912255    0.2082114 
   5.137500000    -0.7972617    0.0930410     0.0012073   -0.5737115    -0.0277429   -0.6305099    -0.7900295    0.2103933 
   5.140000000    -0.7954400    0.0921652     0.0014107   -0.5747004    -0.0297085   -0.6313382    -0.7894862    0.2128891 
   5.142500000    -0.7945489    0.0922176     0.0005694   -0.5766569    -0.0318756   -0.6323082    -0.7881157    0.2143432 
   5.145000000    -0.7933607    0.0920897     0.0009822   -0.5778605    -0.0342406   -0.6330587    -0.7867356    0.2163515 
   5.147500000    -0.7913095    0.0923480     0.0001184   -0.5790463    -0.0360429   -0.6340418    -0.7842475    0.2185887 
   5.150000000    -0.7893807    0.0923088     0.0017601   -0.5801647    -0.0393628   -0.6342847    -0.7823626    0.2184519 
   5.152500000    -0.7881185    0.0917311     0.0007114   -0.5805213    -0.0409795   -0.6346907    -0.7803209    0.2190858 
   5.155000000    -0.7865320    0.0910199     0.0016338   -0.5819369    -0.0425846   -0.6350812    -0.7774855    0.2205533 
   5.157500000    -0.7851067    0.0909688     0.0017140   -0.5836478    -0.0442771   -0.6354578    -0.7755642    0.2213950 
   5.160000000    -0.7839341    0.0908869     0.0026552   -0.5849349    -0.0457003   -0.6355448    -0.7725572    0.2224870 
   5.162500000    -0.7827320    0.0911307     0.0034071   -0.5858616    -0.0471734   -0.6358383    -0.7695925    0.2231283 
   5.165000000    -0.7815396    0.0908096     0.0043813   -0.5871170    -0.0483174   -0.6358521    -0.7662956    0.2235578 
   5.167500000    -0.7798291    0.0910207     0.0058343   -0.5886493    -0.0494707   -0.6355472    -0.7631773    0.2241898 
   5.170000000    -0.7782890    0.0916531     0.0065894   -0.5906172    -0.0509763   -0.6352398    -0.7596233    0.2246424 
   5.172500000    -0.7767484    0.0920621     0.0078848   -0.5929416    -0.0521630   -0.6343545    -0.7568495    0.2251601 
   5.175000000    -0.7751261    0.0936067     0.0094781   -0.5944524    -0.0529188   -0.6341677    -0.7536990    0.2251177 
   5.177500000    -0.7733514    0.0945849     0.0108147   -0.5969026    -0.0539489   -0.6336858    -0.7506949    0.2246280 
   5.180000000    -0.7714410    0.0954586     0.0128644   -0.5993986    -0.0545059   -0.6329445    -0.7471521    0.2241423 
   5.182500000    -0.7694520    0.0964889     0.0136140   -0.6024382    -0.0551508   -0.6324462    -0.7442397    0.2232642 
   5.185000000    -0.7674910    0.0980793     0.0150683   -0.6058093    -0.0553734   -0.6323854    -0.7419446    0.2223304 
   5.187500000    -0.7649800    0.0992116     0.0157626   -0.6096318    -0.0566019   -0.6319538    -0.7407836    0.2215871 
   5.190000000    -0.7627705    0.1006232     0.0157933   -0.6135473    -0.0558414   -0.6327009    -0.7383224    0.2196412 
   5.192500000    -0.7599217    0.1009900     0.0168595   -0.6175224    -0.0565248   -0.6326821    -0.7376513    0.2179040 
   5.195000000    -0.7575465    0.1025384     0.0168493   -0.6221439    -0.0563932   -0.6334471    -0.7374127    0.2161538 
   5.197500000    -0.7556009    0.1037707     0.0161855   -0.6269581    -0.0570839   -0.6352529    -0.7375308    0.2143094 
   5.200000000    -0.7532191    0.1051745     0.0152190   -0.6322283    -0.0571012   -0.6369005    -0.7377813    0.2127670 
   5.202500000    -0.7507591    0.1063100     0.0147915   -0.6368952    -0.0578174   -0.6385897    -0.7381251    0.2119392 
   5.205000000    -0.7479388    0.1072601     0.0129947   -0.6418934    -0.0581931   -0.6404705    -0.7394651    0.2112195 
   5.207500000    -0.7451121    0.1086850     0.0108427   -0.6466108    -0.0592801   -0.6422623    -0.7401916    0.2109884 
   5.210000000    -0.7425256    0.1097926     0.0083883   -0.6514136    -0.0604047   -0.6445657    -0.7410110    0.2109614 
   5.212500000    -0.7401528    0.1105136     0.0058172   -0.6566859    -0.0622716   -0.6465279    -0.7410046    0.2114916 
   5.215000000    -0.7379955    0.1109076     0.0027592   -0.6608535    -0.0645518   -0.6488081    -0.7412098    0.2123725 
   5.217500000    -0.7349116    0.1114461    -0.0018058   -0.6657519    -0.0670368   -0.6508853    -0.7413278    0.2134565 
   5.220000000    -0.7324194    0.1115647    -0.0052712   -0.6696759    -0.0698772   -0.6524798    -0.7411903    0.2148033 
   5.222500000    -0.7290999    0.1115452    -0.0102203   -0.6732593    -0.0731272   -0.6535098    -0.7401162    0.2157324 
   5.225000000    -0.7265586    0.1106955    -0.0145743   -0.6764798    -0.0761040   -0.6547930    -0.7396376    0.2165360 
   5.227500000    -0.7246944    0.1105321    -0.0198841   -0.6794553    -0.0794466   -0.6558961    -0.7386472    0.2176628 
   5.230000000    -0.7219204    0.1096677    -0.0245592   -0.6818179    -0.0831813   -0.6558882    -0.7372395    0.2188240 
   5.232500000    -0.7190027    0.1091808    -0.0302834   -0.6835255    -0.0867914   -0.6557556    -0.7351714    0.2188766 
   5.235000000    -0.7168443    0.1083492    -0.0354433   -0.6845670    -0.0903428   -0.6553625    -0.7336632    0.2192176 
   5.237500000    -0.7158060    0.1083624    -0.0408940   -0.6853885    -0.0933567   -0.6546364    -0.7313564    0.2198042 
   5.240000000    -0.7151716    0.1080141    -0.0457597   -0.6859499    -0.0969844   -0.6539152    -0.7298868    0.2206669 
   5.242500000    -0.7135414    0.1080358    -0.0514216   -0.6859947    -0.1006588   -0.6532530    -0.7285558    0.2212146 
   5.245000000    -0.7110128    0.1078442    -0.0563986   -0.6854669    -0.1037394   -0.6519625    -0.7272428    0.2211149 
   5.247500000    -0.7088488    0.1078517    -0.0611419   -0.6853269    -0.1073346   -0.6504252    -0.7254155    0.2222227 
   5.250000000    -0.7085600    0.1087598    -0.0656454   -0.6843523    -0.1101533   -0.6489112    -0.7248549    0.2228753 
   5.252500000    -0.7089187    0.1096862    -0.0694792   -0.6832527    -0.1129918   -0.6474013    -0.7236748    0.2235709 
   5.255000000    -0.7076500    0.1110429    -0.0731282   -0.6818060    -0.1151311   -0.6451294    -0.7218952    0.2238756 
   5.257500000    -0.7055710    0.1119362    -0.0772687   -0.6802496    -0.1176828   -0.6425231    -0.7204840    0.2249011 
   5.260000000    -0.7031007    0.1130035    -0.0809043   -0.6780656    -0.1201977   -0.6402796    -0.7182153    0.2253551 
   5.262500000    -0.7014415    0.1142084    -0.0834353   -0.6757061    -0.1227047   -0.6379241    -0.7162508    0.2259183 
   5.265000000    -0.6998566    0.1157080    -0.0861610   -0.6738260    -0.1239727   -0.6351340    -0.7141925    0.2261738 
   5.267500000    -0.6987746    0.1173220    -0.0875355   -0.6715379    -0.1258102   -0.6324760    -0.7119803    0.2261432 
   5.270000000    -0.6972260    0.1188280    -0.0897043   -0.6699690    -0.1251277   -0.6298035    -0.7093777    0.2266714 
   5.272500000    -0.6942130    0.1201389    -0.0906673   -0.6679606    -0.1268397   -0.6268117    -0.7066756    0.2266795 
   5.275000000    -0.6912575    0.1213101    -0.0913537   -0.6655251    -0.1266176   -0.6235071    -0.7034077    0.2261874 
   5.277500000    -0.6879213    0.1217287    -0.0924238   -0.6629195    -0.1266790   -0.6201965    -0.6999595    0.2257861 
   5.280000000    -0.6845557    0.1225944    -0.0930980   -0.6605468    -0.1261815   -0.6174837    -0.6966699    0.2252338 
   5.282500000    -0.6816713    0.1229052    -0.0920122   -0.6589087    -0.1253019   -0.6146856    -0.6947578    0.2237442 
   5.285000000    -0.6793932    0.1236309    -0.0915306   -0.6575934    -0.1233861   -0.6124578    -0.6928893    0.2213040 
   5.287500000    -0.6766994    0.1233957    -0.0904742   -0.6566632    -0.1213003   -0.6099839    -0.6905339    0.2196299 
   5.290000000    -0.6730111    0.1223623    -0.0886264   -0.6559619    -0.1186368   -0.6083447    -0.6870683    0.2176715 
   5.292500000    -0.6694503    0.1216725    -0.0883521   -0.6562994    -0.1161115   -0.6071299    -0.6847154    0.2151673 
   5.295000000    -0.6661642    0.1200609    -0.0866181   -0.6568310    -0.1131150   -0.6063824    -0.6825395    0.2124680 
   5.297500000    -0.6635251    0.1196148    -0.0852920   -0.6575339    -0.1105574   -0.6064044    -0.6811312    0.2099953 
   5.300000000    -0.6612867    0.1179125    -0.0841539   -0.6593052    -0.1077557   -0.6071264    -0.6802292    0.2078487 
   5.302500000    -0.6594610    0.1163842    -0.0834601   -0.6614977    -0.1050647   -0.6090250    -0.6799189    0.2056476 
   5.305000000    -0.6583906    0.1145446    -0.0834060   -0.6643960    -0.1028228   -0.6109605    -0.6796200    0.2033835 
   5.307500000    -0.6580808    0.1132815    -0.0833505   -0.6688715    -0.1007314   -0.6140646    -0.6796550    0.2009745 
   5.310000000    -0.6579626    0.1114711    -0.0845626   -0.6723832    -0.0996586   -0.6172376    -0.6809453    0.1998912 
   5.312500000    -0.6589271    0.1105657    -0.0854698   -0.6762345    -0.0993241   -0.6214064    -0.6820827    0.1993093 
   5.315000000    -0.6598701    0.1094208    -0.0877328   -0.6803299    -0.0995420   -0.6251463    -0.6843376    0.1989113 
   5.317500000    -0.6608961    0.1084023    -0.0904747   -0.6852045    -0.1009259   -0.6296254    -0.6863759    0.1993340 
   5.320000000    -0.6622155    0.1084975    -0.0938418   -0.6899070    -0.1025434   -0.6337824    -0.6878816    0.2000341 
   5.322500000    -0.6640406    0.1086356    -0.0973080   -0.6941032    -0.1050697   -0.6379478    -0.6888258    0.2019407 
   5.325000000    -0.6656435    0.1097236    -0.1017371   -0.6981353    -0.1089305   -0.6420576    -0.6882799    0.2041558 
   5.327500000    -0.6669597    0.1104387    -0.1084736   -0.7018870    -0.1133122   -0.6452367    -0.6878673    0.2068383 
   5.330000000    -0.6679751    0.1112148    -0.1150116   -0.7048228    -0.1185144   -0.6476957    -0.6865547    0.2092815 
   5.332500000    -0.6685869    0.1123014    -0.1220369   -0.7066602    -0.1241741   -0.6493653    -0.6842499    0.2115336 
   5.335000000    -0.6689271    0.1128433    -0.1290221   -0.7074904    -0.1302945   -0.6496180    -0.6815068    0.2125676 
   5.337500000    -0.6693682    0.1132551    -0.1373833   -0.7078086    -0.1362206   -0.6493004    -0.6786253    0.2139636 
   5.340000000    -0.6696664    0.1138071    -0.1455169   -0.7068701    -0.1421958   -0.6482244    -0.6747943    0.2136532 
   5.342500000    -0.6704649    0.1142259    -0.1530471   -0.7049837    -0.1481497   -0.6460320    -0.6701763    0.2136444 
   5.345000000    -0.6716725    0.1143920    -0.1604227   -0.7017963    -0.1533805   -0.6425512    -0.6665981    0.2116473 
   5.347500000    -0.6723202    0.1141547    -0.1671688   -0.6981784    -0.1582825   -0.6387901    -0.6630142    0.2098694 
   5.350000000    -0.6743122    0.1148945    -0.1741064   -0.6936473    -0.1612182   -0.6351659    -0.6607928    0.2080701 
   5.352500000    -0.6756107    0.1149719    -0.1788827   -0.6892698    -0.1653986   -0.6308748    -0.6590002    0.2045840 
   5.355000000    -0.6773061    0.1158994    -0.1844691   -0.6845773    -0.1689572   -0.6261222    -0.6573054    0.2018700 
   5.357500000    -0.6791019    0.1166326    -0.1883643   -0.6798902    -0.1708679   -0.6212624    -0.6565356    0.1990439 
   5.360000000    -0.6806511    0.1185631    -0.1919548   -0.6750580    -0.1732592   -0.6163628    -0.6552418    0.1969197 
   5.362500000    -0.6829256    0.1202137    -0.1946725   -0.6701467    -0.1742503   -0.6119371    -0.6553813    0.1945508 
   5.365000000    -0.6848883    0.1209598    -0.1977557   -0.6644021    -0.1754857   -0.6074247    -0.6554711    0.1922406 
   5.367500000    -0.6869610    0.1223177    -0.1996266   -0.6591978    -0.1755003   -0.6029038    -0.6557351    0.1895115 
   5.370000000    -0.6886006    0.1232827    -0.2013694   -0.6552945    -0.1759841   -0.5986511    -0.6568897    0.1873137 
   5.372500000    -0.6906704    0.1256007    -0.2025117   -0.6506695    -0.1753506   -0.5940474    -0.6575643    0.1854442 
   5.375000000    -0.6920605    0.1279753    -0.2030913   -0.6460289    -0.1754065   -0.5898051    -0.6581365    0.1844893 
   5.377500000    -0.6931413    0.1302864    -0.2034898   -0.6413165    -0.1744179   -0.5856017    -0.6593829    0.1844350 
   5.380000000    -0.6941072    0.1327138    -0.2033726   -0.6368811    -0.1729099   -0.5817155    -0.6610367    0.1833653 
   5.382500000    -0.6950704    0.1342991    -0.2032941   -0.6320972    -0.1708277   -0.5778366    -0.6624444    0.1826305 
   5.385000000    -0.6962661    0.1361675    -0.2025560   -0.6279992    -0.1686747   -0.5740552    -0.6637656    0.1823949 
   5.387500000    -0.6968408    0.1382477    -0.2027169   -0.6239272    -0.1663610   -0.5703853    -0.6647938    0.1827095 
   5.390000000    -0.6972848    0.1398974    -0.2021348   -0.6203021    -0.1638055   -0.5667835    -0.6658352    0.1830173 
