! MS46122B
! 1919307/90821646
! 7/29/2022 2:57:46 PM
! C:\USERS\PC_\DESKTOP\MEDICIONES\BANCHA ESTRECHA\65_7GHZ\S11_S21_ABS15_502CL.S2P
! CHANNEL.1
! TR.MEASUREMENT
! CORRECTED.DATA
# GHZ S RI R 50.0
! FREQ.GHZ         S11RE         S11IM         S21RE         S21IM         S12RE         S12IM         S22RE         S22IM         
!; PortSelection: Port_12
   6.500000000    -0.3879960    0.2878761    -0.5374754   -0.6610535    -0.5333347   -0.6583599    -0.3439141    0.3749552 
   6.502500000    -0.3936291    0.2860161    -0.5390949   -0.6557339    -0.5346698   -0.6570757    -0.3424519    0.3733555 
   6.505000000    -0.3942315    0.2847053    -0.5405184   -0.6538973    -0.5351580   -0.6563413    -0.3407677    0.3718113 
   6.507500000    -0.3948332    0.2830316    -0.5412213   -0.6528325    -0.5358936   -0.6554618    -0.3399213    0.3705281 
   6.510000000    -0.3952340    0.2815909    -0.5420108   -0.6521239    -0.5359147   -0.6549554    -0.3391844    0.3680106 
   6.512500000    -0.3957138    0.2806876    -0.5420260   -0.6514986    -0.5368270   -0.6543525    -0.3381872    0.3657037 
   6.515000000    -0.3961096    0.2792106    -0.5428032   -0.6509873    -0.5376729   -0.6533778    -0.3370373    0.3637324 
   6.517500000    -0.3963951    0.2780814    -0.5449090   -0.6508318    -0.5383545   -0.6531948    -0.3359219    0.3619136 
   6.520000000    -0.3966368    0.2767262    -0.5460194   -0.6485863    -0.5393142   -0.6525759    -0.3343871    0.3601897 
   6.522500000    -0.3965264    0.2758703    -0.5465173   -0.6483405    -0.5399649   -0.6519835    -0.3332449    0.3584180 
   6.525000000    -0.3965227    0.2746802    -0.5475389   -0.6474282    -0.5408090   -0.6518941    -0.3322876    0.3562862 
   6.527500000    -0.3966296    0.2735611    -0.5485176   -0.6466548    -0.5415578   -0.6513920    -0.3311291    0.3537787 
   6.530000000    -0.3966147    0.2726157    -0.5503358   -0.6466465    -0.5425302   -0.6511655    -0.3298841    0.3520208 
   6.532500000    -0.3965190    0.2714630    -0.5514443   -0.6464958    -0.5436198   -0.6506996    -0.3282764    0.3505799 
   6.535000000    -0.3965648    0.2710666    -0.5528718   -0.6456531    -0.5449612   -0.6506186    -0.3272560    0.3490668 
   6.537500000    -0.3961181    0.2698875    -0.5537148   -0.6446555    -0.5463060   -0.6500759    -0.3262428    0.3475600 
   6.540000000    -0.3956918    0.2689199    -0.5542035   -0.6442387    -0.5475520   -0.6500343    -0.3252400    0.3462804 
   6.542500000    -0.3949274    0.2677529    -0.5564293   -0.6436682    -0.5493075   -0.6494067    -0.3235658    0.3452215 
   6.545000000    -0.3939792    0.2669769    -0.5578515   -0.6429998    -0.5504887   -0.6490995    -0.3222401    0.3440349 
   6.547500000    -0.3937239    0.2658649    -0.5588405   -0.6416442    -0.5521944   -0.6484275    -0.3211364    0.3428546 
   6.550000000    -0.3930247    0.2649080    -0.5601782   -0.6415808    -0.5537582   -0.6473668    -0.3201046    0.3421295 
   6.552500000    -0.3917924    0.2641272    -0.5616104   -0.6407655    -0.5551295   -0.6468842    -0.3183151    0.3414119 
   6.555000000    -0.3908420    0.2631357    -0.5620373   -0.6395528    -0.5571200   -0.6465049    -0.3169468    0.3411008 
   6.557500000    -0.3902159    0.2621025    -0.5637233   -0.6387407    -0.5587445   -0.6454484    -0.3158928    0.3408237 
   6.560000000    -0.3893935    0.2606955    -0.5654610   -0.6371636    -0.5604076   -0.6446455    -0.3144781    0.3400967 
   6.562500000    -0.3886060    0.2592034    -0.5667256   -0.6365494    -0.5623771   -0.6436149    -0.3126740    0.3398317 
   6.565000000    -0.3871630    0.2588442    -0.5678188   -0.6358432    -0.5636157   -0.6431608    -0.3112513    0.3403663 
   6.567500000    -0.3861212    0.2580680    -0.5688481   -0.6350451    -0.5652170   -0.6420528    -0.3098783    0.3403731 
   6.570000000    -0.3852012    0.2570499    -0.5696630   -0.6337420    -0.5664049   -0.6405283    -0.3089497    0.3401164 
   6.572500000    -0.3846357    0.2552719    -0.5706612   -0.6317921    -0.5679597   -0.6393986    -0.3079606    0.3396745 
   6.575000000    -0.3841295    0.2539044    -0.5716911   -0.6307417    -0.5693349   -0.6384990    -0.3071116    0.3387686 
   6.577500000    -0.3831474    0.2526630    -0.5731248   -0.6302190    -0.5706863   -0.6375133    -0.3058347    0.3383285 
   6.580000000    -0.3817608    0.2518777    -0.5741624   -0.6294053    -0.5720347   -0.6363658    -0.3051159    0.3379956 
   6.582500000    -0.3809655    0.2507454    -0.5746523   -0.6274313    -0.5729183   -0.6348931    -0.3035987    0.3381512 
   6.585000000    -0.3799837    0.2494725    -0.5754694   -0.6264787    -0.5736938   -0.6335113    -0.3020146    0.3389880 
   6.587500000    -0.3789230    0.2482342    -0.5768755   -0.6255499    -0.5746180   -0.6321807    -0.3010388    0.3390611 
   6.590000000    -0.3785557    0.2471265    -0.5779287   -0.6239477    -0.5757169   -0.6307139    -0.3001848    0.3385406 
   6.592500000    -0.3780695    0.2457346    -0.5784851   -0.6240447    -0.5768947   -0.6297162    -0.2992522    0.3378246 
   6.595000000    -0.3775859    0.2442695    -0.5797015   -0.6229858    -0.5775524   -0.6288452    -0.2983139    0.3378102 
   6.597500000    -0.3763973    0.2431464    -0.5801560   -0.6217058    -0.5784411   -0.6276514    -0.2977385    0.3379983 
   6.600000000    -0.3756107    0.2420366    -0.5807900   -0.6205207    -0.5791320   -0.6263394    -0.2968380    0.3378770 
   6.602500000    -0.3749300    0.2411143    -0.5825346   -0.6198676    -0.5797558   -0.6250126    -0.2951080    0.3385235 
   6.605000000    -0.3744953    0.2395617    -0.5837052   -0.6190637    -0.5809464   -0.6232315    -0.2946006    0.3379459 
   6.607500000    -0.3741902    0.2382891    -0.5843163   -0.6186728    -0.5820920   -0.6226845    -0.2939039    0.3371641 
   6.610000000    -0.3737672    0.2367553    -0.5845416   -0.6180300    -0.5832299   -0.6215345    -0.2932798    0.3364239 
   6.612500000    -0.3735538    0.2354473    -0.5851374   -0.6171999    -0.5830960   -0.6209881    -0.2925200    0.3355458 
   6.615000000    -0.3731285    0.2343705    -0.5859929   -0.6156858    -0.5838722   -0.6200065    -0.2918344    0.3349880 
   6.617500000    -0.3723263    0.2334947    -0.5877970   -0.6147335    -0.5849279   -0.6190715    -0.2913434    0.3339906 
   6.620000000    -0.3719296    0.2326665    -0.5886578   -0.6147605    -0.5861425   -0.6185736    -0.2899362    0.3339584 
   6.622500000    -0.3715799    0.2314629    -0.5890054   -0.6139967    -0.5872650   -0.6170596    -0.2896280    0.3329524 
   6.625000000    -0.3715049    0.2301537    -0.5895686   -0.6132676    -0.5879986   -0.6169602    -0.2892113    0.3313086 
   6.627500000    -0.3710737    0.2289858    -0.5894836   -0.6128565    -0.5882522   -0.6163116    -0.2888465    0.3298549 
   6.630000000    -0.3707293    0.2276641    -0.5915989   -0.6122448    -0.5890124   -0.6156837    -0.2883621    0.3283720 
   6.632500000    -0.3703303    0.2266752    -0.5922648   -0.6107068    -0.5902902   -0.6153176    -0.2877566    0.3267604 
   6.635000000    -0.3698441    0.2260166    -0.5930466   -0.6099738    -0.5910244   -0.6144840    -0.2871323    0.3249041 
   6.637500000    -0.3696008    0.2256096    -0.5936550   -0.6098410    -0.5919673   -0.6132014    -0.2859409    0.3235038 
   6.640000000    -0.3692346    0.2247677    -0.5939644   -0.6089262    -0.5924703   -0.6125470    -0.2857090    0.3222241 
   6.642500000    -0.3689635    0.2239796    -0.5956804   -0.6087677    -0.5931699   -0.6123373    -0.2850783    0.3200889 
   6.645000000    -0.3684650    0.2233293    -0.5963231   -0.6083589    -0.5938126   -0.6111335    -0.2844530    0.3182642 
   6.647500000    -0.3679272    0.2224628    -0.5973624   -0.6064750    -0.5955893   -0.6107361    -0.2837353    0.3162770 
   6.650000000    -0.3673049    0.2220805    -0.5978740   -0.6060822    -0.5961314   -0.6097182    -0.2824331    0.3145688 
   6.652500000    -0.3665579    0.2215787    -0.5988274   -0.6052529    -0.5971673   -0.6084686    -0.2815161    0.3122272 
   6.655000000    -0.3660092    0.2213166    -0.5988964   -0.6053001    -0.5979496   -0.6076068    -0.2806472    0.3101415 
   6.657500000    -0.3653255    0.2210708    -0.6007653   -0.6044779    -0.5983987   -0.6072728    -0.2802619    0.3087309 
   6.660000000    -0.3647161    0.2207621    -0.6013301   -0.6032412    -0.5990960   -0.6064196    -0.2786804    0.3070200 
   6.662500000    -0.3634785    0.2205510    -0.6021125   -0.6026806    -0.6001131   -0.6058700    -0.2777001    0.3049520 
   6.665000000    -0.3624933    0.2203478    -0.6025406   -0.6021107    -0.6012965   -0.6046492    -0.2767106    0.3029592 
   6.667500000    -0.3613433    0.2201401    -0.6022896   -0.6019814    -0.6017992   -0.6040164    -0.2754444    0.3006121 
   6.670000000    -0.3605117    0.2202960    -0.6028427   -0.6012498    -0.6023602   -0.6036112    -0.2735435    0.2997355 
   6.672500000    -0.3591123    0.2208540    -0.6039286   -0.6014938    -0.6031347   -0.6029512    -0.2720518    0.2983682 
   6.675000000    -0.3579716    0.2212698    -0.6050717   -0.5998841    -0.6037041   -0.6024612    -0.2711627    0.2969883 
   6.677500000    -0.3567367    0.2216317    -0.6053562   -0.5995837    -0.6045835   -0.6019267    -0.2701828    0.2956704 
   6.680000000    -0.3554857    0.2218381    -0.6061254   -0.5992597    -0.6055301   -0.6017004    -0.2689148    0.2947636 
   6.682500000    -0.3540249    0.2227920    -0.6063269   -0.5989218    -0.6061970   -0.6006641    -0.2668219    0.2938581 
   6.685000000    -0.3527904    0.2231891    -0.6071796   -0.5988992    -0.6069865   -0.6003565    -0.2657305    0.2929122 
   6.687500000    -0.3517430    0.2238989    -0.6083889   -0.5985469    -0.6075255   -0.6003054    -0.2645865    0.2923488 
   6.690000000    -0.3504005    0.2247449    -0.6092980   -0.5978522    -0.6083634   -0.5996785    -0.2633136    0.2920657 
   6.692500000    -0.3486396    0.2256984    -0.6098033   -0.5973941    -0.6086713   -0.5989292    -0.2622282    0.2922000 
   6.695000000    -0.3473086    0.2270137    -0.6100019   -0.5973776    -0.6096842   -0.5986440    -0.2609189    0.2918940 
   6.697500000    -0.3459758    0.2278330    -0.6105635   -0.5968926    -0.6107288   -0.5985457    -0.2592907    0.2915229 
   6.700000000    -0.3448204    0.2287270    -0.6123098   -0.5965616    -0.6116945   -0.5983752    -0.2582862    0.2915663 
   6.702500000    -0.3436864    0.2298865    -0.6130267   -0.5962296    -0.6123737   -0.5977927    -0.2570347    0.2918530 
   6.705000000    -0.3427065    0.2313402    -0.6144144   -0.5961176    -0.6129992   -0.5973870    -0.2557337    0.2928128 
   6.707500000    -0.3410999    0.2325586    -0.6154120   -0.5957637    -0.6145180   -0.5970419    -0.2547961    0.2932860 
   6.710000000    -0.3399797    0.2332212    -0.6165289   -0.5952780    -0.6154871   -0.5969984    -0.2533130    0.2937212 
   6.712500000    -0.3388653    0.2346191    -0.6175399   -0.5949833    -0.6165370   -0.5966101    -0.2521438    0.2944585 
   6.715000000    -0.3377979    0.2357463    -0.6189595   -0.5948245    -0.6170152   -0.5959880    -0.2509374    0.2957488 
   6.717500000    -0.3365578    0.2366844    -0.6202269   -0.5935594    -0.6188543   -0.5958758    -0.2497028    0.2964181 
   6.720000000    -0.3357936    0.2378281    -0.6210901   -0.5934951    -0.6196951   -0.5949179    -0.2486157    0.2974057 
   6.722500000    -0.3349302    0.2386039    -0.6224763   -0.5934708    -0.6212528   -0.5946291    -0.2477260    0.2988876 
   6.725000000    -0.3338985    0.2392486    -0.6230385   -0.5927272    -0.6226708   -0.5935266    -0.2469240    0.2997607 
   6.727500000    -0.3326740    0.2400142    -0.6250783   -0.5923659    -0.6236472   -0.5931093    -0.2460063    0.3006270 
   6.730000000    -0.3318491    0.2405275    -0.6255271   -0.5918990    -0.6242377   -0.5930007    -0.2452260    0.3015214 
   6.732500000    -0.3308294    0.2408289    -0.6267917   -0.5903044    -0.6251904   -0.5927236    -0.2443247    0.3021953 
   6.735000000    -0.3300945    0.2414843    -0.6275774   -0.5900637    -0.6258709   -0.5917345    -0.2429340    0.3028545 
   6.737500000    -0.3296001    0.2416157    -0.6284167   -0.5895409    -0.6274052   -0.5911218    -0.2421457    0.3034081 
   6.740000000    -0.3290412    0.2416785    -0.6297057   -0.5892115    -0.6286423   -0.5896833    -0.2414565    0.3036582 
   6.742500000    -0.3286193    0.2414865    -0.6313032   -0.5886700    -0.6294139   -0.5891454    -0.2408919    0.3046182 
   6.745000000    -0.3281547    0.2412753    -0.6326835   -0.5869589    -0.6304550   -0.5883695    -0.2404852    0.3048438 
   6.747500000    -0.3271520    0.2412079    -0.6332148   -0.5866395    -0.6309152   -0.5877730    -0.2397992    0.3047377 
   6.750000000    -0.3267464    0.2411014    -0.6342344   -0.5859635    -0.6318243   -0.5872540    -0.2389145    0.3043626 
   6.752500000    -0.3262465    0.2406890    -0.6344399   -0.5856917    -0.6328565   -0.5862122    -0.2376322    0.3041034 
   6.755000000    -0.3257021    0.2398686    -0.6359739   -0.5849314    -0.6340958   -0.5852063    -0.2367663    0.3031440 
   6.757500000    -0.3251444    0.2391191    -0.6372331   -0.5843067    -0.6345347   -0.5843790    -0.2360519    0.3024644 
   6.760000000    -0.3246912    0.2379501    -0.6374089   -0.5837104    -0.6347163   -0.5841841    -0.2355599    0.3017683 
   6.762500000    -0.3240696    0.2374135    -0.6382620   -0.5835223    -0.6353807   -0.5829105    -0.2346923    0.3006966 
   6.765000000    -0.3229795    0.2367545    -0.6385888   -0.5832265    -0.6356222   -0.5825673    -0.2340428    0.2994954 
   6.767500000    -0.3223478    0.2362579    -0.6391387   -0.5824941    -0.6366302   -0.5822436    -0.2332103    0.2980329 
   6.770000000    -0.3218654    0.2349480    -0.6395940   -0.5815923    -0.6374997   -0.5813955    -0.2325008    0.2962593 
   6.772500000    -0.3210350    0.2333403    -0.6409949   -0.5809976    -0.6381125   -0.5811840    -0.2318908    0.2947096 
   6.775000000    -0.3202839    0.2319417    -0.6418533   -0.5817226    -0.6385109   -0.5806240    -0.2311151    0.2932124 
   6.777500000    -0.3189651    0.2308629    -0.6419097   -0.5814766    -0.6386825   -0.5805959    -0.2294914    0.2915600 
   6.780000000    -0.3182303    0.2293348    -0.6425982   -0.5811189    -0.6392597   -0.5804999    -0.2289948    0.2891736 
   6.782500000    -0.3172836    0.2280600    -0.6427593   -0.5812078    -0.6400865   -0.5804869    -0.2281776    0.2864025 
   6.785000000    -0.3166623    0.2271856    -0.6441282   -0.5802225    -0.6409082   -0.5808462    -0.2274878    0.2840281 
   6.787500000    -0.3161832    0.2258348    -0.6449816   -0.5801761    -0.6415899   -0.5809080    -0.2258552    0.2822615 
   6.790000000    -0.3151433    0.2247400    -0.6467978   -0.5812494    -0.6423424   -0.5809979    -0.2250099    0.2795736 
   6.792500000    -0.3140933    0.2232417    -0.6476060   -0.5815200    -0.6435065   -0.5810612    -0.2243219    0.2770887 
   6.795000000    -0.3133412    0.2222841    -0.6483186   -0.5814542    -0.6441564   -0.5812041    -0.2236386    0.2748376 
   6.797500000    -0.3127201    0.2211273    -0.6494431   -0.5816894    -0.6447767   -0.5817560    -0.2223087    0.2731303 
   6.800000000    -0.3120941    0.2204143    -0.6504178   -0.5821855    -0.6464760   -0.5820687    -0.2219049    0.2707577 
   6.802500000    -0.3108414    0.2204711    -0.6526332   -0.5815698    -0.6479118   -0.5822936    -0.2219243    0.2687694 
   6.805000000    -0.3101196    0.2201509    -0.6541193   -0.5818259    -0.6495726   -0.5832043    -0.2213410    0.2666600 
   6.807500000    -0.3088265    0.2200678    -0.6559419   -0.5820649    -0.6510747   -0.5828668    -0.2202044    0.2659703 
   6.810000000    -0.3076001    0.2200683    -0.6574295   -0.5820933    -0.6527132   -0.5825439    -0.2188171    0.2646652 
   6.812500000    -0.3071798    0.2202569    -0.6587850   -0.5821233    -0.6546518   -0.5826027    -0.2183568    0.2638486 
   6.815000000    -0.3065491    0.2208118    -0.6617602   -0.5822049    -0.6564463   -0.5827693    -0.2180150    0.2628591 
   6.817500000    -0.3045132    0.2210815    -0.6632668   -0.5813677    -0.6588685   -0.5823575    -0.2172378    0.2628016 
   6.820000000    -0.3023579    0.2217195    -0.6655524   -0.5807624    -0.6612021   -0.5821222    -0.2159938    0.2627636 
   6.822500000    -0.3011017    0.2226377    -0.6672155   -0.5803337    -0.6630698   -0.5821046    -0.2139810    0.2628187 
   6.825000000    -0.3003918    0.2234708    -0.6690086   -0.5796965    -0.6653069   -0.5812650    -0.2127312    0.2631982 
   6.827500000    -0.2994758    0.2244195    -0.6719486   -0.5794445    -0.6681963   -0.5806471    -0.2117939    0.2636294 
   6.830000000    -0.2974108    0.2255898    -0.6728936   -0.5788117    -0.6703337   -0.5790556    -0.2101550    0.2637615 
   6.832500000    -0.2950074    0.2264397    -0.6752424   -0.5768839    -0.6719648   -0.5785036    -0.2082659    0.2637785 
   6.835000000    -0.2931024    0.2274193    -0.6766255   -0.5761905    -0.6742521   -0.5775791    -0.2065469    0.2642885 
   6.837500000    -0.2912661    0.2285585    -0.6790532   -0.5745730    -0.6764237   -0.5763603    -0.2046825    0.2648335 
   6.840000000    -0.2895160    0.2294805    -0.6811721   -0.5735471    -0.6783053   -0.5749611    -0.2028101    0.2652785 
   6.842500000    -0.2879960    0.2299387    -0.6830303   -0.5721515    -0.6809540   -0.5734776    -0.2009744    0.2654614 
   6.845000000    -0.2857853    0.2306011    -0.6849483   -0.5703674    -0.6827584   -0.5710354    -0.1993615    0.2659211 
   6.847500000    -0.2838751    0.2310053    -0.6858591   -0.5683640    -0.6846182   -0.5696248    -0.1978992    0.2663895 
   6.850000000    -0.2824705    0.2311722    -0.6867784   -0.5673586    -0.6856645   -0.5682036    -0.1970453    0.2667995 
   6.852500000    -0.2812416    0.2315049    -0.6888027   -0.5659559    -0.6866635   -0.5665000    -0.1959290    0.2672205 
   6.855000000    -0.2796925    0.2315199    -0.6907150   -0.5640231    -0.6886337   -0.5646662    -0.1949731    0.2678055 
   6.857500000    -0.2786539    0.2311655    -0.6914517   -0.5623379    -0.6893585   -0.5629447    -0.1945208    0.2681667 
   6.860000000    -0.2771534    0.2307530    -0.6928663   -0.5606818    -0.6906660   -0.5608013    -0.1934036    0.2682973 
   6.862500000    -0.2761857    0.2300438    -0.6937360   -0.5591660    -0.6913780   -0.5590763    -0.1927065    0.2683992 
   6.865000000    -0.2755427    0.2297218    -0.6939937   -0.5579391    -0.6918212   -0.5577598    -0.1919189    0.2685540 
   6.867500000    -0.2744233    0.2289595    -0.6955513   -0.5569788    -0.6927263   -0.5560569    -0.1911488    0.2695214 
   6.870000000    -0.2733500    0.2281999    -0.6961577   -0.5556194    -0.6932306   -0.5545871    -0.1908566    0.2698155 
   6.872500000    -0.2719871    0.2270923    -0.6971564   -0.5532146    -0.6941259   -0.5520404    -0.1903069    0.2695729 
   6.875000000    -0.2713733    0.2265839    -0.6975312   -0.5526618    -0.6943082   -0.5510612    -0.1897904    0.2695426 
   6.877500000    -0.2704816    0.2254309    -0.6983073   -0.5524757    -0.6946906   -0.5507101    -0.1893245    0.2695426 
   6.880000000    -0.2694363    0.2240523    -0.6991518   -0.5517098    -0.6954135   -0.5494568    -0.1883021    0.2702582 
   6.882500000    -0.2688158    0.2225431    -0.7006211   -0.5508286    -0.6961209   -0.5484778    -0.1880899    0.2698558 
   6.885000000    -0.2682082    0.2211183    -0.7011551   -0.5490074    -0.6970057   -0.5470976    -0.1877338    0.2690125 
   6.887500000    -0.2665997    0.2199078    -0.7018992   -0.5485597    -0.6975532   -0.5463612    -0.1874192    0.2683699 
   6.890000000    -0.2647473    0.2182323    -0.7029452   -0.5477602    -0.6983944   -0.5456224    -0.1871386    0.2675267 
