! MS46122B
! 1919307/90821646
! 5/18/2022 2:59:58 PM
! C:\USERS\PC_\DESKTOP\CARACTERIZACION\MEDICIONES\BANDA ANCHA\S11_S21_ABS10_502CL.S2P
! CHANNEL.1
! TR.MEASUREMENT
! CORRECTED.DATA
# GHZ S RI R 50.0
! FREQ.GHZ         S11RE         S11IM         S21RE         S21IM         S12RE         S12IM         S22RE         S22IM         
!; PortSelection: Port_12
   4.950000000    -0.7908911    0.0011388     0.0041118   -0.5857447     0.0030662   -0.6069931    -0.7795323   -0.0054000 
   4.957564576    -0.7910031    0.0067585     0.0035266   -0.5861421     0.0023111   -0.6067177    -0.7832378   -0.0001645 
   4.965129151    -0.7939011    0.0087597     0.0023025   -0.5846579     0.0018265   -0.6051989    -0.7858664    0.0064413 
   4.972693727    -0.7970123    0.0099704     0.0031796   -0.5815613     0.0009780   -0.6025856    -0.7888634    0.0141679 
   4.980258303    -0.7993159    0.0110071     0.0036520   -0.5786732     0.0012691   -0.5995520    -0.7885707    0.0234096 
   4.987822878    -0.8008664    0.0119796     0.0068116   -0.5762255     0.0009218   -0.5958355    -0.7864327    0.0334615 
   4.995387454    -0.8029922    0.0129819     0.0096500   -0.5748693     0.0016259   -0.5930097    -0.7832502    0.0428516 
   5.002952030    -0.8040792    0.0127773     0.0144018   -0.5747744     0.0026952   -0.5898790    -0.7782739    0.0515278 
   5.010516605    -0.8034856    0.0124704     0.0185786   -0.5760553     0.0041391   -0.5868328    -0.7730705    0.0591253 
   5.018081181    -0.8025398    0.0107811     0.0219712   -0.5779437     0.0062839   -0.5838650    -0.7662945    0.0666072 
   5.025645756    -0.8005959    0.0100175     0.0259220   -0.5800713     0.0078200   -0.5814711    -0.7593496    0.0732360 
   5.033210332    -0.7978278    0.0101813     0.0277767   -0.5831935     0.0099527   -0.5793507    -0.7540460    0.0782994 
   5.040774908    -0.7952142    0.0124607     0.0302229   -0.5867488     0.0117231   -0.5779116    -0.7502861    0.0835842 
   5.048339483    -0.7926679    0.0139707     0.0316470   -0.5913022     0.0140652   -0.5781031    -0.7481182    0.0872896 
   5.055904059    -0.7902623    0.0171569     0.0341589   -0.5962018     0.0163097   -0.5789518    -0.7485273    0.0901687 
   5.063468635    -0.7875057    0.0213603     0.0346996   -0.6019558     0.0180533   -0.5807292    -0.7511889    0.0916591 
   5.071033210    -0.7845384    0.0264737     0.0361282   -0.6073782     0.0189592   -0.5833821    -0.7546005    0.0926089 
   5.078597786    -0.7817297    0.0306456     0.0350286   -0.6126663     0.0190318   -0.5871978    -0.7600624    0.0931352 
   5.086162362    -0.7786856    0.0357314     0.0321578   -0.6176769     0.0174939   -0.5911613    -0.7660117    0.0938269 
   5.093726937    -0.7763457    0.0399125     0.0284904   -0.6225956     0.0155014   -0.5951819    -0.7723222    0.0929457 
   5.101291513    -0.7743694    0.0426791     0.0250416   -0.6266424     0.0134155   -0.5991595    -0.7771487    0.0910590 
   5.108856089    -0.7740619    0.0446276     0.0231044   -0.6301134     0.0117526   -0.6031526    -0.7808443    0.0895904 
   5.116420664    -0.7735102    0.0457702     0.0207729   -0.6328300     0.0102047   -0.6065134    -0.7836714    0.0885150 
   5.123985240    -0.7728876    0.0459561     0.0201326   -0.6351591     0.0087646   -0.6099265    -0.7835154    0.0874873 
   5.131549815    -0.7716989    0.0458154     0.0195188   -0.6379688     0.0073076   -0.6139557    -0.7815278    0.0863263 
   5.139114391    -0.7693866    0.0449666     0.0194172   -0.6403251     0.0054513   -0.6184968    -0.7783539    0.0862203 
   5.146678967    -0.7679308    0.0452793     0.0189399   -0.6449153     0.0040707   -0.6234779    -0.7730308    0.0861344 
   5.154243542    -0.7637044    0.0457224     0.0186542   -0.6488103     0.0025678   -0.6281534    -0.7640647    0.0846454 
   5.161808118    -0.7591712    0.0442086     0.0189146   -0.6549586     0.0028859   -0.6327248    -0.7546428    0.0852970 
   5.169372694    -0.7537403    0.0426462     0.0190882   -0.6608491     0.0038235   -0.6372984    -0.7438291    0.0864233 
   5.176937269    -0.7473217    0.0419167     0.0173199   -0.6677546     0.0053564   -0.6413396    -0.7343411    0.0893275 
   5.184501845    -0.7390193    0.0400869     0.0158643   -0.6747313     0.0077758   -0.6462710    -0.7246268    0.0930743 
   5.192066421    -0.7308006    0.0379435     0.0116054   -0.6819975     0.0096549   -0.6526664    -0.7183972    0.0974225 
   5.199630996    -0.7242942    0.0360660     0.0057558   -0.6900997     0.0107623   -0.6621786    -0.7136920    0.1004576 
   5.207195572    -0.7183066    0.0336899    -0.0006838   -0.6973761     0.0105872   -0.6720849    -0.7092735    0.1045321 
   5.214760148    -0.7152179    0.0322289    -0.0094063   -0.7045014     0.0075433   -0.6827506    -0.7045680    0.1084261 
   5.222324723    -0.7114918    0.0307713    -0.0204149   -0.7083974     0.0023105   -0.6923680    -0.7000201    0.1097427 
   5.229889299    -0.7092718    0.0291311    -0.0306247   -0.7103936    -0.0051006   -0.7002991    -0.6986886    0.1091617 
   5.237453875    -0.7075227    0.0287772    -0.0413453   -0.7097602    -0.0134663   -0.7047045    -0.6986768    0.1061142 
   5.245018450    -0.7065021    0.0299272    -0.0512493   -0.7085106    -0.0227515   -0.7087057    -0.7019919    0.1043728 
   5.252583026    -0.7069523    0.0315105    -0.0605539   -0.7067232    -0.0321532   -0.7096673    -0.7077528    0.1030859 
   5.260147601    -0.7038534    0.0340791    -0.0678979   -0.7041548    -0.0403477   -0.7083442    -0.7120945    0.1017639 
   5.267712177    -0.7028196    0.0344825    -0.0748101   -0.7001019    -0.0473249   -0.7064594    -0.7148492    0.0991131 
   5.275276753    -0.6997494    0.0348102    -0.0790635   -0.6959925    -0.0527221   -0.7027954    -0.7154662    0.0951438 
   5.282841328    -0.6966021    0.0313762    -0.0833553   -0.6908170    -0.0565456   -0.6981175    -0.7155333    0.0898145 
   5.290405904    -0.6955107    0.0262604    -0.0847370   -0.6865350    -0.0587365   -0.6933049    -0.7157314    0.0818662 
   5.297970480    -0.6945351    0.0202172    -0.0865329   -0.6840675    -0.0598643   -0.6898724    -0.7143714    0.0735437 
   5.305535055    -0.6964214    0.0153645    -0.0885258   -0.6834061    -0.0613009   -0.6876833    -0.7130698    0.0652806 
   5.313099631    -0.7001577    0.0119133    -0.0910552   -0.6861567    -0.0632040   -0.6873017    -0.7124949    0.0570360 
   5.320664207    -0.7038430    0.0096739    -0.0958202   -0.6883954    -0.0660960   -0.6879512    -0.7130129    0.0497225 
   5.328228782    -0.7088782    0.0097034    -0.1022404   -0.6907086    -0.0705459   -0.6892762    -0.7130536    0.0419907 
   5.335793358    -0.7110299    0.0103271    -0.1107505   -0.6896383    -0.0775943   -0.6897187    -0.7142054    0.0340635 
   5.343357934    -0.7127939    0.0125566    -0.1203783   -0.6869510    -0.0855851   -0.6893901    -0.7152290    0.0280035 
   5.350922509    -0.7143764    0.0144617    -0.1298788   -0.6822511    -0.0945551   -0.6863405    -0.7165173    0.0234675 
   5.358487085    -0.7155870    0.0173602    -0.1383058   -0.6760409    -0.1053474   -0.6826596    -0.7203871    0.0213319 
   5.366051661    -0.7186608    0.0207118    -0.1441573   -0.6695374    -0.1141372   -0.6779442    -0.7237949    0.0225915 
   5.373616236    -0.7223915    0.0237015    -0.1499186   -0.6618567    -0.1220597   -0.6713495    -0.7275934    0.0237068 
   5.381180812    -0.7259228    0.0284948    -0.1524457   -0.6532336    -0.1287854   -0.6660354    -0.7314454    0.0279314 
   5.388745387    -0.7301648    0.0312665    -0.1545309   -0.6436676    -0.1338514   -0.6595733    -0.7348782    0.0327188 
   5.396309963    -0.7350757    0.0333042    -0.1548863   -0.6343890    -0.1386867   -0.6537511    -0.7370504    0.0387736 
   5.403874539    -0.7398388    0.0354608    -0.1534923   -0.6242916    -0.1427336   -0.6470702    -0.7375224    0.0454741 
   5.411439114    -0.7471433    0.0380309    -0.1502669   -0.6162683    -0.1466870   -0.6405461    -0.7362683    0.0513354 
   5.419003690    -0.7544060    0.0404578    -0.1465195   -0.6099767    -0.1502595   -0.6345630    -0.7341861    0.0558834 
   5.426568266    -0.7616773    0.0445190    -0.1410309   -0.6073852    -0.1526836   -0.6289952    -0.7323645    0.0566033 
   5.434132841    -0.7666012    0.0486133    -0.1378066   -0.6049775    -0.1541857   -0.6237081    -0.7311983    0.0583592 
   5.441697417    -0.7689351    0.0528482    -0.1356999   -0.6037880    -0.1551046   -0.6194587    -0.7312754    0.0590591 
   5.449261993    -0.7681968    0.0573433    -0.1346186   -0.6009251    -0.1563653   -0.6140998    -0.7324175    0.0594191 
   5.456826568    -0.7616426    0.0607753    -0.1354861   -0.5956062    -0.1584048   -0.6066879    -0.7343785    0.0597449 
   5.464391144    -0.7461234    0.0554869    -0.1336028   -0.5872094    -0.1576021   -0.5955644    -0.7368748    0.0608197 
   5.471955720    -0.7480573    0.0275627    -0.1235467   -0.5828549    -0.1453995   -0.5907595    -0.7385039    0.0634978 
   5.479520295    -0.7684674    0.0250505    -0.1179211   -0.5861727    -0.1403698   -0.5932795    -0.7368869    0.0637522 
   5.487084871    -0.7761246    0.0323241    -0.1161470   -0.5861136    -0.1365840   -0.5934745    -0.7376443    0.0622074 
   5.494649446    -0.7788100    0.0390181    -0.1127370   -0.5846798    -0.1324884   -0.5923439    -0.7392359    0.0599900 
   5.502214022    -0.7810583    0.0446805    -0.1096126   -0.5832341    -0.1268526   -0.5918619    -0.7436785    0.0609466 
   5.509778598    -0.7826971    0.0504590    -0.1054426   -0.5820754    -0.1220523   -0.5920863    -0.7493684    0.0629136 
   5.517343173    -0.7857521    0.0566966    -0.1032185   -0.5811314    -0.1173581   -0.5921515    -0.7545202    0.0683445 
   5.524907749    -0.7879648    0.0642432    -0.0996689   -0.5800261    -0.1120432   -0.5927076    -0.7592688    0.0751418 
   5.532472325    -0.7907564    0.0722733    -0.0961352   -0.5791012    -0.1093844   -0.5927879    -0.7632286    0.0835205 
   5.540036900    -0.7938923    0.0796352    -0.0917179   -0.5779392    -0.1037453   -0.5927335    -0.7668689    0.0925381 
   5.547601476    -0.7951143    0.0866125    -0.0872819   -0.5763801    -0.0988344   -0.5928225    -0.7688735    0.1020374 
   5.555166052    -0.7983018    0.0924960    -0.0814416   -0.5753269    -0.0940273   -0.5920636    -0.7688639    0.1117287 
   5.562730627    -0.7964414    0.0983044    -0.0752342   -0.5745191    -0.0885161   -0.5903290    -0.7677344    0.1220543 
   5.570295203    -0.7978401    0.1000771    -0.0696846   -0.5750776    -0.0829550   -0.5888958    -0.7655225    0.1328247 
   5.577859779    -0.7973939    0.1046025    -0.0613075   -0.5771826    -0.0790558   -0.5872124    -0.7630237    0.1423410 
   5.585424354    -0.7963341    0.1070738    -0.0555170   -0.5807837    -0.0732176   -0.5865175    -0.7599720    0.1521335 
   5.592988930    -0.7950844    0.1090310    -0.0476625   -0.5848416    -0.0667285   -0.5862525    -0.7560942    0.1603869 
   5.600553506    -0.7933983    0.1109944    -0.0411693   -0.5901438    -0.0607440   -0.5864991    -0.7522080    0.1680142 
   5.608118081    -0.7909457    0.1132737    -0.0347160   -0.5960711    -0.0537022   -0.5869948    -0.7483133    0.1755162 
   5.615682657    -0.7882882    0.1159459    -0.0302514   -0.6034304    -0.0476552   -0.5883497    -0.7467191    0.1806632 
   5.623247232    -0.7845036    0.1206211    -0.0260288   -0.6111031    -0.0432414   -0.5908360    -0.7425672    0.1874515 
   5.630811808    -0.7807356    0.1259436    -0.0243771   -0.6200650    -0.0368460   -0.5946580    -0.7405450    0.1925676 
   5.638376384    -0.7768376    0.1323295    -0.0231448   -0.6290896    -0.0340781   -0.6002425    -0.7406099    0.1985212 
   5.645940959    -0.7733356    0.1388264    -0.0224536   -0.6384153    -0.0318758   -0.6068927    -0.7416841    0.2044321 
   5.653505535    -0.7699869    0.1469352    -0.0234808   -0.6466203    -0.0298770   -0.6145102    -0.7442181    0.2110483 
   5.661070111    -0.7669621    0.1535425    -0.0246082   -0.6541146    -0.0296102   -0.6215796    -0.7480264    0.2162345 
   5.668634686    -0.7632068    0.1590492    -0.0264954   -0.6608914    -0.0292766   -0.6281182    -0.7523530    0.2205887 
   5.676199262    -0.7593393    0.1655837    -0.0293574   -0.6670747    -0.0300911   -0.6338732    -0.7564088    0.2246859 
   5.683763838    -0.7560402    0.1718518    -0.0325596   -0.6738286    -0.0323612   -0.6401362    -0.7598183    0.2279624 
   5.691328413    -0.7522714    0.1776455    -0.0337440   -0.6801057    -0.0350286   -0.6470954    -0.7617052    0.2302078 
   5.698892989    -0.7487648    0.1818528    -0.0361056   -0.6864271    -0.0372679   -0.6542190    -0.7627776    0.2308535 
   5.706457565    -0.7445043    0.1850128    -0.0374257   -0.6921947    -0.0396849   -0.6623313    -0.7610795    0.2321611 
   5.714022140    -0.7395613    0.1878455    -0.0387766   -0.6981240    -0.0411258   -0.6693276    -0.7562888    0.2326345 
   5.721586716    -0.7329673    0.1891595    -0.0407121   -0.7040809    -0.0423157   -0.6766628    -0.7527887    0.2333393 
   5.729151292    -0.7255367    0.1901789    -0.0428087   -0.7104354    -0.0450480   -0.6835114    -0.7447439    0.2338121 
   5.736715867    -0.7176310    0.1899618    -0.0449860   -0.7181893    -0.0474515   -0.6912546    -0.7349699    0.2357858 
   5.744280443    -0.7091947    0.1895177    -0.0483588   -0.7270663    -0.0498197   -0.7009643    -0.7228290    0.2374605 
   5.751845018    -0.7005467    0.1888945    -0.0523648   -0.7365725    -0.0523567   -0.7107376    -0.7104511    0.2409551 
   5.759409594    -0.6911339    0.1864168    -0.0563714   -0.7457766    -0.0544714   -0.7219846    -0.6968296    0.2442591 
   5.766974170    -0.6811039    0.1851070    -0.0626276   -0.7545184    -0.0571653   -0.7323554    -0.6827604    0.2463589 
   5.774538745    -0.6709345    0.1836479    -0.0704032   -0.7618069    -0.0624746   -0.7426142    -0.6690506    0.2497638 
   5.782103321    -0.6617310    0.1825021    -0.0808566   -0.7690911    -0.0698041   -0.7517210    -0.6569911    0.2539234 
   5.789667897    -0.6522992    0.1807248    -0.0920923   -0.7744307    -0.0794754   -0.7595628    -0.6449683    0.2568165 
   5.797232472    -0.6423183    0.1805279    -0.1041510   -0.7794097    -0.0877707   -0.7665749    -0.6350563    0.2593642 
   5.804797048    -0.6341903    0.1785444    -0.1156995   -0.7827551    -0.0976798   -0.7716764    -0.6278231    0.2622355 
   5.812361624    -0.6244553    0.1776465    -0.1255946   -0.7843645    -0.1046255   -0.7750984    -0.6211730    0.2637763 
   5.819926199    -0.6158716    0.1744910    -0.1358081   -0.7829088    -0.1130222   -0.7770636    -0.6153170    0.2655607 
   5.827490775    -0.6083960    0.1720172    -0.1463145   -0.7816473    -0.1187237   -0.7765417    -0.6117992    0.2655566 
   5.835055351    -0.6003250    0.1674008    -0.1551944   -0.7783508    -0.1262756   -0.7762523    -0.6073989    0.2651072 
   5.842619926    -0.5952127    0.1623034    -0.1626305   -0.7751225    -0.1299487   -0.7760059    -0.6042474    0.2632925 
   5.850184502    -0.5923046    0.1566615    -0.1705280   -0.7735946    -0.1369110   -0.7766452    -0.6024277    0.2596900 
   5.857749077    -0.5913509    0.1516854    -0.1765799   -0.7721512    -0.1389487   -0.7785674    -0.6009083    0.2541344 
   5.865313653    -0.5908938    0.1475541    -0.1832166   -0.7713153    -0.1438462   -0.7798472    -0.5990476    0.2470861 
   5.872878229    -0.5905638    0.1436952    -0.1904544   -0.7706512    -0.1451763   -0.7825660    -0.5961002    0.2358286 
   5.880442804    -0.5888919    0.1423703    -0.1952925   -0.7697320    -0.1586319   -0.7834063    -0.5934867    0.2257667 
   5.888007380    -0.5865703    0.1395948    -0.2046848   -0.7685341    -0.1637631   -0.7851542    -0.5929028    0.2117418 
   5.895571956    -0.5835081    0.1358574    -0.2140681   -0.7664590    -0.1739171   -0.7851651    -0.5927792    0.1996332 
   5.903136531    -0.5809959    0.1321717    -0.2217920   -0.7649851    -0.1850413   -0.7846143    -0.5953137    0.1880396 
   5.910701107    -0.5798660    0.1279914    -0.2287650   -0.7624081    -0.1957217   -0.7813780    -0.5980508    0.1775926 
   5.918265683    -0.5801274    0.1239214    -0.2363530   -0.7580712    -0.2066396   -0.7773746    -0.5999083    0.1681973 
   5.925830258    -0.5812942    0.1202464    -0.2448725   -0.7529286    -0.2130124   -0.7731625    -0.6033380    0.1611286 
   5.933394834    -0.5821936    0.1174144    -0.2502999   -0.7482912    -0.2267445   -0.7656429    -0.6048995    0.1567963 
   5.940959410    -0.5844364    0.1143135    -0.2584090   -0.7414690    -0.2326020   -0.7594746    -0.6060128    0.1534774 
   5.948523985    -0.5873781    0.1121539    -0.2647676   -0.7345450    -0.2410360   -0.7520930    -0.6059442    0.1514796 
   5.956088561    -0.5914752    0.1100698    -0.2681679   -0.7269492    -0.2489801   -0.7452401    -0.6060578    0.1488881 
   5.963653137    -0.5973025    0.1095326    -0.2721798   -0.7193709    -0.2567446   -0.7383497    -0.6054037    0.1499528 
   5.971217712    -0.6039346    0.1096768    -0.2744454   -0.7111580    -0.2637352   -0.7306226    -0.6041892    0.1504700 
   5.978782288    -0.6110579    0.1106483    -0.2756950   -0.7038418    -0.2673424   -0.7232035    -0.6031398    0.1513106 
   5.986346863    -0.6181027    0.1113190    -0.2766493   -0.6961389    -0.2719193   -0.7155101    -0.6028157    0.1513519 
   5.993911439    -0.6248267    0.1131478    -0.2768039   -0.6889763    -0.2741132   -0.7086885    -0.6038461    0.1502845 
   6.001476015    -0.6306103    0.1146211    -0.2765913   -0.6827891    -0.2783456   -0.7014818    -0.6050010    0.1500769 
   6.009040590    -0.6363708    0.1157364    -0.2748338   -0.6770353    -0.2830581   -0.6955132    -0.6067577    0.1480501 
   6.016605166    -0.6414666    0.1155743    -0.2738962   -0.6723616    -0.2855054   -0.6900384    -0.6092069    0.1472933 
   6.024169742    -0.6460876    0.1152049    -0.2711948   -0.6668711    -0.2886300   -0.6843255    -0.6112240    0.1465364 
   6.031734317    -0.6506873    0.1143168    -0.2694967   -0.6626672    -0.2896025   -0.6794773    -0.6127371    0.1457324 
   6.039298893    -0.6541954    0.1120519    -0.2678370   -0.6589713    -0.2896782   -0.6735415    -0.6149129    0.1447749 
   6.046863469    -0.6584760    0.1102462    -0.2657818   -0.6554530    -0.2879624   -0.6690600    -0.6164582    0.1412217 
   6.054428044    -0.6613872    0.1088131    -0.2628036   -0.6530845    -0.2901306   -0.6630736    -0.6198093    0.1380690 
   6.061992620    -0.6642542    0.1085095    -0.2634496   -0.6505804    -0.2872194   -0.6594498    -0.6227982    0.1342341 
   6.069557196    -0.6670986    0.1077697    -0.2625727   -0.6488963    -0.2859375   -0.6576723    -0.6246754    0.1321405 
   6.077121771    -0.6691911    0.1091582    -0.2615730   -0.6465109    -0.2843099   -0.6544271    -0.6263448    0.1309828 
   6.084686347    -0.6709466    0.1107907    -0.2608117   -0.6444753    -0.2822679   -0.6533084    -0.6304649    0.1302594 
   6.092250923    -0.6730423    0.1151330    -0.2590080   -0.6412035    -0.2796087   -0.6509486    -0.6332113    0.1324712 
   6.099815498    -0.6755256    0.1193519    -0.2583611   -0.6374676    -0.2767951   -0.6478043    -0.6374579    0.1360654 
   6.107380074    -0.6781834    0.1257822    -0.2557741   -0.6341079    -0.2740676   -0.6444798    -0.6401280    0.1409193 
   6.114944649    -0.6815281    0.1325756    -0.2537606   -0.6303102    -0.2709855   -0.6418880    -0.6434950    0.1477605 
   6.122509225    -0.6850154    0.1384115    -0.2506748   -0.6273281    -0.2671417   -0.6391913    -0.6470402    0.1555206 
   6.130073801    -0.6872363    0.1463923    -0.2464726   -0.6249405    -0.2629949   -0.6365575    -0.6495347    0.1646051 
