! MS46122B
! 1919307/90821646
! 5/20/2022 1:06:33 PM
! C:\USERS\PC_\DESKTOP\CARACTERIZACION\MEDICIONES\BANCHA ESTRECHA\65_7GHZ\S11_S21_ABS44_502CL.S2P
! CHANNEL.1
! TR.MEASUREMENT
! CORRECTED.DATA
# GHZ S RI R 50.0
! FREQ.GHZ         S11RE         S11IM         S21RE         S21IM         S12RE         S12IM         S22RE         S22IM         
!; PortSelection: Port_12
   6.500000000    -0.4701152    0.0535989     0.0629152   -0.8572277     0.0423977   -0.8503404    -0.5111334   -0.0285317 
   6.502500000    -0.4685666    0.0479723     0.0565496   -0.8571578     0.0414681   -0.8508891    -0.5117685   -0.0309339 
   6.505000000    -0.4675870    0.0470702     0.0549501   -0.8577549     0.0402083   -0.8509348    -0.5125670   -0.0323127 
   6.507500000    -0.4668733    0.0469335     0.0542475   -0.8586735     0.0392206   -0.8513761    -0.5131081   -0.0351578 
   6.510000000    -0.4661412    0.0472501     0.0534499   -0.8591009     0.0387000   -0.8516394    -0.5130202   -0.0381718 
   6.512500000    -0.4651302    0.0480030     0.0533121   -0.8591155     0.0379549   -0.8518116    -0.5127479   -0.0406291 
   6.515000000    -0.4646782    0.0487022     0.0530529   -0.8593131     0.0365397   -0.8524536    -0.5124322   -0.0430143 
   6.517500000    -0.4643025    0.0490363     0.0518245   -0.8603527     0.0362856   -0.8529727    -0.5117584   -0.0451661 
   6.520000000    -0.4642885    0.0500806     0.0504822   -0.8594949     0.0351678   -0.8535946    -0.5108442   -0.0473538 
   6.522500000    -0.4640289    0.0504570     0.0498949   -0.8598955     0.0348547   -0.8537841    -0.5096855   -0.0486129 
   6.525000000    -0.4637107    0.0509609     0.0495588   -0.8595070     0.0346858   -0.8542727    -0.5088806   -0.0502010 
   6.527500000    -0.4633203    0.0521145     0.0490878   -0.8593965     0.0344115   -0.8549668    -0.5072197   -0.0524260 
   6.530000000    -0.4631096    0.0523813     0.0484923   -0.8607010     0.0342635   -0.8556605    -0.5056327   -0.0542993 
   6.532500000    -0.4632868    0.0526461     0.0486691   -0.8614984     0.0339077   -0.8565428    -0.5038052   -0.0557581 
   6.535000000    -0.4633056    0.0531386     0.0471461   -0.8616911     0.0337804   -0.8575987    -0.5019174   -0.0571255 
   6.537500000    -0.4633773    0.0534575     0.0466887   -0.8616983     0.0334931   -0.8584745    -0.4994758   -0.0578312 
   6.540000000    -0.4632830    0.0538375     0.0462870   -0.8620836     0.0335147   -0.8598464    -0.4971500   -0.0585966 
   6.542500000    -0.4638631    0.0541128     0.0450612   -0.8632512     0.0331818   -0.8610033    -0.4946043   -0.0590360 
   6.545000000    -0.4643663    0.0539777     0.0441994   -0.8639228     0.0333789   -0.8620441    -0.4917833   -0.0595927 
   6.547500000    -0.4648786    0.0538556     0.0427338   -0.8640669     0.0328078   -0.8632833    -0.4891343   -0.0597663 
   6.550000000    -0.4653400    0.0543002     0.0424460   -0.8653147     0.0323728   -0.8645889    -0.4870127   -0.0596208 
   6.552500000    -0.4659760    0.0540316     0.0412985   -0.8659561     0.0322601   -0.8659517    -0.4843073   -0.0590238 
   6.555000000    -0.4665065    0.0537979     0.0399709   -0.8661134     0.0318325   -0.8672959    -0.4812920   -0.0584875 
   6.557500000    -0.4673047    0.0535752     0.0380230   -0.8674673     0.0310720   -0.8686315    -0.4784093   -0.0572999 
   6.560000000    -0.4684450    0.0531326     0.0363515   -0.8676600     0.0307581   -0.8700255    -0.4753779   -0.0562894 
   6.562500000    -0.4690819    0.0523677     0.0346447   -0.8679531     0.0296979   -0.8715943    -0.4731693   -0.0546531 
   6.565000000    -0.4700452    0.0520326     0.0337056   -0.8683106     0.0294064   -0.8727613    -0.4706423   -0.0531708 
   6.567500000    -0.4712644    0.0520885     0.0323523   -0.8688884     0.0287217   -0.8741418    -0.4686067   -0.0517759 
   6.570000000    -0.4721563    0.0514505     0.0304438   -0.8688253     0.0276885   -0.8750812    -0.4663509   -0.0500202 
   6.572500000    -0.4727214    0.0507047     0.0285269   -0.8690709     0.0264695   -0.8769946    -0.4650666   -0.0485718 
   6.575000000    -0.4742291    0.0494586     0.0266566   -0.8687950     0.0250960   -0.8781338    -0.4627771   -0.0482332 
   6.577500000    -0.4748916    0.0482655     0.0250234   -0.8687801     0.0241499   -0.8792010    -0.4612044   -0.0471509 
   6.580000000    -0.4757064    0.0475902     0.0231668   -0.8685864     0.0233326   -0.8802376    -0.4607253   -0.0456691 
   6.582500000    -0.4765468    0.0466131     0.0214847   -0.8678871     0.0219720   -0.8806280    -0.4593370   -0.0429162 
   6.585000000    -0.4775374    0.0454510     0.0192065   -0.8679180     0.0209246   -0.8808497    -0.4585672   -0.0407039 
   6.587500000    -0.4776554    0.0438709     0.0167640   -0.8676181     0.0190581   -0.8818558    -0.4578563   -0.0395526 
   6.590000000    -0.4783054    0.0427661     0.0152128   -0.8671911     0.0172841   -0.8824972    -0.4583141   -0.0378721 
   6.592500000    -0.4795556    0.0411018     0.0143389   -0.8670344     0.0164584   -0.8823481    -0.4585364   -0.0367766 
   6.595000000    -0.4803374    0.0393497     0.0125829   -0.8663716     0.0156964   -0.8821864    -0.4594023   -0.0351882 
   6.597500000    -0.4812090    0.0380682     0.0110842   -0.8653365     0.0145822   -0.8819777    -0.4606658   -0.0340911 
   6.600000000    -0.4818515    0.0364859     0.0090070   -0.8644440     0.0132554   -0.8813923    -0.4616543   -0.0321274 
   6.602500000    -0.4823790    0.0344782     0.0066325   -0.8647619     0.0112453   -0.8805348    -0.4635506   -0.0304172 
   6.605000000    -0.4829528    0.0327945     0.0056005   -0.8648057     0.0099407   -0.8800334    -0.4656349   -0.0292693 
   6.607500000    -0.4834437    0.0311608     0.0044502   -0.8638027     0.0086651   -0.8794843    -0.4678042   -0.0290999 
   6.610000000    -0.4840485    0.0295738     0.0037137   -0.8630497     0.0079956   -0.8783778    -0.4702508   -0.0287999 
   6.612500000    -0.4849497    0.0283612     0.0023626   -0.8622149     0.0071615   -0.8771081    -0.4728249   -0.0285746 
   6.615000000    -0.4854536    0.0267861     0.0005334   -0.8616366     0.0058748   -0.8758574    -0.4759858   -0.0285380 
   6.617500000    -0.4859761    0.0251395    -0.0017095   -0.8618083     0.0043645   -0.8748417    -0.4791213   -0.0289545 
   6.620000000    -0.4863435    0.0235960    -0.0023097   -0.8615504     0.0031380   -0.8736750    -0.4826301   -0.0280759 
   6.622500000    -0.4870420    0.0219783    -0.0029208   -0.8608639     0.0022144   -0.8724507    -0.4861064   -0.0291321 
   6.625000000    -0.4874618    0.0204469    -0.0038568   -0.8598446     0.0018116   -0.8713605    -0.4895602   -0.0303932 
   6.627500000    -0.4877007    0.0195325    -0.0038716   -0.8591473     0.0015630   -0.8693799    -0.4931362   -0.0314253 
   6.630000000    -0.4883638    0.0184710    -0.0056783   -0.8597154     0.0010348   -0.8679767    -0.4966982   -0.0329140 
   6.632500000    -0.4887346    0.0175138    -0.0069608   -0.8584723     0.0004514   -0.8671509    -0.5002959   -0.0344421 
   6.635000000    -0.4887422    0.0165532    -0.0079621   -0.8580347    -0.0008809   -0.8653901    -0.5034735   -0.0364237 
   6.637500000    -0.4892169    0.0157773    -0.0083452   -0.8580148    -0.0007518   -0.8639655    -0.5075294   -0.0374333 
   6.640000000    -0.4894930    0.0152824    -0.0086856   -0.8568439    -0.0008308   -0.8623615    -0.5107914   -0.0397627 
   6.642500000    -0.4897460    0.0146570    -0.0099775   -0.8575882    -0.0006696   -0.8609066    -0.5135913   -0.0425329 
   6.645000000    -0.4900414    0.0147959    -0.0113516   -0.8569678    -0.0007993   -0.8590636    -0.5165977   -0.0451299 
   6.647500000    -0.4906824    0.0147274    -0.0128010   -0.8570994    -0.0014107   -0.8585832    -0.5190777   -0.0477354 
   6.650000000    -0.4907943    0.0144607    -0.0128226   -0.8568148    -0.0019166   -0.8565331    -0.5214734   -0.0503563 
   6.652500000    -0.4910557    0.0141829    -0.0138961   -0.8565997    -0.0024405   -0.8550979    -0.5231668   -0.0531608 
   6.655000000    -0.4911145    0.0142834    -0.0144203   -0.8574213    -0.0025635   -0.8536516    -0.5254675   -0.0549257 
   6.657500000    -0.4914649    0.0144072    -0.0154933   -0.8579667    -0.0022779   -0.8522844    -0.5269670   -0.0580660 
   6.660000000    -0.4916022    0.0153365    -0.0171824   -0.8576402    -0.0026724   -0.8508952    -0.5279515   -0.0609571 
   6.662500000    -0.4914208    0.0158748    -0.0181174   -0.8581414    -0.0031633   -0.8502542    -0.5286531   -0.0636584 
   6.665000000    -0.4920692    0.0167193    -0.0190592   -0.8583464    -0.0041630   -0.8486591    -0.5287356   -0.0666975 
   6.667500000    -0.4918167    0.0170523    -0.0192978   -0.8581645    -0.0040959   -0.8472911    -0.5280095   -0.0689477 
   6.670000000    -0.4919796    0.0179056    -0.0206985   -0.8585940    -0.0044035   -0.8462496    -0.5275428   -0.0713692 
   6.672500000    -0.4919848    0.0195198    -0.0216909   -0.8594098    -0.0048971   -0.8451133    -0.5272572   -0.0734459 
   6.675000000    -0.4923002    0.0207206    -0.0235214   -0.8596466    -0.0049945   -0.8442713    -0.5263959   -0.0757351 
   6.677500000    -0.4927306    0.0222404    -0.0243823   -0.8599480    -0.0061154   -0.8430676    -0.5254183   -0.0780304 
   6.680000000    -0.4931639    0.0233484    -0.0252894   -0.8603796    -0.0067596   -0.8429906    -0.5238798   -0.0796167 
   6.682500000    -0.4932444    0.0252513    -0.0264800   -0.8604406    -0.0070558   -0.8418229    -0.5220245   -0.0816152 
   6.685000000    -0.4935145    0.0266333    -0.0277640   -0.8606919    -0.0077073   -0.8412607    -0.5207181   -0.0827168 
   6.687500000    -0.4938507    0.0282949    -0.0294334   -0.8608166    -0.0082343   -0.8400586    -0.5187793   -0.0839085 
   6.690000000    -0.4945346    0.0299137    -0.0310401   -0.8619256    -0.0089882   -0.8395426    -0.5165287   -0.0841303 
   6.692500000    -0.4953076    0.0320273    -0.0322333   -0.8613889    -0.0093897   -0.8388564    -0.5143144   -0.0853006 
   6.695000000    -0.4953677    0.0340621    -0.0328226   -0.8610582    -0.0107935   -0.8386099    -0.5119773   -0.0859951 
   6.697500000    -0.4958199    0.0354783    -0.0340385   -0.8607634    -0.0111792   -0.8382576    -0.5101276   -0.0859132 
   6.700000000    -0.4965943    0.0370792    -0.0362915   -0.8600916    -0.0120506   -0.8376940    -0.5074546   -0.0857983 
   6.702500000    -0.4978782    0.0388993    -0.0380829   -0.8602962    -0.0132849   -0.8370360    -0.5045657   -0.0848363 
   6.705000000    -0.4984860    0.0407530    -0.0389689   -0.8608358    -0.0139086   -0.8365735    -0.5020477   -0.0842385 
   6.707500000    -0.4992478    0.0424604    -0.0399339   -0.8607583    -0.0148469   -0.8365785    -0.4998873   -0.0826732 
   6.710000000    -0.5000811    0.0438665    -0.0409987   -0.8597248    -0.0160704   -0.8366415    -0.4975318   -0.0816584 
   6.712500000    -0.5010636    0.0456571    -0.0417313   -0.8591230    -0.0171101   -0.8367915    -0.4949080   -0.0805134 
   6.715000000    -0.5020602    0.0469266    -0.0435693   -0.8586901    -0.0183999   -0.8367148    -0.4922396   -0.0785995 
   6.717500000    -0.5032254    0.0479709    -0.0458700   -0.8584447    -0.0200339   -0.8365706    -0.4896283   -0.0758491 
   6.720000000    -0.5042638    0.0487422    -0.0463492   -0.8581980    -0.0213220   -0.8358939    -0.4875716   -0.0738994 
   6.722500000    -0.5049796    0.0499430    -0.0465335   -0.8578483    -0.0230797   -0.8357655    -0.4859388   -0.0710585 
   6.725000000    -0.5058510    0.0507450    -0.0470930   -0.8570331    -0.0245521   -0.8358673    -0.4841886   -0.0690044 
   6.727500000    -0.5070710    0.0517185    -0.0481021   -0.8563578    -0.0263476   -0.8357415    -0.4825456   -0.0664151 
   6.730000000    -0.5080561    0.0521361    -0.0483413   -0.8556755    -0.0272254   -0.8353915    -0.4809397   -0.0641547 
   6.732500000    -0.5088826    0.0523366    -0.0496036   -0.8543203    -0.0284510   -0.8351763    -0.4793808   -0.0618957 
   6.735000000    -0.5097413    0.0521751    -0.0497717   -0.8537866    -0.0300244   -0.8345701    -0.4780433   -0.0589194 
   6.737500000    -0.5105845    0.0521196    -0.0499219   -0.8529311    -0.0318827   -0.8344049    -0.4773245   -0.0566824 
   6.740000000    -0.5112030    0.0522733    -0.0497476   -0.8523700    -0.0337715   -0.8339826    -0.4766541   -0.0546153 
   6.742500000    -0.5122467    0.0525679    -0.0504112   -0.8521560    -0.0351264   -0.8337291    -0.4763792   -0.0526620 
   6.745000000    -0.5129036    0.0522729    -0.0514469   -0.8505900    -0.0367472   -0.8336336    -0.4765415   -0.0509713 
   6.747500000    -0.5135204    0.0517993    -0.0510269   -0.8497230    -0.0377637   -0.8331057    -0.4764477   -0.0493600 
   6.750000000    -0.5137888    0.0512009    -0.0513896   -0.8488542    -0.0386738   -0.8326771    -0.4766023   -0.0479245 
   6.752500000    -0.5139171    0.0504161    -0.0503993   -0.8474932    -0.0403392   -0.8322282    -0.4768317   -0.0469897 
   6.755000000    -0.5141255    0.0497635    -0.0508659   -0.8473864    -0.0415888   -0.8317496    -0.4771707   -0.0454327 
   6.757500000    -0.5140592    0.0492994    -0.0512123   -0.8463475    -0.0423180   -0.8312238    -0.4781136   -0.0444557 
   6.760000000    -0.5141920    0.0486664    -0.0503400   -0.8450492    -0.0426759   -0.8307301    -0.4789866   -0.0438438 
   6.762500000    -0.5139079    0.0477986    -0.0499526   -0.8445916    -0.0436525   -0.8301800    -0.4799739   -0.0434023 
   6.765000000    -0.5134112    0.0468469    -0.0487120   -0.8434092    -0.0444508   -0.8293592    -0.4811309   -0.0433235 
   6.767500000    -0.5128923    0.0460453    -0.0482582   -0.8420776    -0.0451437   -0.8292013    -0.4826411   -0.0438139 
   6.770000000    -0.5121471    0.0449927    -0.0478469   -0.8412971    -0.0454966   -0.8287906    -0.4838608   -0.0440157 
   6.772500000    -0.5108894    0.0435744    -0.0480199   -0.8404046    -0.0456503   -0.8287316    -0.4858537   -0.0435792 
   6.775000000    -0.5103155    0.0432754    -0.0465701   -0.8406530    -0.0458977   -0.8282186    -0.4869875   -0.0441634 
   6.777500000    -0.5092822    0.0418001    -0.0453816   -0.8393711    -0.0453597   -0.8279669    -0.4884430   -0.0449326 
   6.780000000    -0.5080734    0.0406947    -0.0445370   -0.8385985    -0.0453673   -0.8277873    -0.4897490   -0.0463442 
   6.782500000    -0.5069951    0.0395295    -0.0427359   -0.8379067    -0.0458353   -0.8279321    -0.4906299   -0.0478561 
   6.785000000    -0.5061139    0.0386931    -0.0426303   -0.8382901    -0.0449142   -0.8283120    -0.4917805   -0.0488760 
   6.787500000    -0.5053039    0.0380210    -0.0415855   -0.8382775    -0.0444326   -0.8289273    -0.4933526   -0.0501491 
   6.790000000    -0.5042645    0.0378737    -0.0402729   -0.8385214    -0.0442717   -0.8292608    -0.4943737   -0.0521869 
   6.792500000    -0.5036839    0.0377598    -0.0392119   -0.8389046    -0.0437770   -0.8299138    -0.4954105   -0.0538814 
   6.795000000    -0.5028321    0.0373199    -0.0382204   -0.8389316    -0.0429811   -0.8302673    -0.4961808   -0.0556863 
   6.797500000    -0.5022848    0.0373233    -0.0370547   -0.8390670    -0.0421421   -0.8307829    -0.4970876   -0.0571457 
   6.800000000    -0.5016000    0.0376001    -0.0352909   -0.8394712    -0.0422670   -0.8320264    -0.4981083   -0.0594496 
   6.802500000    -0.5011114    0.0387503    -0.0356341   -0.8405382    -0.0411760   -0.8334291    -0.4992979   -0.0611417 
   6.805000000    -0.5002527    0.0393505    -0.0345523   -0.8404565    -0.0403683   -0.8337992    -0.4999098   -0.0623928 
   6.807500000    -0.4999928    0.0414274    -0.0347010   -0.8415245    -0.0405008   -0.8353012    -0.5006808   -0.0641267 
   6.810000000    -0.4998106    0.0425717    -0.0345974   -0.8425256    -0.0402534   -0.8365448    -0.5006595   -0.0647409 
   6.812500000    -0.5000336    0.0441847    -0.0340544   -0.8430874    -0.0398259   -0.8378225    -0.5015211   -0.0651900 
   6.815000000    -0.4998469    0.0464138    -0.0337234   -0.8436441    -0.0397355   -0.8391392    -0.5016837   -0.0663453 
   6.817500000    -0.4992459    0.0481595    -0.0343010   -0.8446892    -0.0398176   -0.8405013    -0.5019196   -0.0667235 
   6.820000000    -0.4984896    0.0506018    -0.0349545   -0.8453848    -0.0394645   -0.8418849    -0.5014511   -0.0669774 
   6.822500000    -0.4986098    0.0532715    -0.0348774   -0.8471389    -0.0390286   -0.8432544    -0.5005434   -0.0666665 
   6.825000000    -0.4993277    0.0559161    -0.0358334   -0.8480089    -0.0392327   -0.8447545    -0.5000554   -0.0658971 
   6.827500000    -0.4991120    0.0585415    -0.0356645   -0.8486837    -0.0390292   -0.8461877    -0.4991176   -0.0652646 
   6.830000000    -0.4988153    0.0613636    -0.0364192   -0.8492570    -0.0393475   -0.8477213    -0.4976538   -0.0646408 
   6.832500000    -0.4984758    0.0639467    -0.0381913   -0.8498605    -0.0400011   -0.8489514    -0.4963073   -0.0638341 
   6.835000000    -0.4984056    0.0669056    -0.0391229   -0.8505022    -0.0399753   -0.8506569    -0.4940856   -0.0619597 
   6.837500000    -0.4982477    0.0701558    -0.0406019   -0.8510676    -0.0401650   -0.8519925    -0.4918581   -0.0604669 
   6.840000000    -0.4980766    0.0727925    -0.0416958   -0.8509960    -0.0404994   -0.8527491    -0.4898930   -0.0581258 
   6.842500000    -0.4980191    0.0748334    -0.0436070   -0.8517891    -0.0411999   -0.8535425    -0.4874239   -0.0566105 
   6.845000000    -0.4980752    0.0769669    -0.0451949   -0.8519388    -0.0424267   -0.8545864    -0.4852525   -0.0548534 
   6.847500000    -0.4982734    0.0792368    -0.0470787   -0.8507002    -0.0435328   -0.8551922    -0.4824631   -0.0522832 
   6.850000000    -0.4986431    0.0818111    -0.0482535   -0.8505362    -0.0434194   -0.8555631    -0.4797451   -0.0502191 
   6.852500000    -0.4990116    0.0831031    -0.0497698   -0.8502080    -0.0436303   -0.8559756    -0.4773121   -0.0481425 
   6.855000000    -0.4995155    0.0845379    -0.0520951   -0.8498963    -0.0443051   -0.8560400    -0.4747714   -0.0460950 
   6.857500000    -0.4999346    0.0852663    -0.0539886   -0.8493440    -0.0448193   -0.8567334    -0.4719774   -0.0438234 
   6.860000000    -0.5002770    0.0862460    -0.0557822   -0.8487117    -0.0452030   -0.8569347    -0.4695188   -0.0415175 
   6.862500000    -0.5005730    0.0866988    -0.0577893   -0.8474381    -0.0459066   -0.8566419    -0.4669846   -0.0394522 
   6.865000000    -0.5012258    0.0872088    -0.0589408   -0.8459707    -0.0456793   -0.8564590    -0.4644058   -0.0374922 
   6.867500000    -0.5014712    0.0875719    -0.0601207   -0.8448182    -0.0454564   -0.8558961    -0.4619978   -0.0359390 
   6.870000000    -0.5019597    0.0875820    -0.0621558   -0.8439732    -0.0456444   -0.8561028    -0.4597679   -0.0333465 
   6.872500000    -0.5019672    0.0871366    -0.0640762   -0.8425109    -0.0455642   -0.8556340    -0.4576549   -0.0318471 
   6.875000000    -0.5019367    0.0863212    -0.0649495   -0.8407035    -0.0456762   -0.8549048    -0.4555757   -0.0304431 
   6.877500000    -0.5022776    0.0853014    -0.0653709   -0.8395434    -0.0447412   -0.8549122    -0.4546901   -0.0290422 
   6.880000000    -0.5034553    0.0847284    -0.0653949   -0.8375366    -0.0444328   -0.8547087    -0.4535186   -0.0281772 
   6.882500000    -0.5034301    0.0835862    -0.0665768   -0.8369288    -0.0437781   -0.8545874    -0.4525414   -0.0274385 
   6.885000000    -0.5028276    0.0823538    -0.0671686   -0.8348252    -0.0446447   -0.8548845    -0.4518872   -0.0271043 
   6.887500000    -0.5018911    0.0805015    -0.0668941   -0.8336588    -0.0441531   -0.8548130    -0.4518616   -0.0260446 
