! MS46122B
! 1919307/90821646
! 7/29/2022 2:41:15 PM
! C:\USERS\PC_\DESKTOP\MEDICIONES\BANCHA ESTRECHA\65_7GHZ\S11_S21_ABS10_502CL.S2P
! CHANNEL.1
! TR.MEASUREMENT
! CORRECTED.DATA
# GHZ S RI R 50.0
! FREQ.GHZ         S11RE         S11IM         S21RE         S21IM         S12RE         S12IM         S22RE         S22IM         
!; PortSelection: Port_12
   6.500000000    -0.5035520    0.3253444    -0.3173253   -0.7504615    -0.3135391   -0.7484752    -0.5606523    0.2660680 
   6.502500000    -0.5075064    0.3213005    -0.3216490   -0.7451846    -0.3144032   -0.7472445    -0.5588853    0.2655555 
   6.505000000    -0.5077378    0.3201018    -0.3223224   -0.7432922    -0.3142703   -0.7460853    -0.5571901    0.2653136 
   6.507500000    -0.5074369    0.3195139    -0.3218515   -0.7418229    -0.3145154   -0.7454963    -0.5558577    0.2646865 
   6.510000000    -0.5069755    0.3191950    -0.3220290   -0.7403876    -0.3134413   -0.7442867    -0.5537084    0.2634923 
   6.512500000    -0.5057216    0.3184949    -0.3212790   -0.7397521    -0.3130640   -0.7429149    -0.5509435    0.2632446 
   6.515000000    -0.5043023    0.3167582    -0.3197483   -0.7399054    -0.3115315   -0.7424290    -0.5475268    0.2618478 
   6.517500000    -0.5026041    0.3143947    -0.3184607   -0.7408326    -0.3100920   -0.7436886    -0.5442065    0.2591750 
   6.520000000    -0.5017102    0.3109959    -0.3175309   -0.7421517    -0.3095236   -0.7458891    -0.5414787    0.2553174 
   6.522500000    -0.5014685    0.3080392    -0.3184806   -0.7449392    -0.3096132   -0.7484203    -0.5401914    0.2514590 
   6.525000000    -0.5023206    0.3048409    -0.3206007   -0.7457839    -0.3113163   -0.7504357    -0.5398902    0.2475598 
   6.527500000    -0.5039814    0.3026882    -0.3226239   -0.7470733    -0.3130872   -0.7514793    -0.5399759    0.2439749 
   6.530000000    -0.5055596    0.3007590    -0.3244067   -0.7479302    -0.3147080   -0.7524006    -0.5400255    0.2421584 
   6.532500000    -0.5068458    0.2994694    -0.3263485   -0.7486672    -0.3168627   -0.7530084    -0.5403991    0.2403715 
   6.535000000    -0.5078549    0.2987073    -0.3292587   -0.7495063    -0.3190105   -0.7535720    -0.5412251    0.2393602 
   6.537500000    -0.5084996    0.2976937    -0.3309914   -0.7488649    -0.3209069   -0.7536972    -0.5409322    0.2381727 
   6.540000000    -0.5089160    0.2969041    -0.3327582   -0.7479132    -0.3227009   -0.7538159    -0.5407462    0.2370164 
   6.542500000    -0.5093606    0.2959527    -0.3344354   -0.7475364    -0.3245540   -0.7534217    -0.5400947    0.2368351 
   6.545000000    -0.5095727    0.2953329    -0.3359320   -0.7472365    -0.3263845   -0.7534577    -0.5395839    0.2359915 
   6.547500000    -0.5094664    0.2946796    -0.3373510   -0.7470007    -0.3282650   -0.7532798    -0.5393083    0.2355053 
   6.550000000    -0.5094000    0.2940759    -0.3393196   -0.7473719    -0.3300182   -0.7529706    -0.5391253    0.2352334 
   6.552500000    -0.5090916    0.2933823    -0.3420694   -0.7460514    -0.3320213   -0.7526731    -0.5379233    0.2354949 
   6.555000000    -0.5089092    0.2930219    -0.3425088   -0.7453508    -0.3339108   -0.7521277    -0.5371624    0.2354333 
   6.557500000    -0.5082620    0.2921603    -0.3435698   -0.7446066    -0.3352964   -0.7513514    -0.5365448    0.2353929 
   6.560000000    -0.5079391    0.2912067    -0.3446887   -0.7441275    -0.3374597   -0.7513240    -0.5360036    0.2357459 
   6.562500000    -0.5076016    0.2900622    -0.3468853   -0.7429222    -0.3394763   -0.7513698    -0.5346763    0.2362101 
   6.565000000    -0.5071263    0.2896926    -0.3487589   -0.7422487    -0.3408205   -0.7509550    -0.5337216    0.2367937 
   6.567500000    -0.5063687    0.2891616    -0.3499425   -0.7423521    -0.3430272   -0.7498593    -0.5332977    0.2375735 
   6.570000000    -0.5054016    0.2888869    -0.3512625   -0.7416927    -0.3446201   -0.7489846    -0.5330480    0.2382699 
   6.572500000    -0.5053274    0.2871837    -0.3517042   -0.7395970    -0.3458322   -0.7480813    -0.5325299    0.2379323 
   6.575000000    -0.5051751    0.2862934    -0.3522599   -0.7389660    -0.3472782   -0.7473965    -0.5319360    0.2370673 
   6.577500000    -0.5049558    0.2852100    -0.3541993   -0.7381904    -0.3484934   -0.7463336    -0.5306721    0.2374074 
   6.580000000    -0.5042517    0.2845912    -0.3557923   -0.7369938    -0.3505459   -0.7455124    -0.5304378    0.2379956 
   6.582500000    -0.5037090    0.2836554    -0.3565454   -0.7357523    -0.3521287   -0.7444103    -0.5296518    0.2385867 
   6.585000000    -0.5027944    0.2830115    -0.3579684   -0.7351068    -0.3531076   -0.7436324    -0.5287036    0.2396078 
   6.587500000    -0.5019890    0.2821030    -0.3586712   -0.7343495    -0.3545973   -0.7422690    -0.5282263    0.2397075 
   6.590000000    -0.5017106    0.2811798    -0.3593275   -0.7333357    -0.3553194   -0.7410761    -0.5277174    0.2397980 
   6.592500000    -0.5018405    0.2799695    -0.3604200   -0.7330636    -0.3561389   -0.7403943    -0.5267490    0.2399890 
   6.595000000    -0.5018114    0.2788063    -0.3619429   -0.7318212    -0.3571708   -0.7394835    -0.5263302    0.2408904 
   6.597500000    -0.5012882    0.2779059    -0.3624602   -0.7309930    -0.3584415   -0.7381501    -0.5261616    0.2411427 
   6.600000000    -0.5008965    0.2768285    -0.3633168   -0.7300285    -0.3594343   -0.7370680    -0.5256827    0.2415488 
   6.602500000    -0.5003237    0.2765723    -0.3641881   -0.7296611    -0.3602534   -0.7361321    -0.5250553    0.2421342 
   6.605000000    -0.5002562    0.2752737    -0.3644930   -0.7290297    -0.3612668   -0.7348551    -0.5248343    0.2419351 
   6.607500000    -0.5002741    0.2743533    -0.3657483   -0.7281233    -0.3612788   -0.7343202    -0.5243171    0.2414742 
   6.610000000    -0.5003636    0.2729849    -0.3662800   -0.7272349    -0.3631583   -0.7331458    -0.5240516    0.2416951 
   6.612500000    -0.5004750    0.2721026    -0.3668173   -0.7267072    -0.3635564   -0.7320601    -0.5233386    0.2413391 
   6.615000000    -0.5004301    0.2711549    -0.3673820   -0.7261288    -0.3646233   -0.7318568    -0.5234869    0.2411734 
   6.617500000    -0.5003315    0.2704020    -0.3682321   -0.7254616    -0.3657164   -0.7313764    -0.5236377    0.2407901 
   6.620000000    -0.5001519    0.2699276    -0.3688469   -0.7252747    -0.3660648   -0.7303870    -0.5228298    0.2402674 
   6.622500000    -0.5002180    0.2692347    -0.3699242   -0.7241361    -0.3669193   -0.7298136    -0.5226228    0.2395331 
   6.625000000    -0.5004771    0.2681645    -0.3704119   -0.7239752    -0.3677242   -0.7292652    -0.5225115    0.2380089 
   6.627500000    -0.5004771    0.2674061    -0.3704826   -0.7240093    -0.3686021   -0.7285978    -0.5224821    0.2373591 
   6.630000000    -0.5006201    0.2665133    -0.3712695   -0.7232456    -0.3692620   -0.7284781    -0.5223007    0.2367203 
   6.632500000    -0.5004465    0.2660094    -0.3713832   -0.7228538    -0.3695733   -0.7280564    -0.5220549    0.2354257 
   6.635000000    -0.5005219    0.2656186    -0.3728443   -0.7223191    -0.3705088   -0.7272587    -0.5218095    0.2341789 
   6.637500000    -0.5007882    0.2653223    -0.3736292   -0.7216945    -0.3707676   -0.7268730    -0.5217179    0.2328524 
   6.640000000    -0.5007909    0.2650711    -0.3738708   -0.7209082    -0.3716870   -0.7260777    -0.5215332    0.2308935 
   6.642500000    -0.5010260    0.2646678    -0.3741753   -0.7205827    -0.3724740   -0.7257655    -0.5213305    0.2291166 
   6.645000000    -0.5009324    0.2644264    -0.3746160   -0.7201337    -0.3731380   -0.7250867    -0.5211608    0.2286840 
   6.647500000    -0.5008337    0.2640897    -0.3756965   -0.7195182    -0.3737520   -0.7247959    -0.5209849    0.2269505 
   6.650000000    -0.5007702    0.2638732    -0.3763247   -0.7189686    -0.3738550   -0.7241879    -0.5204732    0.2250352 
   6.652500000    -0.5007921    0.2639801    -0.3774893   -0.7181550    -0.3751534   -0.7232348    -0.5196214    0.2232502 
   6.655000000    -0.5005535    0.2638611    -0.3771161   -0.7180440    -0.3761724   -0.7221773    -0.5191899    0.2214255 
   6.657500000    -0.5002568    0.2640283    -0.3777615   -0.7174535    -0.3765209   -0.7218276    -0.5188501    0.2198955 
   6.660000000    -0.5000714    0.2640871    -0.3779364   -0.7169884    -0.3770902   -0.7214092    -0.5183536    0.2188759 
   6.662500000    -0.4995020    0.2638803    -0.3788988   -0.7166236    -0.3774050   -0.7209298    -0.5177039    0.2171587 
   6.665000000    -0.4988931    0.2641724    -0.3797882   -0.7157166    -0.3778071   -0.7202593    -0.5170587    0.2153670 
   6.667500000    -0.4983957    0.2645600    -0.3792893   -0.7153790    -0.3784251   -0.7190506    -0.5158074    0.2132050 
   6.670000000    -0.4978294    0.2649019    -0.3795820   -0.7148488    -0.3788243   -0.7186239    -0.5142015    0.2123314 
   6.672500000    -0.4973761    0.2655321    -0.3792794   -0.7147533    -0.3796927   -0.7178596    -0.5132515    0.2112582 
   6.675000000    -0.4967630    0.2662499    -0.3796088   -0.7144271    -0.3800656   -0.7178225    -0.5129820    0.2106222 
   6.677500000    -0.4956832    0.2671767    -0.3800635   -0.7132669    -0.3804469   -0.7174581    -0.5122210    0.2096817 
   6.680000000    -0.4949387    0.2677962    -0.3813053   -0.7133150    -0.3806009   -0.7170765    -0.5113971    0.2085789 
   6.682500000    -0.4945992    0.2689900    -0.3810728   -0.7131414    -0.3807186   -0.7162693    -0.5097085    0.2080026 
   6.685000000    -0.4937037    0.2698094    -0.3807743   -0.7127979    -0.3815793   -0.7160298    -0.5087753    0.2077316 
   6.687500000    -0.4933633    0.2707584    -0.3811640   -0.7125497    -0.3820961   -0.7155870    -0.5078690    0.2077634 
   6.690000000    -0.4922848    0.2723683    -0.3809827   -0.7118713    -0.3825636   -0.7152240    -0.5066841    0.2079817 
   6.692500000    -0.4914489    0.2739101    -0.3817891   -0.7113679    -0.3827537   -0.7149780    -0.5058420    0.2074516 
   6.695000000    -0.4908240    0.2755554    -0.3820375   -0.7105666    -0.3828918   -0.7144780    -0.5039380    0.2077160 
   6.697500000    -0.4902931    0.2766230    -0.3823095   -0.7106454    -0.3827626   -0.7140012    -0.5026943    0.2078907 
   6.700000000    -0.4898077    0.2779893    -0.3827716   -0.7103967    -0.3834089   -0.7135428    -0.5012378    0.2082482 
   6.702500000    -0.4892430    0.2799613    -0.3822511   -0.7096384    -0.3840340   -0.7121124    -0.4989705    0.2084353 
   6.705000000    -0.4889839    0.2824694    -0.3820285   -0.7087283    -0.3834443   -0.7113678    -0.4968764    0.2077338 
   6.707500000    -0.4885742    0.2848015    -0.3819095   -0.7081252    -0.3830154   -0.7111805    -0.4950828    0.2061914 
   6.710000000    -0.4875128    0.2866707    -0.3807634   -0.7085312    -0.3818557   -0.7110291    -0.4937743    0.2046712 
   6.712500000    -0.4864831    0.2894889    -0.3798221   -0.7091048    -0.3810429   -0.7119009    -0.4945238    0.2027345 
   6.715000000    -0.4850716    0.2914546    -0.3800136   -0.7107737    -0.3808006   -0.7133422    -0.4962254    0.2020769 
   6.717500000    -0.4836975    0.2934239    -0.3802852   -0.7120703    -0.3817396   -0.7143326    -0.4978195    0.2032060 
   6.720000000    -0.4826519    0.2945423    -0.3816157   -0.7126916    -0.3825286   -0.7151617    -0.4989965    0.2050022 
   6.722500000    -0.4820702    0.2955585    -0.3836012   -0.7139442    -0.3836426   -0.7157049    -0.4998199    0.2067229 
   6.725000000    -0.4811576    0.2967359    -0.3840947   -0.7141026    -0.3845036   -0.7161065    -0.5002900    0.2084571 
   6.727500000    -0.4805856    0.2977357    -0.3849230   -0.7143432    -0.3855979   -0.7161641    -0.4998507    0.2112415 
   6.730000000    -0.4800371    0.2986186    -0.3850335   -0.7143770    -0.3862853   -0.7162650    -0.4998451    0.2130214 
   6.732500000    -0.4789584    0.3000970    -0.3863634   -0.7142054    -0.3873039   -0.7164007    -0.4997216    0.2145953 
   6.735000000    -0.4784123    0.3007346    -0.3875088   -0.7142188    -0.3879421   -0.7160780    -0.4992443    0.2157346 
   6.737500000    -0.4779687    0.3015127    -0.3884889   -0.7139797    -0.3883893   -0.7156642    -0.4989917    0.2171431 
   6.740000000    -0.4777792    0.3018875    -0.3893628   -0.7143387    -0.3891307   -0.7153528    -0.4986288    0.2177951 
   6.742500000    -0.4775178    0.3025362    -0.3896751   -0.7139275    -0.3899749   -0.7147466    -0.4984611    0.2186976 
   6.745000000    -0.4772278    0.3028995    -0.3904013   -0.7138835    -0.3916362   -0.7146281    -0.4985870    0.2203921 
   6.747500000    -0.4768724    0.3030086    -0.3912334   -0.7132003    -0.3916415   -0.7143991    -0.4979723    0.2210761 
   6.750000000    -0.4763519    0.3040056    -0.3927121   -0.7132643    -0.3919832   -0.7146257    -0.4975263    0.2214028 
   6.752500000    -0.4761279    0.3038663    -0.3926514   -0.7134197    -0.3922496   -0.7138749    -0.4969702    0.2211915 
   6.755000000    -0.4756084    0.3037252    -0.3932627   -0.7132254    -0.3927967   -0.7130972    -0.4964063    0.2210641 
   6.757500000    -0.4752267    0.3034182    -0.3932705   -0.7133163    -0.3933884   -0.7126250    -0.4958072    0.2206242 
   6.760000000    -0.4750963    0.3029098    -0.3934655   -0.7125514    -0.3936165   -0.7120189    -0.4951526    0.2197125 
   6.762500000    -0.4747647    0.3025967    -0.3944808   -0.7122200    -0.3940705   -0.7118602    -0.4947677    0.2202986 
   6.765000000    -0.4741679    0.3025365    -0.3942508   -0.7124031    -0.3939402   -0.7117749    -0.4944936    0.2189314 
   6.767500000    -0.4736050    0.3029722    -0.3945870   -0.7123862    -0.3939423   -0.7120362    -0.4940335    0.2177649 
   6.770000000    -0.4730578    0.3021592    -0.3944719   -0.7125228    -0.3941234   -0.7118497    -0.4934628    0.2164858 
   6.772500000    -0.4724324    0.3010539    -0.3946717   -0.7127165    -0.3943979   -0.7118824    -0.4928362    0.2150481 
   6.775000000    -0.4719122    0.3003448    -0.3946302   -0.7134132    -0.3951300   -0.7115667    -0.4919883    0.2141259 
   6.777500000    -0.4713274    0.2994451    -0.3953882   -0.7130755    -0.3948103   -0.7118267    -0.4915578    0.2131302 
   6.780000000    -0.4708047    0.2983748    -0.3953030   -0.7134364    -0.3946370   -0.7120751    -0.4911990    0.2107536 
   6.782500000    -0.4700989    0.2986250    -0.3950660   -0.7139331    -0.3945577   -0.7123091    -0.4902483    0.2084055 
   6.785000000    -0.4693495    0.2979238    -0.3956291   -0.7142948    -0.3943945   -0.7133735    -0.4895301    0.2059848 
   6.787500000    -0.4690046    0.2969010    -0.3950641   -0.7152030    -0.3944081   -0.7138306    -0.4881213    0.2042934 
   6.790000000    -0.4686634    0.2962761    -0.3955473   -0.7164420    -0.3956309   -0.7142462    -0.4875456    0.2020372 
   6.792500000    -0.4677625    0.2953154    -0.3962887   -0.7171349    -0.3959223   -0.7150426    -0.4873752    0.2002886 
   6.795000000    -0.4669535    0.2954086    -0.3970207   -0.7171357    -0.3960525   -0.7155485    -0.4869752    0.1983120 
   6.797500000    -0.4667377    0.2951156    -0.3972031   -0.7184888    -0.3958846   -0.7164316    -0.4870152    0.1956511 
   6.800000000    -0.4664319    0.2956267    -0.3972902   -0.7194946    -0.3963977   -0.7174066    -0.4861158    0.1939255 
   6.802500000    -0.4658510    0.2956418    -0.3980563   -0.7203646    -0.3966821   -0.7186961    -0.4861917    0.1917995 
   6.805000000    -0.4650008    0.2959611    -0.3985472   -0.7214728    -0.3971382   -0.7197448    -0.4859325    0.1908037 
   6.807500000    -0.4637530    0.2969108    -0.4000152   -0.7226719    -0.3990261   -0.7199938    -0.4857895    0.1895994 
   6.810000000    -0.4630761    0.2978282    -0.4016008   -0.7231532    -0.4002597   -0.7208651    -0.4858046    0.1887199 
   6.812500000    -0.4628618    0.2992521    -0.4025851   -0.7248021    -0.4013501   -0.7217419    -0.4851145    0.1882940 
   6.815000000    -0.4625221    0.3002449    -0.4036489   -0.7259964    -0.4018486   -0.7227948    -0.4849195    0.1879012 
   6.817500000    -0.4611850    0.3014593    -0.4046217   -0.7269686    -0.4033660   -0.7236203    -0.4849873    0.1880320 
   6.820000000    -0.4587433    0.3032733    -0.4062342   -0.7276520    -0.4049708   -0.7243980    -0.4847822    0.1881055 
   6.822500000    -0.4576159    0.3049637    -0.4085431   -0.7287193    -0.4067566   -0.7254205    -0.4843961    0.1883604 
   6.825000000    -0.4569246    0.3069414    -0.4108990   -0.7282071    -0.4088071   -0.7262866    -0.4833767    0.1894214 
   6.827500000    -0.4561437    0.3085832    -0.4119999   -0.7293378    -0.4106150   -0.7268251    -0.4828313    0.1900822 
   6.830000000    -0.4542540    0.3104960    -0.4129521   -0.7294180    -0.4120283   -0.7272722    -0.4817102    0.1914274 
   6.832500000    -0.4514447    0.3124812    -0.4145911   -0.7297477    -0.4131771   -0.7272578    -0.4810302    0.1921038 
   6.835000000    -0.4497227    0.3145347    -0.4168137   -0.7305647    -0.4158152   -0.7278408    -0.4802423    0.1935367 
   6.837500000    -0.4476955    0.3167711    -0.4192691   -0.7302169    -0.4181306   -0.7272791    -0.4790506    0.1949110 
   6.840000000    -0.4456384    0.3187006    -0.4208985   -0.7294292    -0.4197707   -0.7271901    -0.4771391    0.1966768 
   6.842500000    -0.4437382    0.3200746    -0.4226425   -0.7289961    -0.4214458   -0.7270533    -0.4759391    0.1976708 
   6.845000000    -0.4411916    0.3215680    -0.4245289   -0.7289653    -0.4231232   -0.7262363    -0.4751402    0.1989048 
   6.847500000    -0.4391522    0.3229486    -0.4262436   -0.7284893    -0.4252804   -0.7261640    -0.4742926    0.2002047 
   6.850000000    -0.4373686    0.3240491    -0.4271644   -0.7281737    -0.4267592   -0.7255299    -0.4735070    0.2019959 
   6.852500000    -0.4356857    0.3251110    -0.4291314   -0.7269691    -0.4281422   -0.7246505    -0.4725880    0.2034054 
   6.855000000    -0.4338440    0.3257326    -0.4307181   -0.7261501    -0.4294569   -0.7238353    -0.4718011    0.2045534 
   6.857500000    -0.4321499    0.3262137    -0.4315243   -0.7255603    -0.4304109   -0.7232807    -0.4706795    0.2054171 
   6.860000000    -0.4299114    0.3267800    -0.4338424   -0.7258728    -0.4320723   -0.7228696    -0.4698341    0.2067993 
   6.862500000    -0.4285225    0.3266097    -0.4346933   -0.7252706    -0.4329002   -0.7221355    -0.4688867    0.2082909 
   6.865000000    -0.4268053    0.3265434    -0.4359125   -0.7236143    -0.4341412   -0.7208462    -0.4679006    0.2091439 
   6.867500000    -0.4253675    0.3261941    -0.4362510   -0.7234153    -0.4347519   -0.7197458    -0.4679702    0.2106017 
   6.870000000    -0.4240720    0.3263290    -0.4369926   -0.7227904    -0.4351754   -0.7190384    -0.4673344    0.2113668 
   6.872500000    -0.4225839    0.3258992    -0.4382775   -0.7224094    -0.4358476   -0.7179438    -0.4667125    0.2121389 
   6.875000000    -0.4214138    0.3252220    -0.4390489   -0.7225421    -0.4366167   -0.7176567    -0.4659080    0.2128192 
   6.877500000    -0.4196488    0.3247975    -0.4402020   -0.7220378    -0.4373498   -0.7171898    -0.4651812    0.2132763 
   6.880000000    -0.4182471    0.3238176    -0.4409611   -0.7223355    -0.4379468   -0.7168383    -0.4643265    0.2144301 
   6.882500000    -0.4176226    0.3233010    -0.4412484   -0.7222612    -0.4384892   -0.7169299    -0.4643359    0.2148080 
   6.885000000    -0.4164293    0.3219127    -0.4412621   -0.7218129    -0.4391522   -0.7160554    -0.4638086    0.2146269 
   6.887500000    -0.4149617    0.3207930    -0.4424592   -0.7212400    -0.4389575   -0.7159607    -0.4635509    0.2145351 
   6.890000000    -0.4128372    0.3194022    -0.4437654   -0.7208815    -0.4401694   -0.7158947    -0.4627587    0.2144511 
