! MS46122B
! 1919307/90821646
! 7/29/2022 12:53:57 PM
! C:\USERS\PC_\DESKTOP\MEDICIONES\BANCHA ESTRECHA\55_6GHZ\S11_S21_ABS10_502CL.S2P
! CHANNEL.1
! TR.MEASUREMENT
! CORRECTED.DATA
# GHZ S RI R 50.0
! FREQ.GHZ         S11RE         S11IM         S21RE         S21IM         S12RE         S12IM         S22RE         S22IM         
!; PortSelection: Port_12
   5.500000000    -0.7894405    0.0658078    -0.1153285   -0.5796885    -0.1098641   -0.5802634    -0.7353436    0.0536471 
   5.502500000    -0.7881606    0.0670772    -0.1161957   -0.5806954    -0.1087361   -0.5794921    -0.7364388    0.0543870 
   5.505000000    -0.7886502    0.0685265    -0.1146106   -0.5806939    -0.1068893   -0.5782671    -0.7369169    0.0555569 
   5.507500000    -0.7887509    0.0702584    -0.1129927   -0.5801457    -0.1054833   -0.5779051    -0.7389872    0.0565645 
   5.510000000    -0.7891937    0.0716022    -0.1113121   -0.5798748    -0.1040250   -0.5774406    -0.7408375    0.0582411 
   5.512500000    -0.7898571    0.0729532    -0.1105653   -0.5792300    -0.1030559   -0.5770093    -0.7423118    0.0599677 
   5.515000000    -0.7907269    0.0746010    -0.1090926   -0.5791813    -0.1014885   -0.5764091    -0.7440383    0.0621502 
   5.517500000    -0.7910318    0.0763409    -0.1081741   -0.5790289    -0.1002727   -0.5760768    -0.7459557    0.0651619 
   5.520000000    -0.7913456    0.0781611    -0.1064684   -0.5786757    -0.0988378   -0.5762304    -0.7477365    0.0669961 
   5.522500000    -0.7912807    0.0796934    -0.1050159   -0.5788659    -0.0973405   -0.5765288    -0.7501264    0.0695153 
   5.525000000    -0.7915655    0.0817988    -0.1035503   -0.5788726    -0.0965256   -0.5761291    -0.7516446    0.0723891 
   5.527500000    -0.7916732    0.0832654    -0.1028895   -0.5786240    -0.0938809   -0.5765525    -0.7532770    0.0755289 
   5.530000000    -0.7918610    0.0853384    -0.1019916   -0.5788556    -0.0934328   -0.5767173    -0.7552263    0.0782066 
   5.532500000    -0.7919438    0.0875863    -0.1003732   -0.5788508    -0.0917962   -0.5763263    -0.7566913    0.0818023 
   5.535000000    -0.7918877    0.0887281    -0.0988240   -0.5789071    -0.0902863   -0.5767084    -0.7584445    0.0848510 
   5.537500000    -0.7919266    0.0911786    -0.0971744   -0.5788799    -0.0886578   -0.5767073    -0.7600147    0.0886584 
   5.540000000    -0.7922046    0.0926145    -0.0956651   -0.5793121    -0.0866978   -0.5769559    -0.7617723    0.0915862 
   5.542500000    -0.7919986    0.0943377    -0.0946595   -0.5792814    -0.0852751   -0.5774802    -0.7635108    0.0948047 
   5.545000000    -0.7918293    0.0953996    -0.0935516   -0.5796462    -0.0838207   -0.5781744    -0.7651414    0.0978460 
   5.547500000    -0.7911141    0.0971452    -0.0921564   -0.5797279    -0.0819518   -0.5785344    -0.7662230    0.1006169 
   5.550000000    -0.7904409    0.0983774    -0.0907485   -0.5798773    -0.0804489   -0.5786274    -0.7667353    0.1040591 
   5.552500000    -0.7907859    0.0991571    -0.0893891   -0.5801481    -0.0788797   -0.5790015    -0.7678841    0.1076143 
   5.555000000    -0.7917860    0.1004567    -0.0874042   -0.5801511    -0.0774887   -0.5798571    -0.7681969    0.1107422 
   5.557500000    -0.7917774    0.1015405    -0.0870887   -0.5804260    -0.0758895   -0.5799081    -0.7686787    0.1135096 
   5.560000000    -0.7905950    0.1027553    -0.0855265   -0.5803397    -0.0747480   -0.5802202    -0.7696181    0.1168461 
   5.562500000    -0.7887170    0.1040293    -0.0844704   -0.5803876    -0.0732902   -0.5805712    -0.7707726    0.1198689 
   5.565000000    -0.7890197    0.1054995    -0.0832956   -0.5806966    -0.0716120   -0.5812437    -0.7712315    0.1230013 
   5.567500000    -0.7895791    0.1048253    -0.0820005   -0.5810794    -0.0705700   -0.5816227    -0.7719827    0.1259210 
   5.570000000    -0.7890373    0.1046154    -0.0811971   -0.5814939    -0.0691913   -0.5821775    -0.7724398    0.1288400 
   5.572500000    -0.7886393    0.1059523    -0.0799153   -0.5818455    -0.0683358   -0.5829080    -0.7728241    0.1315096 
   5.575000000    -0.7888038    0.1072114    -0.0792924   -0.5824546    -0.0666002   -0.5833937    -0.7732710    0.1338895 
   5.577500000    -0.7888178    0.1081116    -0.0775710   -0.5828675    -0.0658087   -0.5842979    -0.7739003    0.1362311 
   5.580000000    -0.7886243    0.1087492    -0.0763784   -0.5837449    -0.0648279   -0.5851079    -0.7740799    0.1387708 
   5.582500000    -0.7880737    0.1092289    -0.0756119   -0.5844871    -0.0637843   -0.5861610    -0.7742372    0.1412497 
   5.585000000    -0.7880336    0.1102740    -0.0744938   -0.5853322    -0.0620955   -0.5870212    -0.7750100    0.1434326 
   5.587500000    -0.7879151    0.1106512    -0.0729084   -0.5860797    -0.0615237   -0.5878616    -0.7750111    0.1450489 
   5.590000000    -0.7876988    0.1112211    -0.0712264   -0.5867741    -0.0601030   -0.5889083    -0.7752289    0.1476258 
   5.592500000    -0.7874759    0.1119096    -0.0700430   -0.5875934    -0.0584846   -0.5898312    -0.7748060    0.1491498 
   5.595000000    -0.7876699    0.1125140    -0.0680357   -0.5883107    -0.0568613   -0.5906860    -0.7747602    0.1515008 
   5.597500000    -0.7872666    0.1138430    -0.0676833   -0.5893086    -0.0561307   -0.5918410    -0.7743831    0.1533487 
   5.600000000    -0.7872801    0.1140298    -0.0659863   -0.5898995    -0.0545264   -0.5928131    -0.7745609    0.1543979 
   5.602500000    -0.7871932    0.1146266    -0.0642116   -0.5907106    -0.0531781   -0.5936304    -0.7745438    0.1562544 
   5.605000000    -0.7867441    0.1149683    -0.0624218   -0.5917233    -0.0514890   -0.5946911    -0.7743247    0.1576700 
   5.607500000    -0.7861997    0.1160507    -0.0611520   -0.5926087    -0.0503586   -0.5957395    -0.7739136    0.1595522 
   5.610000000    -0.7861137    0.1172894    -0.0597171   -0.5934479    -0.0490144   -0.5966094    -0.7737128    0.1606911 
   5.612500000    -0.7858534    0.1179142    -0.0592087   -0.5948634    -0.0479533   -0.5976073    -0.7738886    0.1616601 
   5.615000000    -0.7856979    0.1188225    -0.0578193   -0.5961249    -0.0471088   -0.5989553    -0.7746257    0.1633819 
   5.617500000    -0.7849942    0.1199495    -0.0562827   -0.5970496    -0.0457739   -0.6000438    -0.7739700    0.1646238 
   5.620000000    -0.7843234    0.1214796    -0.0556260   -0.5981582    -0.0448681   -0.6012647    -0.7728657    0.1671497 
   5.622500000    -0.7841170    0.1231933    -0.0549096   -0.5997055    -0.0428400   -0.6022484    -0.7720239    0.1686449 
   5.625000000    -0.7833642    0.1245619    -0.0527857   -0.6009421    -0.0433857   -0.6032553    -0.7715324    0.1703305 
   5.627500000    -0.7824199    0.1258045    -0.0523837   -0.6027542    -0.0420645   -0.6046595    -0.7717450    0.1721259 
   5.630000000    -0.7817642    0.1272176    -0.0511690   -0.6043982    -0.0408475   -0.6062611    -0.7707912    0.1744736 
   5.632500000    -0.7810492    0.1290978    -0.0503751   -0.6060210    -0.0400741   -0.6078948    -0.7702860    0.1763110 
   5.635000000    -0.7801455    0.1315448    -0.0487764   -0.6076986    -0.0386335   -0.6098472    -0.7700450    0.1782133 
   5.637500000    -0.7798232    0.1334866    -0.0479573   -0.6096430    -0.0381668   -0.6115761    -0.7702280    0.1807093 
   5.640000000    -0.7791589    0.1355379    -0.0476455   -0.6118186    -0.0371496   -0.6129485    -0.7702911    0.1831976 
   5.642500000    -0.7784025    0.1372256    -0.0466203   -0.6135244    -0.0365819   -0.6150535    -0.7700550    0.1851970 
   5.645000000    -0.7774113    0.1393702    -0.0452164   -0.6154471    -0.0359841   -0.6171057    -0.7699571    0.1877894 
   5.647500000    -0.7773913    0.1420058    -0.0443081   -0.6175463    -0.0350379   -0.6194032    -0.7690805    0.1903389 
   5.650000000    -0.7758576    0.1445877    -0.0434600   -0.6193789    -0.0340890   -0.6216447    -0.7690918    0.1935208 
   5.652500000    -0.7751456    0.1470705    -0.0426207   -0.6213154    -0.0333829   -0.6238691    -0.7688524    0.1965195 
   5.655000000    -0.7743725    0.1486250    -0.0424967   -0.6237820    -0.0325635   -0.6260355    -0.7692610    0.1992526 
   5.657500000    -0.7734646    0.1503344    -0.0412540   -0.6256530    -0.0319552   -0.6279389    -0.7693613    0.2017172 
   5.660000000    -0.7724435    0.1522018    -0.0406599   -0.6276195    -0.0316046   -0.6305159    -0.7694821    0.2050863 
   5.662500000    -0.7713447    0.1543043    -0.0397062   -0.6295109    -0.0311836   -0.6325997    -0.7695597    0.2076449 
   5.665000000    -0.7700096    0.1559658    -0.0392349   -0.6315586    -0.0301235   -0.6348732    -0.7702693    0.2101404 
   5.667500000    -0.7685256    0.1575777    -0.0396161   -0.6335620    -0.0294377   -0.6370457    -0.7702115    0.2131972 
   5.670000000    -0.7674094    0.1589068    -0.0388142   -0.6363520    -0.0289088   -0.6391649    -0.7706798    0.2149561 
   5.672500000    -0.7659851    0.1606624    -0.0390499   -0.6382263    -0.0282270   -0.6414272    -0.7708835    0.2180562 
   5.675000000    -0.7645018    0.1621144    -0.0387236   -0.6410682    -0.0292013   -0.6437660    -0.7708029    0.2206846 
   5.677500000    -0.7629392    0.1641104    -0.0388368   -0.6430290    -0.0289312   -0.6459963    -0.7705002    0.2237329 
   5.680000000    -0.7612798    0.1654469    -0.0386115   -0.6455197    -0.0292789   -0.6482691    -0.7703871    0.2266783 
   5.682500000    -0.7597345    0.1669788    -0.0396973   -0.6478534    -0.0296590   -0.6508286    -0.7707289    0.2294914 
   5.685000000    -0.7577728    0.1692853    -0.0402499   -0.6504193    -0.0295734   -0.6531808    -0.7707188    0.2313505 
   5.687500000    -0.7560860    0.1706083    -0.0401201   -0.6530084    -0.0302900   -0.6562977    -0.7701480    0.2339134 
   5.690000000    -0.7547210    0.1722833    -0.0407645   -0.6554358    -0.0312579   -0.6581236    -0.7692913    0.2365967 
   5.692500000    -0.7526937    0.1732349    -0.0403694   -0.6579521    -0.0322466   -0.6606761    -0.7684190    0.2388831 
   5.695000000    -0.7512603    0.1746533    -0.0405140   -0.6605349    -0.0324368   -0.6632724    -0.7674904    0.2406592 
   5.697500000    -0.7498391    0.1750374    -0.0411899   -0.6631331    -0.0329658   -0.6661134    -0.7668181    0.2428369 
   5.700000000    -0.7484412    0.1756781    -0.0420380   -0.6653910    -0.0340359   -0.6687321    -0.7660552    0.2450280 
   5.702500000    -0.7466444    0.1757379    -0.0422486   -0.6676792    -0.0348565   -0.6716614    -0.7646951    0.2473412 
   5.705000000    -0.7447995    0.1763540    -0.0430209   -0.6697724    -0.0359625   -0.6741902    -0.7630595    0.2496090 
   5.707500000    -0.7427590    0.1765899    -0.0437239   -0.6717077    -0.0373806   -0.6765800    -0.7612848    0.2514259 
   5.710000000    -0.7411358    0.1769344    -0.0435451   -0.6736600    -0.0380006   -0.6786983    -0.7590325    0.2526363 
   5.712500000    -0.7396891    0.1771003    -0.0449681   -0.6759881    -0.0382870   -0.6808018    -0.7569163    0.2549091 
   5.715000000    -0.7375502    0.1779330    -0.0457847   -0.6779492    -0.0397197   -0.6831511    -0.7545776    0.2568700 
   5.717500000    -0.7354924    0.1777265    -0.0464472   -0.6804151    -0.0408969   -0.6853825    -0.7525682    0.2583855 
   5.720000000    -0.7334009    0.1775499    -0.0478868   -0.6821029    -0.0406473   -0.6875775    -0.7508600    0.2598654 
   5.722500000    -0.7309759    0.1774790    -0.0472053   -0.6837367    -0.0436266   -0.6888006    -0.7493098    0.2614249 
   5.725000000    -0.7286481    0.1768880    -0.0492442   -0.6850785    -0.0435463   -0.6905094    -0.7463006    0.2629628 
   5.727500000    -0.7264171    0.1770573    -0.0505422   -0.6869829    -0.0448794   -0.6922184    -0.7433366    0.2634584 
   5.730000000    -0.7245272    0.1767768    -0.0517027   -0.6890948    -0.0459074   -0.6940218    -0.7405784    0.2642825 
   5.732500000    -0.7219665    0.1763951    -0.0523521   -0.6912100    -0.0469589   -0.6957428    -0.7374995    0.2649352 
   5.735000000    -0.7199036    0.1762972    -0.0534594   -0.6932725    -0.0490562   -0.6975232    -0.7347020    0.2664971 
   5.737500000    -0.7178334    0.1759685    -0.0549128   -0.6957834    -0.0501496   -0.6992625    -0.7313607    0.2667695 
   5.740000000    -0.7158323    0.1763248    -0.0562755   -0.6974496    -0.0513430   -0.7011998    -0.7278797    0.2670549 
   5.742500000    -0.7138426    0.1760228    -0.0570638   -0.6997688    -0.0524635   -0.7031053    -0.7243617    0.2670263 
   5.745000000    -0.7116802    0.1755946    -0.0574883   -0.7021691    -0.0546089   -0.7051421    -0.7203199    0.2680858 
   5.747500000    -0.7096736    0.1754862    -0.0587094   -0.7040345    -0.0556496   -0.7070918    -0.7174039    0.2686205 
   5.750000000    -0.7076391    0.1758595    -0.0601219   -0.7070612    -0.0568989   -0.7091880    -0.7139206    0.2691555 
   5.752500000    -0.7057046    0.1758951    -0.0613389   -0.7091779    -0.0581962   -0.7109395    -0.7103125    0.2687563 
   5.755000000    -0.7034319    0.1753826    -0.0623522   -0.7109142    -0.0595053   -0.7130658    -0.7065059    0.2689982 
   5.757500000    -0.7011196    0.1749050    -0.0636717   -0.7131143    -0.0598195   -0.7151167    -0.7033413    0.2690135 
   5.760000000    -0.6989391    0.1747474    -0.0637173   -0.7150476    -0.0612025   -0.7174941    -0.7001758    0.2689682 
   5.762500000    -0.6970122    0.1753740    -0.0652319   -0.7178928    -0.0622245   -0.7197757    -0.6972260    0.2686953 
   5.765000000    -0.6946414    0.1752699    -0.0673292   -0.7194048    -0.0633792   -0.7215696    -0.6940596    0.2680522 
   5.767500000    -0.6920129    0.1750921    -0.0685801   -0.7214652    -0.0642982   -0.7236843    -0.6909723    0.2675915 
   5.770000000    -0.6900421    0.1755233    -0.0687953   -0.7237556    -0.0666140   -0.7259906    -0.6881123    0.2672809 
   5.772500000    -0.6878266    0.1753182    -0.0722347   -0.7253473    -0.0653280   -0.7275103    -0.6853988    0.2666333 
   5.775000000    -0.6851382    0.1762587    -0.0729371   -0.7273539    -0.0684162   -0.7296570    -0.6829360    0.2661727 
   5.777500000    -0.6828992    0.1768846    -0.0749957   -0.7286438    -0.0704718   -0.7316550    -0.6801414    0.2658898 
   5.780000000    -0.6806660    0.1774202    -0.0779838   -0.7312258    -0.0729329   -0.7338235    -0.6777753    0.2655074 
   5.782500000    -0.6786110    0.1778293    -0.0796256   -0.7333954    -0.0752599   -0.7356158    -0.6763567    0.2656561 
   5.785000000    -0.6764288    0.1782594    -0.0820478   -0.7354785    -0.0777438   -0.7376226    -0.6742192    0.2646222 
   5.787500000    -0.6745219    0.1787969    -0.0843476   -0.7372293    -0.0795767   -0.7396083    -0.6719804    0.2639959 
   5.790000000    -0.6721328    0.1791991    -0.0874631   -0.7387239    -0.0826455   -0.7418061    -0.6698087    0.2629153 
   5.792500000    -0.6690962    0.1800358    -0.0907144   -0.7406919    -0.0852197   -0.7435990    -0.6669953    0.2622597 
   5.795000000    -0.6668328    0.1809679    -0.0926923   -0.7426004    -0.0881024   -0.7454955    -0.6654176    0.2620041 
   5.797500000    -0.6640614    0.1820172    -0.0953246   -0.7448719    -0.0906396   -0.7473844    -0.6630952    0.2606388 
   5.800000000    -0.6611618    0.1824059    -0.0985422   -0.7461027    -0.0941284   -0.7493111    -0.6610044    0.2602398 
   5.802500000    -0.6589328    0.1830620    -0.1011602   -0.7477478    -0.0962816   -0.7505550    -0.6592979    0.2589092 
   5.805000000    -0.6565238    0.1836072    -0.1033795   -0.7493170    -0.0989593   -0.7520168    -0.6577592    0.2577625 
   5.807500000    -0.6537495    0.1840438    -0.1069792   -0.7506896    -0.1024942   -0.7528903    -0.6554599    0.2562301 
   5.810000000    -0.6507213    0.1847368    -0.1099940   -0.7516316    -0.1046433   -0.7537679    -0.6533682    0.2548676 
   5.812500000    -0.6471148    0.1857581    -0.1118042   -0.7530080    -0.1078286   -0.7545432    -0.6512967    0.2541201 
   5.815000000    -0.6440543    0.1857796    -0.1149731   -0.7533988    -0.1111338   -0.7554179    -0.6487359    0.2526141 
   5.817500000    -0.6410468    0.1854132    -0.1178036   -0.7536554    -0.1141759   -0.7559679    -0.6461723    0.2514030 
   5.820000000    -0.6380819    0.1855550    -0.1193443   -0.7535044    -0.1169569   -0.7560506    -0.6438297    0.2500854 
   5.822500000    -0.6344766    0.1855768    -0.1216428   -0.7543379    -0.1206608   -0.7556596    -0.6418710    0.2487731 
   5.825000000    -0.6316681    0.1854238    -0.1268115   -0.7542940    -0.1194395   -0.7557970    -0.6396298    0.2459623 
   5.827500000    -0.6281928    0.1853134    -0.1279660   -0.7545528    -0.1244800   -0.7547896    -0.6375713    0.2442416 
   5.830000000    -0.6244160    0.1848839    -0.1304718   -0.7541195    -0.1276612   -0.7546728    -0.6347359    0.2424061 
   5.832500000    -0.6206865    0.1840109    -0.1326619   -0.7538555    -0.1309303   -0.7542252    -0.6318540    0.2402674 
   5.835000000    -0.6167578    0.1833456    -0.1364570   -0.7532637    -0.1323486   -0.7536560    -0.6297339    0.2385171 
   5.837500000    -0.6137393    0.1820144    -0.1391073   -0.7534034    -0.1349861   -0.7529640    -0.6267622    0.2369264 
   5.840000000    -0.6107350    0.1811674    -0.1410635   -0.7530210    -0.1368165   -0.7522082    -0.6241106    0.2344613 
   5.842500000    -0.6077417    0.1797994    -0.1423566   -0.7531776    -0.1398279   -0.7519791    -0.6217026    0.2321756 
   5.845000000    -0.6049221    0.1780678    -0.1457221   -0.7529942    -0.1420006   -0.7519605    -0.6195123    0.2297435 
   5.847500000    -0.6023026    0.1762160    -0.1471986   -0.7538007    -0.1442380   -0.7517300    -0.6172163    0.2271191 
   5.850000000    -0.5997826    0.1742266    -0.1501444   -0.7539959    -0.1457489   -0.7518295    -0.6153444    0.2251432 
   5.852500000    -0.5972551    0.1726510    -0.1510959   -0.7541457    -0.1469975   -0.7518056    -0.6132892    0.2226890 
   5.855000000    -0.5954415    0.1708422    -0.1538442   -0.7542877    -0.1489339   -0.7521853    -0.6115107    0.2202839 
   5.857500000    -0.5936067    0.1685572    -0.1551667   -0.7547100    -0.1502286   -0.7522779    -0.6095207    0.2179454 
   5.860000000    -0.5920941    0.1664936    -0.1586817   -0.7555423    -0.1516125   -0.7525263    -0.6078331    0.2160370 
   5.862500000    -0.5905406    0.1649179    -0.1603934   -0.7560776    -0.1546127   -0.7530696    -0.6058049    0.2140432 
   5.865000000    -0.5892769    0.1626116    -0.1629003   -0.7562334    -0.1544166   -0.7532959    -0.6037142    0.2119041 
   5.867500000    -0.5882646    0.1605320    -0.1632056   -0.7564504    -0.1585768   -0.7538698    -0.6009869    0.2093700 
   5.870000000    -0.5873245    0.1583579    -0.1664776   -0.7566970    -0.1590068   -0.7545823    -0.5989071    0.2064020 
   5.872500000    -0.5861526    0.1562992    -0.1673796   -0.7577065    -0.1619332   -0.7546946    -0.5971934    0.2042805 
   5.875000000    -0.5854587    0.1545496    -0.1704034   -0.7580173    -0.1628867   -0.7548468    -0.5953310    0.2026744 
   5.877500000    -0.5845959    0.1533396    -0.1729091   -0.7582427    -0.1656244   -0.7555802    -0.5937516    0.2006122 
   5.880000000    -0.5839535    0.1523839    -0.1750377   -0.7582949    -0.1682855   -0.7559810    -0.5918242    0.1988084 
   5.882500000    -0.5832362    0.1510753    -0.1792291   -0.7581789    -0.1713085   -0.7563431    -0.5892283    0.1971608 
   5.885000000    -0.5826910    0.1495230    -0.1805470   -0.7594861    -0.1741677   -0.7568021    -0.5878173    0.1948519 
   5.887500000    -0.5824240    0.1484785    -0.1852987   -0.7594820    -0.1769923   -0.7571213    -0.5854599    0.1925686 
   5.890000000    -0.5822708    0.1472611    -0.1877778   -0.7591936    -0.1806622   -0.7569090    -0.5838406    0.1902701 
