! MS46122B
! 1919307/90821646
! 6/10/2022 12:15:24 PM
! C:\USERS\PC_\DESKTOP\CARACTERIZACION\MEDICIONES\BANCHA ESTRECHA\5_55GHZ\S11_S21_ABS10_502CL.S2P
! CHANNEL.1
! TR.MEASUREMENT
! CORRECTED.DATA
# GHZ S RI R 50.0
! FREQ.GHZ         S11RE         S11IM         S21RE         S21IM         S12RE         S12IM         S22RE         S22IM         
!; PortSelection: Port_12
   5.000000000    -0.8028748    0.0426928     0.0166890   -0.5709817     0.0735545   -0.5822387    -0.7686233    0.0336976 
   5.002500000    -0.8037761    0.0398886     0.0134914   -0.5680162     0.0730013   -0.5839512    -0.7689083    0.0337063 
   5.005000000    -0.8034043    0.0386874     0.0127359   -0.5674857     0.0728572   -0.5852622    -0.7687308    0.0328633 
   5.007500000    -0.8031538    0.0383820     0.0136070   -0.5667924     0.0732564   -0.5863470    -0.7696543    0.0326738 
   5.010000000    -0.8029914    0.0379072     0.0143379   -0.5661367     0.0734055   -0.5873698    -0.7696018    0.0313193 
   5.012500000    -0.8027402    0.0378027     0.0150726   -0.5656213     0.0737204   -0.5881926    -0.7691875    0.0303131 
   5.015000000    -0.8021371    0.0372512     0.0162414   -0.5645976     0.0738200   -0.5891089    -0.7693855    0.0303453 
   5.017500000    -0.8016261    0.0376872     0.0157617   -0.5638602     0.0737074   -0.5898939    -0.7691430    0.0290607 
   5.020000000    -0.8011778    0.0377624     0.0169958   -0.5628617     0.0734321   -0.5906448    -0.7689973    0.0285100 
   5.022500000    -0.8006637    0.0386408     0.0177268   -0.5617549     0.0734278   -0.5913551    -0.7684777    0.0273970 
   5.025000000    -0.7997307    0.0394446     0.0185973   -0.5607897     0.0728199   -0.5917798    -0.7680198    0.0271185 
   5.027500000    -0.7991034    0.0400618     0.0188181   -0.5597599     0.0729815   -0.5919532    -0.7676958    0.0263042 
   5.030000000    -0.7982442    0.0408848     0.0203327   -0.5586284     0.0727392   -0.5923256    -0.7669820    0.0256172 
   5.032500000    -0.7974814    0.0419326     0.0205459   -0.5580569     0.0725244   -0.5930817    -0.7672833    0.0246481 
   5.035000000    -0.7971582    0.0433198     0.0216636   -0.5565845     0.0722567   -0.5935425    -0.7678654    0.0243792 
   5.037500000    -0.7970090    0.0455019     0.0228335   -0.5558671     0.0719542   -0.5933750    -0.7677034    0.0241771 
   5.040000000    -0.7970767    0.0462294     0.0239343   -0.5549794     0.0716229   -0.5936943    -0.7683432    0.0241782 
   5.042500000    -0.7970762    0.0470646     0.0254292   -0.5545780     0.0717388   -0.5940641    -0.7679350    0.0239799 
   5.045000000    -0.7967397    0.0479046     0.0263852   -0.5537581     0.0722921   -0.5941733    -0.7685919    0.0243105 
   5.047500000    -0.7973841    0.0486405     0.0279429   -0.5533580     0.0723299   -0.5945737    -0.7687111    0.0247624 
   5.050000000    -0.7977140    0.0493396     0.0294962   -0.5528621     0.0731022   -0.5952840    -0.7691120    0.0245350 
   5.052500000    -0.7981704    0.0497739     0.0313121   -0.5520727     0.0738980   -0.5955319    -0.7699986    0.0252904 
   5.055000000    -0.7988956    0.0505494     0.0335359   -0.5520880     0.0738744   -0.5961131    -0.7703843    0.0256911 
   5.057500000    -0.7998138    0.0506433     0.0356353   -0.5518534     0.0748820   -0.5965525    -0.7706729    0.0267667 
   5.060000000    -0.8006729    0.0513583     0.0374836   -0.5514404     0.0755714   -0.5970075    -0.7710587    0.0273210 
   5.062500000    -0.8015204    0.0512743     0.0390067   -0.5517999     0.0763111   -0.5974936    -0.7718457    0.0282205 
   5.065000000    -0.8027146    0.0510072     0.0416319   -0.5516048     0.0770302   -0.5982081    -0.7725120    0.0289218 
   5.067500000    -0.8037619    0.0509631     0.0434515   -0.5516453     0.0779531   -0.5990174    -0.7729280    0.0304653 
   5.070000000    -0.8051061    0.0512189     0.0462755   -0.5517256     0.0785518   -0.6002413    -0.7732342    0.0318306 
   5.072500000    -0.8063399    0.0503796     0.0485210   -0.5519087     0.0796412   -0.6009676    -0.7737833    0.0325140 
   5.075000000    -0.8083075    0.0495530     0.0498491   -0.5525672     0.0806788   -0.6025152    -0.7744485    0.0338466 
   5.077500000    -0.8095822    0.0487724     0.0523008   -0.5530703     0.0814016   -0.6038888    -0.7750482    0.0350375 
   5.080000000    -0.8111965    0.0483463     0.0543130   -0.5536235     0.0820804   -0.6054232    -0.7757109    0.0360393 
   5.082500000    -0.8119037    0.0478280     0.0565421   -0.5544707     0.0823984   -0.6069401    -0.7764046    0.0373857 
   5.085000000    -0.8131891    0.0471695     0.0582720   -0.5554934     0.0831459   -0.6086226    -0.7767342    0.0387692 
   5.087500000    -0.8143629    0.0459776     0.0594572   -0.5568845     0.0832641   -0.6107869    -0.7778410    0.0399496 
   5.090000000    -0.8157982    0.0454329     0.0613783   -0.5583165     0.0838365   -0.6127064    -0.7783552    0.0407823 
   5.092500000    -0.8170907    0.0448357     0.0633202   -0.5595754     0.0839319   -0.6150202    -0.7792456    0.0415609 
   5.095000000    -0.8180883    0.0438433     0.0648249   -0.5614462     0.0840645   -0.6173087    -0.7798154    0.0421754 
   5.097500000    -0.8186572    0.0432357     0.0664952   -0.5632755     0.0841220   -0.6196030    -0.7804672    0.0428049 
   5.100000000    -0.8192529    0.0421101     0.0672728   -0.5654996     0.0843360   -0.6221591    -0.7810476    0.0434283 
   5.102500000    -0.8199124    0.0407845     0.0691558   -0.5678879     0.0846369   -0.6248129    -0.7818220    0.0442793 
   5.105000000    -0.8200507    0.0397032     0.0705844   -0.5695880     0.0842435   -0.6274133    -0.7824265    0.0442853 
   5.107500000    -0.8204123    0.0390822     0.0716530   -0.5718597     0.0840590   -0.6301440    -0.7829348    0.0450949 
   5.110000000    -0.8197787    0.0376566     0.0726526   -0.5741009     0.0844499   -0.6324632    -0.7835419    0.0455744 
   5.112500000    -0.8190148    0.0370529     0.0726346   -0.5764447     0.0839170   -0.6350184    -0.7847109    0.0463910 
   5.115000000    -0.8178694    0.0361444     0.0747879   -0.5782397     0.0823197   -0.6375573    -0.7849643    0.0469791 
   5.117500000    -0.8168942    0.0344897     0.0750409   -0.5805685     0.0818521   -0.6398584    -0.7858232    0.0471546 
   5.120000000    -0.8154894    0.0338499     0.0757799   -0.5827597     0.0803890   -0.6422860    -0.7862484    0.0484112 
   5.122500000    -0.8135109    0.0328357     0.0762683   -0.5844240     0.0789782   -0.6445243    -0.7860050    0.0488542 
   5.125000000    -0.8112721    0.0321933     0.0758651   -0.5861737     0.0772946   -0.6464077    -0.7860742    0.0497055 
   5.127500000    -0.8089128    0.0313692     0.0758599   -0.5882530     0.0754582   -0.6485614    -0.7859046    0.0503939 
   5.130000000    -0.8059098    0.0302021     0.0761802   -0.5900094     0.0742155   -0.6504094    -0.7859809    0.0510855 
   5.132500000    -0.8030834    0.0301519     0.0763900   -0.5918102     0.0718743   -0.6526468    -0.7858717    0.0515380 
   5.135000000    -0.7997351    0.0301958     0.0762606   -0.5935516     0.0700671   -0.6544287    -0.7861504    0.0524985 
   5.137500000    -0.7969537    0.0297237     0.0766297   -0.5952060     0.0681275   -0.6560736    -0.7863394    0.0528022 
   5.140000000    -0.7937356    0.0290062     0.0760418   -0.5958964     0.0659686   -0.6572565    -0.7855315    0.0533461 
   5.142500000    -0.7912301    0.0294283     0.0753736   -0.5979386     0.0639187   -0.6587418    -0.7849341    0.0537876 
   5.145000000    -0.7887648    0.0302363     0.0755373   -0.5993026     0.0618159   -0.6600588    -0.7844294    0.0545827 
   5.147500000    -0.7854611    0.0303194     0.0748171   -0.6006292     0.0604886   -0.6610146    -0.7829351    0.0547180 
   5.150000000    -0.7811614    0.0316597     0.0756941   -0.6017528     0.0567926   -0.6616576    -0.7817231    0.0536410 
   5.152500000    -0.7787136    0.0320150     0.0755676   -0.6021234     0.0555054   -0.6627393    -0.7795348    0.0531917 
   5.155000000    -0.7757835    0.0331135     0.0761398   -0.6034846     0.0537046   -0.6635301    -0.7780139    0.0536590 
   5.157500000    -0.7732202    0.0338768     0.0763400   -0.6044288     0.0518438   -0.6641469    -0.7764188    0.0532456 
   5.160000000    -0.7703751    0.0350702     0.0767696   -0.6057540     0.0502800   -0.6644102    -0.7743996    0.0536410 
   5.162500000    -0.7677265    0.0362200     0.0775478   -0.6063330     0.0490190   -0.6647750    -0.7722467    0.0534724 
   5.165000000    -0.7652901    0.0374083     0.0781906   -0.6071093     0.0480752   -0.6648145    -0.7698544    0.0536849 
   5.167500000    -0.7624443    0.0387637     0.0796967   -0.6078040     0.0467214   -0.6645079    -0.7675688    0.0538739 
   5.170000000    -0.7598590    0.0406221     0.0813513   -0.6091980     0.0454211   -0.6643608    -0.7650188    0.0538612 
   5.172500000    -0.7575977    0.0422956     0.0818933   -0.6106957     0.0439628   -0.6634757    -0.7627444    0.0542477 
   5.175000000    -0.7551227    0.0447874     0.0838222   -0.6114260     0.0435539   -0.6632761    -0.7598948    0.0542629 
   5.177500000    -0.7531486    0.0470919     0.0857182   -0.6128110     0.0426063   -0.6625286    -0.7578481    0.0538485 
   5.180000000    -0.7508888    0.0493468     0.0878867   -0.6140399     0.0420028   -0.6616870    -0.7554027    0.0536352 
   5.182500000    -0.7487078    0.0514417     0.0897757   -0.6156566     0.0415607   -0.6610449    -0.7524650    0.0536323 
   5.185000000    -0.7466380    0.0540426     0.0919628   -0.6181861     0.0417358   -0.6605880    -0.7502183    0.0525267 
   5.187500000    -0.7446831    0.0564635     0.0931869   -0.6208841     0.0413551   -0.6603495    -0.7495254    0.0515330 
   5.190000000    -0.7427403    0.0586864     0.0956262   -0.6241912     0.0418188   -0.6601947    -0.7476830    0.0500876 
   5.192500000    -0.7403153    0.0601610     0.0974513   -0.6272837     0.0416850   -0.6598865    -0.7468522    0.0488680 
   5.195000000    -0.7385306    0.0625211     0.0996010   -0.6305856     0.0422582   -0.6602274    -0.7464188    0.0465789 
   5.197500000    -0.7373080    0.0645872     0.1004158   -0.6346952     0.0426399   -0.6615471    -0.7465256    0.0444838 
   5.200000000    -0.7357801    0.0666694     0.1011171   -0.6391464     0.0430360   -0.6630824    -0.7474309    0.0429965 
   5.202500000    -0.7343401    0.0683114     0.1026511   -0.6437481     0.0439228   -0.6647666    -0.7483813    0.0411483 
   5.205000000    -0.7326145    0.0699047     0.1035762   -0.6484808     0.0442402   -0.6666896    -0.7496710    0.0397413 
   5.207500000    -0.7309739    0.0715850     0.1033454   -0.6535546     0.0443237   -0.6686051    -0.7506464    0.0388187 
   5.210000000    -0.7295174    0.0728671     0.1024898   -0.6587831     0.0446225   -0.6710427    -0.7525454    0.0384189 
   5.212500000    -0.7283460    0.0738026     0.1022738   -0.6641552     0.0440069   -0.6738617    -0.7535318    0.0384601 
   5.215000000    -0.7271260    0.0741269     0.1016589   -0.6695967     0.0429871   -0.6768711    -0.7550611    0.0385031 
   5.217500000    -0.7255251    0.0742728     0.1001613   -0.6751447     0.0416670   -0.6801592    -0.7565199    0.0390143 
   5.220000000    -0.7238117    0.0741556     0.0980504   -0.6802819     0.0402171   -0.6828113    -0.7575567    0.0396926 
   5.222500000    -0.7219841    0.0742372     0.0947567   -0.6859472     0.0376749   -0.6854426    -0.7576115    0.0406802 
   5.225000000    -0.7203944    0.0730585     0.0925543   -0.6906210     0.0355537   -0.6882268    -0.7588319    0.0417243 
   5.227500000    -0.7189049    0.0717589     0.0885215   -0.6950731     0.0329252   -0.6907591    -0.7590542    0.0429856 
   5.230000000    -0.7166034    0.0699862     0.0854780   -0.6991863     0.0292725   -0.6925946    -0.7590833    0.0442667 
   5.232500000    -0.7139992    0.0683384     0.0798086   -0.7034029     0.0260623   -0.6939183    -0.7577434    0.0445732 
   5.235000000    -0.7128803    0.0668822     0.0755299   -0.7068039     0.0222444   -0.6953561    -0.7565929    0.0456022 
   5.237500000    -0.7123158    0.0649132     0.0707340   -0.7096081     0.0186975   -0.6960244    -0.7557957    0.0465431 
   5.240000000    -0.7117608    0.0637834     0.0656735   -0.7124069     0.0148768   -0.6970469    -0.7543585    0.0472087 
   5.242500000    -0.7105621    0.0626369     0.0608058   -0.7150459     0.0109443   -0.6981295    -0.7534388    0.0487718 
   5.245000000    -0.7080634    0.0611148     0.0556729   -0.7166719     0.0070529   -0.6984482    -0.7526385    0.0492328 
   5.247500000    -0.7059850    0.0591916     0.0498991   -0.7178397     0.0030708   -0.6983497    -0.7513658    0.0500356 
   5.250000000    -0.7053140    0.0583050     0.0444291   -0.7186340    -0.0011864   -0.6977445    -0.7505113    0.0501875 
   5.252500000    -0.7060369    0.0581277     0.0400561   -0.7193976    -0.0050400   -0.6974128    -0.7492063    0.0515336 
   5.255000000    -0.7048531    0.0572971     0.0351990   -0.7196379    -0.0080559   -0.6964098    -0.7481837    0.0517468 
   5.257500000    -0.7019411    0.0573100     0.0304752   -0.7196270    -0.0118992   -0.6952619    -0.7466628    0.0528476 
   5.260000000    -0.6995075    0.0575982     0.0260997   -0.7190936    -0.0153892   -0.6940400    -0.7449230    0.0533231 
   5.262500000    -0.6973570    0.0573014     0.0215401   -0.7171991    -0.0191378   -0.6923095    -0.7431480    0.0537523 
   5.265000000    -0.6956140    0.0578411     0.0180924   -0.7158195    -0.0215615   -0.6902456    -0.7411245    0.0533723 
   5.267500000    -0.6937144    0.0586223     0.0152662   -0.7146247    -0.0248304   -0.6883317    -0.7391295    0.0538598 
   5.270000000    -0.6914614    0.0588573     0.0118401   -0.7131407    -0.0261988   -0.6858720    -0.7365351    0.0537448 
   5.272500000    -0.6875349    0.0593978     0.0092514   -0.7117528    -0.0294355   -0.6835348    -0.7342884    0.0536163 
   5.275000000    -0.6841592    0.0610235     0.0070096   -0.7095354    -0.0299548   -0.6804226    -0.7310553    0.0533220 
   5.277500000    -0.6801712    0.0614312     0.0053504   -0.7071899    -0.0312730   -0.6768774    -0.7277902    0.0534467 
   5.280000000    -0.6763474    0.0622052     0.0033565   -0.7040651    -0.0323569   -0.6741898    -0.7252293    0.0526370 
   5.282500000    -0.6723400    0.0629300     0.0026173   -0.7023326    -0.0324239   -0.6710745    -0.7235039    0.0518100 
   5.285000000    -0.6691632    0.0638623     0.0022780   -0.7003256    -0.0318972   -0.6680356    -0.7209740    0.0499121 
   5.287500000    -0.6654391    0.0646056     0.0023705   -0.6985529    -0.0312003   -0.6647273    -0.7185832    0.0479978 
   5.290000000    -0.6607001    0.0647099     0.0033242   -0.6968810    -0.0296004   -0.6623369    -0.7162031    0.0465792 
   5.292500000    -0.6559440    0.0649125     0.0045944   -0.6959682    -0.0275100   -0.6600659    -0.7137136    0.0447435 
   5.295000000    -0.6515648    0.0646576     0.0051922   -0.6954984    -0.0255313   -0.6583223    -0.7110477    0.0431476 
   5.297500000    -0.6474734    0.0646538     0.0063043   -0.6950051    -0.0230404   -0.6573980    -0.7097866    0.0411596 
   5.300000000    -0.6439494    0.0649371     0.0081669   -0.6961071    -0.0206124   -0.6571975    -0.7089374    0.0383045 
   5.302500000    -0.6407046    0.0648804     0.0092492   -0.6972709    -0.0175519   -0.6577599    -0.7079407    0.0363173 
   5.305000000    -0.6380836    0.0642586     0.0112949   -0.6988738    -0.0151981   -0.6587471    -0.7073606    0.0343714 
   5.307500000    -0.6361632    0.0637591     0.0115794   -0.7022012    -0.0130557   -0.6611434    -0.7078726    0.0316624 
   5.310000000    -0.6350354    0.0635271     0.0120276   -0.7053556    -0.0102702   -0.6636001    -0.7092423    0.0297038 
   5.312500000    -0.6341940    0.0632529     0.0124513   -0.7085804    -0.0105805   -0.6671785    -0.7110864    0.0286533 
   5.315000000    -0.6343290    0.0629673     0.0125226   -0.7128276    -0.0095953   -0.6707696    -0.7139177    0.0277306 
   5.317500000    -0.6346013    0.0626282     0.0117688   -0.7182357    -0.0100824   -0.6749467    -0.7172741    0.0269932 
   5.320000000    -0.6350849    0.0632316     0.0097862   -0.7228763    -0.0110278   -0.6794976    -0.7203513    0.0271722 
   5.322500000    -0.6367024    0.0638534     0.0083798   -0.7282863    -0.0125575   -0.6838514    -0.7233115    0.0282597 
   5.325000000    -0.6385555    0.0652641     0.0062575   -0.7340634    -0.0156183   -0.6882556    -0.7254016    0.0299718 
   5.327500000    -0.6402202    0.0664422     0.0024609   -0.7395152    -0.0192086   -0.6922534    -0.7273601    0.0329975 
   5.330000000    -0.6413715    0.0674527    -0.0037922   -0.7451193    -0.0241026   -0.6958064    -0.7284824    0.0369837 
   5.332500000    -0.6426345    0.0683812    -0.0091042   -0.7496867    -0.0291395   -0.6984461    -0.7294512    0.0407645 
   5.335000000    -0.6436500    0.0698898    -0.0153173   -0.7535064    -0.0355104   -0.6999558    -0.7290152    0.0441390 
   5.337500000    -0.6448390    0.0707173    -0.0233673   -0.7563379    -0.0415865   -0.7007448    -0.7273343    0.0473735 
   5.340000000    -0.6459357    0.0712526    -0.0315973   -0.7588212    -0.0481277   -0.7010650    -0.7250733    0.0505876 
   5.342500000    -0.6476075    0.0716322    -0.0408439   -0.7598561    -0.0547482   -0.7000599    -0.7217831    0.0531672 
   5.345000000    -0.6497266    0.0710729    -0.0494169   -0.7595477    -0.0609300   -0.6973753    -0.7180174    0.0545292 
   5.347500000    -0.6518325    0.0712846    -0.0588613   -0.7584214    -0.0667051   -0.6947095    -0.7132364    0.0557854 
   5.350000000    -0.6544380    0.0709180    -0.0667097   -0.7561864    -0.0718669   -0.6911725    -0.7099684    0.0557936 
   5.352500000    -0.6582590    0.0704348    -0.0737979   -0.7528577    -0.0765647   -0.6873528    -0.7073390    0.0545784 
   5.355000000    -0.6611148    0.0701144    -0.0826699   -0.7497061    -0.0811225   -0.6831995    -0.7043843    0.0535860 
   5.357500000    -0.6646480    0.0696143    -0.0888321   -0.7456115    -0.0847162   -0.6789218    -0.7020921    0.0519967 
   5.360000000    -0.6678670    0.0704228    -0.0944826   -0.7415745    -0.0878675   -0.6741774    -0.7000822    0.0511248 
   5.362500000    -0.6722393    0.0708085    -0.0996130   -0.7370373    -0.0905866   -0.6692399    -0.6982222    0.0490612 
   5.365000000    -0.6762825    0.0704815    -0.1040988   -0.7321104    -0.0928448   -0.6648583    -0.6969664    0.0479320 
   5.367500000    -0.6805781    0.0704403    -0.1085025   -0.7264296    -0.0940555   -0.6599655    -0.6960633    0.0454634 
   5.370000000    -0.6841963    0.0704200    -0.1115775   -0.7220168    -0.0958219   -0.6550722    -0.6961156    0.0442049 
   5.372500000    -0.6883200    0.0712212    -0.1150865   -0.7172711    -0.0963407   -0.6499957    -0.6955640    0.0418360 
   5.375000000    -0.6918319    0.0729138    -0.1173562   -0.7125056    -0.0966237   -0.6453491    -0.6953722    0.0411535 
   5.377500000    -0.6949053    0.0739057    -0.1192210   -0.7074303    -0.0975468   -0.6407779    -0.6955687    0.0410347 
   5.380000000    -0.6978707    0.0755044    -0.1207545   -0.7024582    -0.0970849   -0.6362638    -0.6956849    0.0406819 
   5.382500000    -0.7002271    0.0765952    -0.1213807   -0.6975992    -0.0961432   -0.6317891    -0.6965757    0.0399194 
   5.385000000    -0.7032174    0.0775743    -0.1218255   -0.6929389    -0.0949578   -0.6273220    -0.6970864    0.0399197 
   5.387500000    -0.7052033    0.0784786    -0.1235672   -0.6876879    -0.0937027   -0.6227155    -0.6974657    0.0401461 
