! MS46122B
! 1919307/90821646
! 7/29/2022 1:54:21 PM
! C:\USERS\PC_\DESKTOP\MEDICIONES\BANCHA ESTRECHA\6_65_GHZ\S11_S21_ABS10_502CL.S2P
! CHANNEL.1
! TR.MEASUREMENT
! CORRECTED.DATA
# GHZ S RI R 50.0
! FREQ.GHZ         S11RE         S11IM         S21RE         S21IM         S12RE         S12IM         S22RE         S22IM         
!; PortSelection: Port_12
   6.000000000    -0.6088439    0.1717259    -0.2745377   -0.6942639    -0.2661757   -0.6904743    -0.6051199    0.0973309 
   6.002500000    -0.6096034    0.1741608    -0.2737490   -0.6927741    -0.2664616   -0.6891106    -0.6057096    0.0981729 
   6.005000000    -0.6113868    0.1742072    -0.2745416   -0.6912582    -0.2679239   -0.6874542    -0.6058721    0.0979390 
   6.007500000    -0.6130698    0.1736220    -0.2747447   -0.6896374    -0.2690983   -0.6859038    -0.6063038    0.0977567 
   6.010000000    -0.6148866    0.1727311    -0.2753724   -0.6872293    -0.2701651   -0.6844624    -0.6063926    0.0976390 
   6.012500000    -0.6165925    0.1721201    -0.2763725   -0.6860301    -0.2710665   -0.6825904    -0.6068162    0.0977988 
   6.015000000    -0.6182348    0.1707542    -0.2771258   -0.6838736    -0.2722625   -0.6806795    -0.6068941    0.0984130 
   6.017500000    -0.6201348    0.1698352    -0.2776015   -0.6829621    -0.2730082   -0.6789548    -0.6079741    0.0994414 
   6.020000000    -0.6219340    0.1693040    -0.2780696   -0.6810246    -0.2739970   -0.6770337    -0.6082339    0.0994337 
   6.022500000    -0.6236623    0.1684595    -0.2785040   -0.6789142    -0.2747754   -0.6750630    -0.6086239    0.0997936 
   6.025000000    -0.6257883    0.1684369    -0.2781383   -0.6772308    -0.2750982   -0.6731322    -0.6091154    0.0993235 
   6.027500000    -0.6275489    0.1679730    -0.2797993   -0.6750809    -0.2755220   -0.6711603    -0.6097217    0.1002302 
   6.030000000    -0.6295285    0.1670382    -0.2795714   -0.6733680    -0.2755947   -0.6691963    -0.6101030    0.1001806 
   6.032500000    -0.6317968    0.1664274    -0.2795779   -0.6718339    -0.2755537   -0.6677992    -0.6103152    0.1006853 
   6.035000000    -0.6334026    0.1659881    -0.2798088   -0.6703627    -0.2760362   -0.6651468    -0.6105146    0.1005922 
   6.037500000    -0.6352885    0.1654079    -0.2794985   -0.6686103    -0.2755350   -0.6631624    -0.6114955    0.1005533 
   6.040000000    -0.6370914    0.1653622    -0.2794020   -0.6661028    -0.2749251   -0.6611946    -0.6127968    0.1004354 
   6.042500000    -0.6386452    0.1654641    -0.2794389   -0.6642845    -0.2744656   -0.6588942    -0.6136029    0.1002636 
   6.045000000    -0.6397993    0.1649118    -0.2778669   -0.6627278    -0.2753208   -0.6558015    -0.6143362    0.0992152 
   6.047500000    -0.6422401    0.1648817    -0.2772097   -0.6612786    -0.2751203   -0.6544067    -0.6149117    0.0985255 
   6.050000000    -0.6438012    0.1645966    -0.2789163   -0.6588822    -0.2730873   -0.6524909    -0.6165295    0.0980322 
   6.052500000    -0.6457490    0.1647477    -0.2785339   -0.6570999    -0.2726764   -0.6504979    -0.6180680    0.0969984 
   6.055000000    -0.6468252    0.1646698    -0.2785474   -0.6555743    -0.2724067   -0.6485706    -0.6190760    0.0962433 
   6.057500000    -0.6483769    0.1657332    -0.2788510   -0.6539484    -0.2716876   -0.6467199    -0.6206672    0.0958996 
   6.060000000    -0.6497633    0.1665952    -0.2779803   -0.6522540    -0.2712221   -0.6446849    -0.6220537    0.0951912 
   6.062500000    -0.6510125    0.1668387    -0.2777499   -0.6508189    -0.2706774   -0.6428831    -0.6229382    0.0944887 
   6.065000000    -0.6523549    0.1673551    -0.2767124   -0.6497811    -0.2699261   -0.6417741    -0.6232299    0.0938737 
   6.067500000    -0.6528309    0.1675849    -0.2757616   -0.6489679    -0.2689582   -0.6408798    -0.6244762    0.0929301 
   6.070000000    -0.6535169    0.1684051    -0.2758043   -0.6472227    -0.2684033   -0.6397347    -0.6260994    0.0928264 
   6.072500000    -0.6541868    0.1694486    -0.2760569   -0.6462356    -0.2672759   -0.6381307    -0.6271623    0.0922935 
   6.075000000    -0.6547887    0.1708179    -0.2748737   -0.6447939    -0.2661493   -0.6367654    -0.6283305    0.0915960 
   6.077500000    -0.6554682    0.1719112    -0.2736983   -0.6437759    -0.2657372   -0.6357113    -0.6295528    0.0918649 
   6.080000000    -0.6558785    0.1730403    -0.2729782   -0.6427058    -0.2650115   -0.6347758    -0.6301123    0.0915069 
   6.082500000    -0.6560696    0.1741773    -0.2715584   -0.6419290    -0.2638665   -0.6338736    -0.6312529    0.0915119 
   6.085000000    -0.6560109    0.1751030    -0.2714225   -0.6410860    -0.2623526   -0.6334093    -0.6327271    0.0912972 
   6.087500000    -0.6558684    0.1765498    -0.2708858   -0.6401154    -0.2610183   -0.6328602    -0.6344838    0.0922513 
   6.090000000    -0.6559309    0.1784045    -0.2698874   -0.6391386    -0.2596896   -0.6315727    -0.6357983    0.0921127 
   6.092500000    -0.6556144    0.1803901    -0.2684420   -0.6380580    -0.2588649   -0.6309984    -0.6362679    0.0931828 
   6.095000000    -0.6557414    0.1818932    -0.2673125   -0.6372139    -0.2580727   -0.6298856    -0.6378026    0.0936650 
   6.097500000    -0.6551515    0.1836869    -0.2664681   -0.6363053    -0.2564804   -0.6291066    -0.6392297    0.0937593 
   6.100000000    -0.6548639    0.1853218    -0.2657145   -0.6353151    -0.2553323   -0.6282962    -0.6404612    0.0946546 
   6.102500000    -0.6543541    0.1867714    -0.2652994   -0.6350445    -0.2538466   -0.6277519    -0.6424853    0.0964522 
   6.105000000    -0.6538651    0.1896101    -0.2643730   -0.6343915    -0.2527368   -0.6272120    -0.6437331    0.0974653 
   6.107500000    -0.6535318    0.1916273    -0.2633189   -0.6332520    -0.2521277   -0.6267609    -0.6441360    0.0989605 
   6.110000000    -0.6526930    0.1938449    -0.2617491   -0.6332512    -0.2519925   -0.6252378    -0.6460171    0.1004836 
   6.112500000    -0.6529953    0.1951859    -0.2625816   -0.6323141    -0.2498379   -0.6262546    -0.6469659    0.1023747 
   6.115000000    -0.6528376    0.1976389    -0.2616788   -0.6317967    -0.2491544   -0.6257994    -0.6484096    0.1041913 
   6.117500000    -0.6521065    0.1990751    -0.2603448   -0.6312855    -0.2487571   -0.6251057    -0.6501491    0.1060476 
   6.120000000    -0.6520307    0.2010237    -0.2597854   -0.6310175    -0.2470727   -0.6250447    -0.6508610    0.1078653 
   6.122500000    -0.6517138    0.2026801    -0.2584155   -0.6307380    -0.2466655   -0.6253200    -0.6520414    0.1100030 
   6.125000000    -0.6515025    0.2044852    -0.2574443   -0.6306825    -0.2459542   -0.6249912    -0.6534976    0.1116855 
   6.127500000    -0.6505160    0.2065686    -0.2569045   -0.6306603    -0.2453673   -0.6248858    -0.6547225    0.1139020 
   6.130000000    -0.6502636    0.2085419    -0.2566375   -0.6303403    -0.2440527   -0.6250234    -0.6557837    0.1160937 
   6.132500000    -0.6501628    0.2103946    -0.2555393   -0.6302124    -0.2428695   -0.6248612    -0.6575243    0.1183565 
   6.135000000    -0.6501393    0.2116585    -0.2539493   -0.6301928    -0.2415705   -0.6248428    -0.6582881    0.1206211 
   6.137500000    -0.6501707    0.2129921    -0.2531868   -0.6298226    -0.2406226   -0.6252749    -0.6590148    0.1232310 
   6.140000000    -0.6499454    0.2142214    -0.2517923   -0.6299276    -0.2402140   -0.6245139    -0.6600832    0.1255463 
   6.142500000    -0.6499540    0.2158074    -0.2514144   -0.6298197    -0.2390098   -0.6245457    -0.6612020    0.1273409 
   6.145000000    -0.6499796    0.2174985    -0.2503526   -0.6295222    -0.2379028   -0.6244435    -0.6620263    0.1294204 
   6.147500000    -0.6501317    0.2187914    -0.2492341   -0.6295335    -0.2365760   -0.6243995    -0.6636731    0.1322197 
   6.150000000    -0.6503302    0.2200195    -0.2488589   -0.6292998    -0.2354252   -0.6241593    -0.6638689    0.1341098 
   6.152500000    -0.6507171    0.2214536    -0.2478993   -0.6291972    -0.2351371   -0.6238626    -0.6647636    0.1364201 
   6.155000000    -0.6508195    0.2228810    -0.2477686   -0.6292167    -0.2345442   -0.6237539    -0.6655322    0.1387105 
   6.157500000    -0.6512184    0.2243728    -0.2472221   -0.6284186    -0.2336369   -0.6234342    -0.6667178    0.1404372 
   6.160000000    -0.6515461    0.2260077    -0.2464424   -0.6285140    -0.2326506   -0.6235070    -0.6676074    0.1423839 
   6.162500000    -0.6520088    0.2268800    -0.2452727   -0.6283350    -0.2315711   -0.6234678    -0.6685332    0.1440846 
   6.165000000    -0.6527798    0.2279603    -0.2447762   -0.6283516    -0.2309576   -0.6235927    -0.6688248    0.1460013 
   6.167500000    -0.6533912    0.2290430    -0.2436645   -0.6284004    -0.2304130   -0.6234398    -0.6694634    0.1471165 
   6.170000000    -0.6540532    0.2302188    -0.2443070   -0.6281776    -0.2298227   -0.6235934    -0.6699656    0.1484383 
   6.172500000    -0.6548980    0.2318274    -0.2433291   -0.6286871    -0.2289254   -0.6242684    -0.6705469    0.1501432 
   6.175000000    -0.6553367    0.2333016    -0.2423039   -0.6284603    -0.2277096   -0.6243464    -0.6712843    0.1513218 
   6.177500000    -0.6562177    0.2345953    -0.2420133   -0.6287314    -0.2267020   -0.6243479    -0.6717161    0.1532400 
   6.180000000    -0.6569071    0.2355931    -0.2406555   -0.6288494    -0.2262455   -0.6245616    -0.6720044    0.1541117 
   6.182500000    -0.6572385    0.2367324    -0.2408506   -0.6285865    -0.2254081   -0.6252494    -0.6726614    0.1545035 
   6.185000000    -0.6577581    0.2376693    -0.2393586   -0.6289135    -0.2241312   -0.6254369    -0.6727540    0.1549935 
   6.187500000    -0.6583644    0.2392977    -0.2383780   -0.6287652    -0.2233007   -0.6258479    -0.6728284    0.1554296 
   6.190000000    -0.6585723    0.2407752    -0.2373017   -0.6290618    -0.2220481   -0.6262451    -0.6725013    0.1567258 
   6.192500000    -0.6586744    0.2421480    -0.2355138   -0.6289217    -0.2205696   -0.6266597    -0.6732178    0.1573637 
   6.195000000    -0.6595170    0.2431525    -0.2344049   -0.6293266    -0.2197795   -0.6267572    -0.6730838    0.1576516 
   6.197500000    -0.6590416    0.2440335    -0.2339981   -0.6291561    -0.2184595   -0.6272675    -0.6730986    0.1572103 
   6.200000000    -0.6587142    0.2449587    -0.2328560   -0.6293765    -0.2170758   -0.6279452    -0.6730492    0.1570414 
   6.202500000    -0.6590638    0.2462174    -0.2312792   -0.6297330    -0.2156953   -0.6285416    -0.6728650    0.1567780 
   6.205000000    -0.6588545    0.2479189    -0.2304179   -0.6300894    -0.2147003   -0.6290866    -0.6725795    0.1576570 
   6.207500000    -0.6582584    0.2496020    -0.2289968   -0.6310313    -0.2133502   -0.6299698    -0.6727138    0.1586202 
   6.210000000    -0.6573402    0.2509262    -0.2275691   -0.6313108    -0.2124912   -0.6311332    -0.6730143    0.1585436 
   6.212500000    -0.6575262    0.2524975    -0.2274381   -0.6318878    -0.2117016   -0.6315800    -0.6730290    0.1589767 
   6.215000000    -0.6587121    0.2536443    -0.2261105   -0.6331329    -0.2105419   -0.6325707    -0.6730627    0.1586583 
   6.217500000    -0.6594765    0.2557918    -0.2248930   -0.6339419    -0.2090230   -0.6338978    -0.6731178    0.1589229 
   6.220000000    -0.6568807    0.2575865    -0.2232837   -0.6350326    -0.2081806   -0.6350316    -0.6732576    0.1602302 
   6.222500000    -0.6540462    0.2607032    -0.2221968   -0.6361995    -0.2069412   -0.6361368    -0.6735353    0.1610130 
   6.225000000    -0.6544368    0.2632114    -0.2208182   -0.6380846    -0.2059352   -0.6376430    -0.6742246    0.1617489 
   6.227500000    -0.6549433    0.2634484    -0.2200822   -0.6387993    -0.2055221   -0.6391419    -0.6747894    0.1626275 
   6.230000000    -0.6550192    0.2645071    -0.2195517   -0.6408405    -0.2044224   -0.6408178    -0.6757244    0.1631137 
   6.232500000    -0.6545115    0.2673531    -0.2180295   -0.6421507    -0.2037269   -0.6423812    -0.6765453    0.1644052 
   6.235000000    -0.6534579    0.2704603    -0.2172432   -0.6436327    -0.2027222   -0.6441942    -0.6777678    0.1658922 
   6.237500000    -0.6526528    0.2733259    -0.2159806   -0.6452031    -0.2021077   -0.6461028    -0.6786950    0.1672529 
   6.240000000    -0.6522682    0.2759323    -0.2151937   -0.6471279    -0.2010137   -0.6477810    -0.6783969    0.1693452 
   6.242500000    -0.6518883    0.2779058    -0.2143701   -0.6488798    -0.2009272   -0.6496111    -0.6788719    0.1715218 
   6.245000000    -0.6506971    0.2804707    -0.2151176   -0.6501060    -0.2006764   -0.6515822    -0.6795443    0.1740749 
   6.247500000    -0.6499618    0.2832800    -0.2144203   -0.6515732    -0.2006297   -0.6537098    -0.6806115    0.1763744 
   6.250000000    -0.6493006    0.2861610    -0.2136857   -0.6532351    -0.2002181   -0.6556764    -0.6818926    0.1790756 
   6.252500000    -0.6480502    0.2891363    -0.2140317   -0.6547558    -0.1998245   -0.6578234    -0.6825348    0.1810643 
   6.255000000    -0.6476537    0.2915652    -0.2130956   -0.6567681    -0.1994175   -0.6597051    -0.6826242    0.1842448 
   6.257500000    -0.6464532    0.2939631    -0.2128249   -0.6586936    -0.1991641   -0.6615451    -0.6840874    0.1869238 
   6.260000000    -0.6456931    0.2962767    -0.2142671   -0.6600227    -0.1997343   -0.6630943    -0.6847010    0.1892713 
   6.262500000    -0.6448483    0.2984526    -0.2140714   -0.6616490    -0.1999767   -0.6649309    -0.6847855    0.1919681 
   6.265000000    -0.6438114    0.3014656    -0.2140844   -0.6631551    -0.2004056   -0.6665925    -0.6850371    0.1949361 
   6.267500000    -0.6422658    0.3035938    -0.2140905   -0.6646241    -0.2000292   -0.6682951    -0.6850765    0.1983336 
   6.270000000    -0.6411552    0.3052045    -0.2146316   -0.6661389    -0.2003946   -0.6698700    -0.6859241    0.2012461 
   6.272500000    -0.6399990    0.3066234    -0.2156324   -0.6677441    -0.2013139   -0.6716626    -0.6857675    0.2037732 
   6.275000000    -0.6385742    0.3079295    -0.2156998   -0.6695231    -0.2018842   -0.6729825    -0.6849689    0.2066338 
   6.277500000    -0.6369632    0.3096558    -0.2163587   -0.6714513    -0.2025767   -0.6739973    -0.6849577    0.2091437 
   6.280000000    -0.6362050    0.3113891    -0.2167273   -0.6729289    -0.2028407   -0.6760876    -0.6851468    0.2111169 
   6.282500000    -0.6348290    0.3128001    -0.2167635   -0.6740244    -0.2035526   -0.6774587    -0.6849744    0.2141457 
   6.285000000    -0.6336553    0.3144061    -0.2183177   -0.6755473    -0.2046270   -0.6790316    -0.6845956    0.2163169 
   6.287500000    -0.6323451    0.3152864    -0.2190176   -0.6772020    -0.2055086   -0.6802145    -0.6839902    0.2180415 
   6.290000000    -0.6309035    0.3165119    -0.2193415   -0.6791097    -0.2063333   -0.6815187    -0.6833899    0.2200619 
   6.292500000    -0.6296532    0.3173238    -0.2195757   -0.6802945    -0.2067362   -0.6829544    -0.6828967    0.2221245 
   6.295000000    -0.6289073    0.3180253    -0.2197857   -0.6815500    -0.2070593   -0.6848523    -0.6824912    0.2240125 
   6.297500000    -0.6276084    0.3185504    -0.2210769   -0.6823897    -0.2079388   -0.6863390    -0.6820024    0.2267805 
   6.300000000    -0.6263804    0.3189426    -0.2211876   -0.6835262    -0.2083336   -0.6878896    -0.6810368    0.2285423 
   6.302500000    -0.6245937    0.3196433    -0.2222137   -0.6845956    -0.2090248   -0.6890073    -0.6795785    0.2305695 
   6.305000000    -0.6234708    0.3202699    -0.2225965   -0.6857909    -0.2096043   -0.6902323    -0.6785585    0.2319168 
   6.307500000    -0.6225389    0.3209173    -0.2228806   -0.6873922    -0.2098633   -0.6916969    -0.6774220    0.2333720 
   6.310000000    -0.6211187    0.3207753    -0.2247742   -0.6884859    -0.2106662   -0.6937383    -0.6764116    0.2354169 
   6.312500000    -0.6200865    0.3209876    -0.2249459   -0.6897848    -0.2110026   -0.6953077    -0.6754009    0.2362262 
   6.315000000    -0.6189647    0.3209296    -0.2253941   -0.6909637    -0.2118272   -0.6968951    -0.6742664    0.2372184 
   6.317500000    -0.6173647    0.3209797    -0.2254013   -0.6923389    -0.2132620   -0.6977278    -0.6728319    0.2379157 
   6.320000000    -0.6165744    0.3207208    -0.2286297   -0.6927012    -0.2109435   -0.7001815    -0.6717201    0.2387030 
   6.322500000    -0.6149384    0.3210797    -0.2277700   -0.6946518    -0.2136297   -0.7007446    -0.6700299    0.2398954 
   6.325000000    -0.6135430    0.3210047    -0.2296118   -0.6957224    -0.2146829   -0.7024874    -0.6685322    0.2403872 
   6.327500000    -0.6121210    0.3209070    -0.2301230   -0.6975487    -0.2154705   -0.7039596    -0.6673532    0.2409762 
   6.330000000    -0.6106799    0.3203507    -0.2310904   -0.6987460    -0.2167616   -0.7050269    -0.6650944    0.2415974 
   6.332500000    -0.6093665    0.3210818    -0.2318269   -0.6998077    -0.2177569   -0.7065015    -0.6627350    0.2423932 
   6.335000000    -0.6074512    0.3210226    -0.2322286   -0.7013636    -0.2186782   -0.7080445    -0.6609895    0.2436307 
   6.337500000    -0.6055881    0.3208776    -0.2331163   -0.7023932    -0.2195890   -0.7097974    -0.6589072    0.2445065 
   6.340000000    -0.6037896    0.3212986    -0.2352014   -0.7037379    -0.2205504   -0.7106293    -0.6570160    0.2445884 
   6.342500000    -0.6018250    0.3216053    -0.2362154   -0.7049214    -0.2222878   -0.7115301    -0.6546409    0.2449886 
   6.345000000    -0.5996091    0.3222569    -0.2370528   -0.7065079    -0.2238915   -0.7130940    -0.6525235    0.2455107 
   6.347500000    -0.5976472    0.3233203    -0.2381379   -0.7075953    -0.2248418   -0.7144074    -0.6498963    0.2465068 
   6.350000000    -0.5953240    0.3240546    -0.2388930   -0.7085079    -0.2260285   -0.7158427    -0.6485044    0.2469558 
   6.352500000    -0.5929641    0.3246834    -0.2392893   -0.7096460    -0.2270958   -0.7168264    -0.6464114    0.2480882 
   6.355000000    -0.5905787    0.3254445    -0.2402938   -0.7106442    -0.2284264   -0.7185203    -0.6444437    0.2484861 
   6.357500000    -0.5879026    0.3264222    -0.2423777   -0.7113624    -0.2295738   -0.7193678    -0.6420026    0.2496577 
   6.360000000    -0.5853924    0.3274689    -0.2430588   -0.7126451    -0.2309995   -0.7202993    -0.6393074    0.2498586 
   6.362500000    -0.5830691    0.3287275    -0.2441422   -0.7133460    -0.2328384   -0.7217337    -0.6370955    0.2509094 
   6.365000000    -0.5806206    0.3305648    -0.2455880   -0.7139056    -0.2344262   -0.7229124    -0.6356716    0.2526739 
   6.367500000    -0.5788051    0.3315181    -0.2465954   -0.7145044    -0.2356183   -0.7242649    -0.6331863    0.2532583 
   6.370000000    -0.5761145    0.3328356    -0.2472040   -0.7149113    -0.2368404   -0.7251819    -0.6308340    0.2540670 
   6.372500000    -0.5734048    0.3342298    -0.2500153   -0.7151243    -0.2382342   -0.7260931    -0.6292040    0.2545584 
   6.375000000    -0.5707613    0.3353437    -0.2503183   -0.7159415    -0.2392126   -0.7266646    -0.6270645    0.2552340 
   6.377500000    -0.5683993    0.3363776    -0.2511525   -0.7171664    -0.2410622   -0.7276207    -0.6249234    0.2556977 
   6.380000000    -0.5660065    0.3383284    -0.2529044   -0.7175848    -0.2426605   -0.7285809    -0.6233687    0.2567343 
   6.382500000    -0.5637023    0.3395963    -0.2539061   -0.7180180    -0.2440866   -0.7287939    -0.6209762    0.2580977 
   6.385000000    -0.5613266    0.3405778    -0.2555349   -0.7186497    -0.2455738   -0.7296269    -0.6191978    0.2585080 
   6.387500000    -0.5588949    0.3415093    -0.2569617   -0.7200379    -0.2472799   -0.7304962    -0.6176307    0.2584552 
   6.390000000    -0.5565823    0.3423058    -0.2582937   -0.7203096    -0.2483906   -0.7314488    -0.6162496    0.2592440 
