! MS46122B
! 1919307/90821646
! 6/10/2022 12:09:12 PM
! C:\USERS\PC_\DESKTOP\CARACTERIZACION\MEDICIONES\BANCHA ESTRECHA\5_55GHZ\S11_S21_ABS10_1002CL.S2P
! CHANNEL.1
! TR.MEASUREMENT
! CORRECTED.DATA
# GHZ S RI R 50.0
! FREQ.GHZ         S11RE         S11IM         S21RE         S21IM         S12RE         S12IM         S22RE         S22IM         
!; PortSelection: Port_12
   5.000000000    -0.8674990    0.1915676    -0.0777846   -0.4351877    -0.0353814   -0.4632547    -0.8241027    0.2252051 
   5.002500000    -0.8676377    0.1902632    -0.0798844   -0.4323443    -0.0365465   -0.4642843    -0.8248990    0.2253877 
   5.005000000    -0.8670573    0.1893351    -0.0793536   -0.4320353    -0.0370397   -0.4654001    -0.8252053    0.2249121 
   5.007500000    -0.8667567    0.1885261    -0.0784678   -0.4318625    -0.0371216   -0.4666188    -0.8262496    0.2239537 
   5.010000000    -0.8661078    0.1881924    -0.0774804   -0.4316610    -0.0371561   -0.4678183    -0.8270013    0.2231670 
   5.012500000    -0.8657869    0.1879351    -0.0769919   -0.4311070    -0.0370991   -0.4688165    -0.8271772    0.2226901 
   5.015000000    -0.8650602    0.1873388    -0.0758642   -0.4308479    -0.0374349   -0.4697505    -0.8274513    0.2223518 
   5.017500000    -0.8639448    0.1871559    -0.0754790   -0.4306661    -0.0380695   -0.4704829    -0.8277561    0.2213269 
   5.020000000    -0.8633723    0.1873271    -0.0743492   -0.4303089    -0.0385801   -0.4712027    -0.8279169    0.2215816 
   5.022500000    -0.8624431    0.1874891    -0.0734718   -0.4299433    -0.0388751   -0.4719972    -0.8280171    0.2211358 
   5.025000000    -0.8613648    0.1879708    -0.0729442   -0.4291874    -0.0391922   -0.4724930    -0.8281485    0.2200920 
   5.027500000    -0.8603107    0.1886763    -0.0719906   -0.4287903    -0.0393884   -0.4728765    -0.8284997    0.2202929 
   5.030000000    -0.8596925    0.1890510    -0.0707460   -0.4283734    -0.0397233   -0.4732456    -0.8273912    0.2197075 
   5.032500000    -0.8584668    0.1897265    -0.0699566   -0.4284846    -0.0403593   -0.4739343    -0.8279551    0.2191224 
   5.035000000    -0.8579554    0.1914637    -0.0688991   -0.4280261    -0.0406145   -0.4743224    -0.8285186    0.2194307 
   5.037500000    -0.8576560    0.1923967    -0.0674959   -0.4278749    -0.0405622   -0.4745209    -0.8289264    0.2191706 
   5.040000000    -0.8580347    0.1929403    -0.0668564   -0.4273716    -0.0408034   -0.4749418    -0.8291501    0.2194597 
   5.042500000    -0.8577555    0.1936830    -0.0655598   -0.4274964    -0.0408201   -0.4754020    -0.8291087    0.2197519 
   5.045000000    -0.8577123    0.1945205    -0.0643584   -0.4277109    -0.0406676   -0.4755917    -0.8297777    0.2208742 
   5.047500000    -0.8587670    0.1953590    -0.0628234   -0.4279375    -0.0409600   -0.4760841    -0.8305727    0.2216306 
   5.050000000    -0.8592804    0.1954417    -0.0611936   -0.4281400    -0.0404961   -0.4769123    -0.8311949    0.2216725 
   5.052500000    -0.8599445    0.1959034    -0.0595474   -0.4282651    -0.0400537   -0.4776339    -0.8319519    0.2229778 
   5.055000000    -0.8606979    0.1965132    -0.0580290   -0.4287349    -0.0398613   -0.4785025    -0.8321133    0.2238760 
   5.057500000    -0.8622144    0.1970087    -0.0561154   -0.4291385    -0.0391237   -0.4794880    -0.8334211    0.2249200 
   5.060000000    -0.8632317    0.1968050    -0.0545138   -0.4299828    -0.0386526   -0.4799365    -0.8340222    0.2261540 
   5.062500000    -0.8648493    0.1967328    -0.0528028   -0.4306407    -0.0384402   -0.4808764    -0.8349804    0.2274719 
   5.065000000    -0.8661217    0.1963706    -0.0508464   -0.4312818    -0.0381425   -0.4820217    -0.8358966    0.2284959 
   5.067500000    -0.8677776    0.1972527    -0.0489357   -0.4318412    -0.0378483   -0.4831922    -0.8365737    0.2306523 
   5.070000000    -0.8693798    0.1970414    -0.0470675   -0.4322203    -0.0373042   -0.4842764    -0.8374194    0.2323598 
   5.072500000    -0.8709185    0.1961716    -0.0458029   -0.4335213    -0.0367329   -0.4854496    -0.8383259    0.2330497 
   5.075000000    -0.8724892    0.1953805    -0.0439099   -0.4346309    -0.0366314   -0.4872107    -0.8393103    0.2345156 
   5.077500000    -0.8742884    0.1953090    -0.0419640   -0.4358159    -0.0365422   -0.4885204    -0.8405362    0.2365645 
   5.080000000    -0.8754818    0.1949038    -0.0404095   -0.4371175    -0.0367509   -0.4900461    -0.8418568    0.2380769 
   5.082500000    -0.8767257    0.1943347    -0.0391076   -0.4384645    -0.0367445   -0.4915562    -0.8425182    0.2400634 
   5.085000000    -0.8780798    0.1942572    -0.0383045   -0.4402643    -0.0367410   -0.4933061    -0.8440290    0.2419863 
   5.087500000    -0.8792798    0.1933660    -0.0363568   -0.4421259    -0.0374244   -0.4955005    -0.8453649    0.2436263 
   5.090000000    -0.8804359    0.1933215    -0.0351669   -0.4440544    -0.0375737   -0.4975547    -0.8462877    0.2454983 
   5.092500000    -0.8817033    0.1928088    -0.0335884   -0.4460157    -0.0383460   -0.4992734    -0.8472898    0.2469302 
   5.095000000    -0.8826077    0.1925128    -0.0331171   -0.4481920    -0.0387850   -0.5014348    -0.8483876    0.2481185 
   5.097500000    -0.8830613    0.1920481    -0.0326410   -0.4507448    -0.0391839   -0.5033844    -0.8492486    0.2496588 
   5.100000000    -0.8834544    0.1910385    -0.0314137   -0.4531105    -0.0395356   -0.5055254    -0.8501892    0.2509247 
   5.102500000    -0.8838015    0.1898262    -0.0304808   -0.4558165    -0.0403244   -0.5080308    -0.8512952    0.2528638 
   5.105000000    -0.8838547    0.1892337    -0.0294253   -0.4580043    -0.0415337   -0.5098469    -0.8518767    0.2543390 
   5.107500000    -0.8839019    0.1882663    -0.0292994   -0.4600698    -0.0422497   -0.5120742    -0.8522466    0.2560783 
   5.110000000    -0.8831344    0.1871026    -0.0294878   -0.4630749    -0.0420273   -0.5139456    -0.8532960    0.2574390 
   5.112500000    -0.8818726    0.1865668    -0.0288218   -0.4655402    -0.0430034   -0.5160924    -0.8546028    0.2596486 
   5.115000000    -0.8805642    0.1851364    -0.0280743   -0.4677248    -0.0448167   -0.5179902    -0.8543824    0.2609207 
   5.117500000    -0.8795061    0.1836385    -0.0280446   -0.4701920    -0.0458188   -0.5199437    -0.8551186    0.2626365 
   5.120000000    -0.8777130    0.1823820    -0.0279551   -0.4728709    -0.0473790   -0.5216920    -0.8554297    0.2640392 
   5.122500000    -0.8757830    0.1811069    -0.0279147   -0.4750119    -0.0488898   -0.5238636    -0.8547414    0.2659441 
   5.125000000    -0.8732529    0.1796662    -0.0287962   -0.4777481    -0.0504370   -0.5253793    -0.8546706    0.2670712 
   5.127500000    -0.8707979    0.1786060    -0.0289841   -0.4800050    -0.0525072   -0.5272551    -0.8543507    0.2680711 
   5.130000000    -0.8680486    0.1775321    -0.0297430   -0.4824461    -0.0543664   -0.5290629    -0.8547823    0.2699890 
   5.132500000    -0.8651541    0.1767057    -0.0305671   -0.4845501    -0.0575444   -0.5307282    -0.8549048    0.2715926 
   5.135000000    -0.8624731    0.1764986    -0.0319911   -0.4863747    -0.0597502   -0.5322065    -0.8551976    0.2725134 
   5.137500000    -0.8601962    0.1761547    -0.0326524   -0.4884453    -0.0619777   -0.5336633    -0.8551670    0.2741658 
   5.140000000    -0.8576895    0.1760287    -0.0332156   -0.4897130    -0.0644016   -0.5348920    -0.8550411    0.2753756 
   5.142500000    -0.8553128    0.1762094    -0.0346425   -0.4918091    -0.0668015   -0.5358195    -0.8543655    0.2763937 
   5.145000000    -0.8529323    0.1768684    -0.0352696   -0.4931172    -0.0692560   -0.5368535    -0.8537540    0.2775322 
   5.147500000    -0.8499191    0.1782108    -0.0365749   -0.4942054    -0.0711445   -0.5374880    -0.8519198    0.2789118 
   5.150000000    -0.8466213    0.1791104    -0.0363461   -0.4955613    -0.0743020   -0.5373441    -0.8507160    0.2783964 
   5.152500000    -0.8440729    0.1800254    -0.0374929   -0.4961020    -0.0759080   -0.5383742    -0.8490987    0.2791981 
   5.155000000    -0.8407017    0.1811124    -0.0371907   -0.4970310    -0.0779670   -0.5384443    -0.8472180    0.2805181 
   5.157500000    -0.8382837    0.1827155    -0.0376467   -0.4982821    -0.0797202   -0.5385467    -0.8450090    0.2813333 
   5.160000000    -0.8357800    0.1845389    -0.0373415   -0.4993749    -0.0813890   -0.5383632    -0.8426114    0.2823098 
   5.162500000    -0.8327713    0.1861241    -0.0370114   -0.5000163    -0.0828439   -0.5381320    -0.8403056    0.2830849 
   5.165000000    -0.8302057    0.1876394    -0.0364176   -0.5010252    -0.0839740   -0.5381717    -0.8379760    0.2836342 
   5.167500000    -0.8265850    0.1896855    -0.0359492   -0.5018487    -0.0853158   -0.5374024    -0.8352730    0.2844887 
   5.170000000    -0.8236453    0.1917864    -0.0350728   -0.5038991    -0.0864743   -0.5368973    -0.8330016    0.2853518 
   5.172500000    -0.8210129    0.1943689    -0.0338801   -0.5057967    -0.0873043   -0.5359775    -0.8302124    0.2862555 
   5.175000000    -0.8181167    0.1965680    -0.0324202   -0.5073358    -0.0877709   -0.5359371    -0.8278525    0.2867357 
   5.177500000    -0.8154387    0.1989693    -0.0310641   -0.5094718    -0.0886092   -0.5355783    -0.8257683    0.2867588 
   5.180000000    -0.8129134    0.2011676    -0.0292756   -0.5118118    -0.0888403   -0.5348599    -0.8230724    0.2870151 
   5.182500000    -0.8103833    0.2036861    -0.0289911   -0.5144131    -0.0893888   -0.5346906    -0.8208902    0.2876491 
   5.185000000    -0.8079423    0.2060867    -0.0272725   -0.5177700    -0.0894475   -0.5348662    -0.8191493    0.2875686 
   5.187500000    -0.8055064    0.2079435    -0.0265781   -0.5213504    -0.0897895   -0.5348192    -0.8187832    0.2878208 
   5.190000000    -0.8032337    0.2100361    -0.0256152   -0.5252938    -0.0899062   -0.5354438    -0.8171976    0.2870964 
   5.192500000    -0.8008647    0.2114951    -0.0251342   -0.5294491    -0.0900415   -0.5357694    -0.8170387    0.2870783 
   5.195000000    -0.7990239    0.2134056    -0.0253156   -0.5340500    -0.0902068   -0.5367371    -0.8173936    0.2864720 
   5.197500000    -0.7978131    0.2148626    -0.0256500   -0.5388492    -0.0907260   -0.5384638    -0.8179215    0.2860742 
   5.200000000    -0.7960798    0.2166917    -0.0268893   -0.5440471    -0.0913552   -0.5401528    -0.8185873    0.2862231 
   5.202500000    -0.7947880    0.2182481    -0.0274414   -0.5493868    -0.0920513   -0.5422006    -0.8198132    0.2869833 
   5.205000000    -0.7935165    0.2198243    -0.0298496   -0.5550019    -0.0927553   -0.5439218    -0.8207654    0.2875012 
   5.207500000    -0.7922245    0.2205745    -0.0319861   -0.5600955    -0.0941473   -0.5456812    -0.8214216    0.2887296 
   5.210000000    -0.7910764    0.2216082    -0.0352270   -0.5651376    -0.0956448   -0.5475833    -0.8220758    0.2903467 
   5.212500000    -0.7903929    0.2220514    -0.0384262   -0.5699939    -0.0977405   -0.5495465    -0.8220967    0.2918746 
   5.215000000    -0.7901467    0.2228608    -0.0427107   -0.5750601    -0.0998604   -0.5515001    -0.8220785    0.2944255 
   5.217500000    -0.7892048    0.2224136    -0.0471913   -0.5794538    -0.1026623   -0.5532368    -0.8218610    0.2963435 
   5.220000000    -0.7881567    0.2222455    -0.0514347   -0.5830864    -0.1053563   -0.5543487    -0.8209141    0.2981031 
   5.222500000    -0.7865852    0.2215812    -0.0569303   -0.5862173    -0.1083356   -0.5552214    -0.8194150    0.2997242 
   5.225000000    -0.7859204    0.2205133    -0.0615938   -0.5890122    -0.1112693   -0.5562462    -0.8186591    0.3012666 
   5.227500000    -0.7860113    0.2197296    -0.0677047   -0.5913231    -0.1143886   -0.5575800    -0.8175326    0.3023076 
   5.230000000    -0.7846808    0.2189017    -0.0731868   -0.5934495    -0.1181459   -0.5574622    -0.8163521    0.3044080 
   5.232500000    -0.7833869    0.2175319    -0.0787012   -0.5947007    -0.1212643   -0.5573812    -0.8142180    0.3042491 
   5.235000000    -0.7827180    0.2169668    -0.0842316   -0.5955496    -0.1245632   -0.5572197    -0.8125616    0.3047424 
   5.237500000    -0.7831072    0.2159221    -0.0894858   -0.5956673    -0.1276510   -0.5562121    -0.8103154    0.3060320 
   5.240000000    -0.7832067    0.2149745    -0.0952328   -0.5952756    -0.1312346   -0.5556953    -0.8080799    0.3066750 
   5.242500000    -0.7830225    0.2151274    -0.1003359   -0.5953272    -0.1348577   -0.5551577    -0.8063769    0.3077897 
   5.245000000    -0.7810999    0.2150645    -0.1052442   -0.5946159    -0.1380707   -0.5539759    -0.8054617    0.3080981 
   5.247500000    -0.7796880    0.2152758    -0.1101938   -0.5941700    -0.1412595   -0.5525007    -0.8034492    0.3100172 
   5.250000000    -0.7787741    0.2154202    -0.1147755   -0.5926530    -0.1442038   -0.5508206    -0.8019044    0.3107808 
   5.252500000    -0.7787895    0.2170636    -0.1187675   -0.5912911    -0.1472173   -0.5493742    -0.8003263    0.3118977 
   5.255000000    -0.7771111    0.2177430    -0.1233097   -0.5889985    -0.1495228   -0.5471970    -0.7973498    0.3131202 
   5.257500000    -0.7742980    0.2184174    -0.1271674   -0.5873039    -0.1520682   -0.5451697    -0.7954425    0.3140922 
   5.260000000    -0.7710199    0.2196329    -0.1302912   -0.5851879    -0.1550787   -0.5426934    -0.7926018    0.3149395 
   5.262500000    -0.7685725    0.2210777    -0.1328758   -0.5825105    -0.1572982   -0.5402752    -0.7893184    0.3163154 
   5.265000000    -0.7660952    0.2232646    -0.1356950   -0.5804358    -0.1586158   -0.5375583    -0.7869297    0.3167392 
   5.267500000    -0.7627855    0.2242325    -0.1372152   -0.5776837    -0.1605699   -0.5346573    -0.7838393    0.3167565 
   5.270000000    -0.7596053    0.2254138    -0.1393160   -0.5754923    -0.1605881   -0.5319690    -0.7802538    0.3171455 
   5.272500000    -0.7549316    0.2272651    -0.1403838   -0.5734281    -0.1620033   -0.5288665    -0.7771196    0.3175543 
   5.275000000    -0.7498714    0.2285310    -0.1417570   -0.5703372    -0.1611539   -0.5257097    -0.7729109    0.3172125 
   5.277500000    -0.7444847    0.2290158    -0.1420151   -0.5679213    -0.1611989   -0.5224882    -0.7684383    0.3170907 
   5.280000000    -0.7393658    0.2299600    -0.1425352   -0.5655640    -0.1607142   -0.5194641    -0.7648623    0.3162376 
   5.282500000    -0.7353420    0.2309473    -0.1417339   -0.5639229    -0.1596569   -0.5166834    -0.7620282    0.3157601 
   5.285000000    -0.7302440    0.2318040    -0.1413539   -0.5624020    -0.1575315   -0.5149177    -0.7593098    0.3135740 
   5.287500000    -0.7257987    0.2316596    -0.1402956   -0.5615134    -0.1554632   -0.5126875    -0.7560390    0.3114973 
   5.290000000    -0.7203466    0.2308562    -0.1392878   -0.5606580    -0.1530002   -0.5112336    -0.7525321    0.3099346 
   5.292500000    -0.7148572    0.2301961    -0.1385622   -0.5612480    -0.1504334   -0.5103806    -0.7493276    0.3076808 
   5.295000000    -0.7096952    0.2293433    -0.1370858   -0.5616605    -0.1478598   -0.5097964    -0.7470229    0.3057961 
   5.297500000    -0.7053321    0.2290606    -0.1362386   -0.5624460    -0.1453047   -0.5098787    -0.7451913    0.3043080 
   5.300000000    -0.7019196    0.2280284    -0.1353233   -0.5644322    -0.1426648   -0.5110285    -0.7444035    0.3019412 
   5.302500000    -0.6989040    0.2274910    -0.1357158   -0.5668607    -0.1404102   -0.5129910    -0.7430979    0.3006332 
   5.305000000    -0.6968933    0.2266469    -0.1359826   -0.5694950    -0.1386651   -0.5150873    -0.7424956    0.2992748 
   5.307500000    -0.6953539    0.2266088    -0.1368138   -0.5730379    -0.1375066   -0.5180588    -0.7426478    0.2981718 
   5.310000000    -0.6949623    0.2260280    -0.1389746   -0.5766768    -0.1359921   -0.5214577    -0.7429321    0.2981658 
   5.312500000    -0.6947883    0.2264338    -0.1404625   -0.5798785    -0.1375214   -0.5248080    -0.7436492    0.2991190 
   5.315000000    -0.6953477    0.2265011    -0.1442571   -0.5836583    -0.1379538   -0.5286524    -0.7444791    0.2998148 
   5.317500000    -0.6959371    0.2272118    -0.1476041   -0.5872810    -0.1397885   -0.5323599    -0.7451555    0.3010701 
   5.320000000    -0.6966387    0.2285735    -0.1523551   -0.5907000    -0.1422799   -0.5358394    -0.7452349    0.3034357 
   5.322500000    -0.6980363    0.2296981    -0.1570751   -0.5935943    -0.1453972   -0.5391192    -0.7445179    0.3053664 
   5.325000000    -0.6991884    0.2319252    -0.1636004   -0.5964118    -0.1496659   -0.5419974    -0.7422230    0.3078650 
   5.327500000    -0.7004474    0.2335927    -0.1700052   -0.5979715    -0.1544693   -0.5438418    -0.7396184    0.3098057 
   5.330000000    -0.7014056    0.2352723    -0.1770860   -0.5983626    -0.1597798   -0.5449063    -0.7366607    0.3121215 
   5.332500000    -0.7028072    0.2365852    -0.1836484   -0.5977868    -0.1649284   -0.5448783    -0.7333544    0.3130081 
   5.335000000    -0.7036037    0.2375046    -0.1906635   -0.5959142    -0.1703936   -0.5437293    -0.7295950    0.3132587 
   5.337500000    -0.7047361    0.2384813    -0.1981679   -0.5938466    -0.1753774   -0.5423819    -0.7261211    0.3127888 
   5.340000000    -0.7060822    0.2393880    -0.2042096   -0.5909754    -0.1804625   -0.5404484    -0.7221570    0.3117048 
   5.342500000    -0.7083552    0.2404724    -0.2099538   -0.5874668    -0.1851121   -0.5371962    -0.7188721    0.3104392 
   5.345000000    -0.7101134    0.2412175    -0.2149813   -0.5831097    -0.1888535   -0.5335405    -0.7155334    0.3080914 
   5.347500000    -0.7124686    0.2413420    -0.2204608   -0.5777315    -0.1918997   -0.5293882    -0.7123844    0.3059309 
   5.350000000    -0.7150028    0.2418349    -0.2241315   -0.5729761    -0.1944899   -0.5255731    -0.7105553    0.3036819 
   5.352500000    -0.7175524    0.2424294    -0.2279045   -0.5683330    -0.1969647   -0.5213575    -0.7089812    0.3003237 
   5.355000000    -0.7206326    0.2441732    -0.2310557   -0.5636480    -0.1997364   -0.5170932    -0.7070757    0.2977732 
   5.357500000    -0.7236676    0.2448680    -0.2333541   -0.5589505    -0.2006922   -0.5127943    -0.7062826    0.2956609 
   5.360000000    -0.7255312    0.2466454    -0.2358979   -0.5537053    -0.2018712   -0.5082493    -0.7048023    0.2936808 
   5.362500000    -0.7288204    0.2477634    -0.2373035   -0.5491791    -0.2021665   -0.5041233    -0.7039003    0.2916317 
   5.365000000    -0.7315732    0.2482050    -0.2384225   -0.5444325    -0.2026265   -0.5001776    -0.7035198    0.2899354 
   5.367500000    -0.7346928    0.2488762    -0.2388585   -0.5398278    -0.2019816   -0.4960644    -0.7029465    0.2874567 
   5.370000000    -0.7373829    0.2503732    -0.2399418   -0.5361200    -0.2019363   -0.4922771    -0.7029448    0.2858042 
   5.372500000    -0.7398033    0.2514485    -0.2400018   -0.5318177    -0.2012715   -0.4878462    -0.7023668    0.2837434 
   5.375000000    -0.7417136    0.2527816    -0.2400974   -0.5276822    -0.2006265   -0.4842744    -0.7021704    0.2836115 
   5.377500000    -0.7433712    0.2544940    -0.2396365   -0.5234929    -0.1992965   -0.4805477    -0.7014506    0.2830393 
   5.380000000    -0.7451231    0.2555655    -0.2394539   -0.5191147    -0.1975341   -0.4771973    -0.7018697    0.2827742 
   5.382500000    -0.7464840    0.2565062    -0.2381995   -0.5156136    -0.1954094   -0.4738769    -0.7022057    0.2812077 
   5.385000000    -0.7481944    0.2575732    -0.2369940   -0.5122374    -0.1928619   -0.4707655    -0.7021090    0.2808451 
   5.387500000    -0.7483455    0.2585342    -0.2364738   -0.5085291    -0.1903247   -0.4674491    -0.7016391    0.2807648 
