! MS46122B
! 1919307/90821646
! 5/16/2022 1:45:53 PM
! C:\USERS\PC_\DESKTOP\CARACTERIZACION\MEDICIONES\BANDA ANCHA\S11_S21_ABS44_502C.S2P
! CHANNEL.1
! TR.MEASUREMENT
! CORRECTED.DATA
# GHZ S RI R 50.0
! FREQ.GHZ         S11RE         S11IM         S21RE         S21IM         S12RE         S12IM         S22RE         S22IM         
!; PortSelection: Port_12
   4.950000000    -0.5775325   -0.1573274     0.2752882   -0.7525837     0.2905098   -0.7704118    -0.5522728   -0.2637758 
   4.957564576    -0.5779693   -0.1593313     0.2713105   -0.7512088     0.2866867   -0.7691335    -0.5574604   -0.2528465 
   4.965129151    -0.5810130   -0.1644252     0.2690694   -0.7483347     0.2831343   -0.7663262    -0.5633443   -0.2408786 
   4.972693727    -0.5856610   -0.1690755     0.2660960   -0.7451100     0.2798152   -0.7636182    -0.5705613   -0.2274286 
   4.980258303    -0.5902765   -0.1719791     0.2647137   -0.7398207     0.2763421   -0.7593164    -0.5773037   -0.2146139 
   4.987822878    -0.5948047   -0.1717875     0.2637528   -0.7347739     0.2727003   -0.7549347    -0.5827944   -0.2031479 
   4.995387454    -0.5996030   -0.1687711     0.2650428   -0.7305466     0.2703423   -0.7511272    -0.5892928   -0.1935855 
   5.002952030    -0.6030439   -0.1644411     0.2679464   -0.7266814     0.2688117   -0.7471531    -0.5939970   -0.1879760 
   5.010516605    -0.6047840   -0.1573575     0.2721762   -0.7243572     0.2683648   -0.7437298    -0.5982429   -0.1836162 
   5.018081181    -0.6049450   -0.1509013     0.2764002   -0.7228075     0.2674248   -0.7400306    -0.6013360   -0.1808768 
   5.025645756    -0.6033205   -0.1431672     0.2801604   -0.7228661     0.2666252   -0.7371385    -0.6030945   -0.1795892 
   5.033210332    -0.6003118   -0.1353280     0.2838648   -0.7234159     0.2657446   -0.7340897    -0.6041060   -0.1796673 
   5.040774908    -0.5973160   -0.1285437     0.2860903   -0.7259235     0.2651432   -0.7325578    -0.6045043   -0.1796128 
   5.048339483    -0.5940806   -0.1236707     0.2880189   -0.7281119     0.2644457   -0.7308788    -0.6042562   -0.1802377 
   5.055904059    -0.5910217   -0.1193776     0.2901659   -0.7321603     0.2644199   -0.7302266    -0.6026123   -0.1807246 
   5.063468635    -0.5873799   -0.1168113     0.2924904   -0.7358460     0.2648127   -0.7303033    -0.6006761   -0.1811916 
   5.071033210    -0.5840304   -0.1145570     0.2938704   -0.7401624     0.2651096   -0.7312188    -0.5975852   -0.1806278 
   5.078597786    -0.5810549   -0.1140397     0.2941408   -0.7430073     0.2653545   -0.7329350    -0.5941376   -0.1784388 
   5.086162362    -0.5775126   -0.1142051     0.2919588   -0.7462091     0.2640401   -0.7348052    -0.5916172   -0.1744073 
   5.093726937    -0.5747293   -0.1158061     0.2894939   -0.7494233     0.2625534   -0.7369746    -0.5887787   -0.1705835 
   5.101291513    -0.5728970   -0.1178608     0.2884382   -0.7510875     0.2611947   -0.7388467    -0.5849255   -0.1661930 
   5.108856089    -0.5721373   -0.1207025     0.2872019   -0.7532539     0.2610619   -0.7409142    -0.5817673   -0.1618418 
   5.116420664    -0.5718532   -0.1223510     0.2873487   -0.7532437     0.2610615   -0.7419992    -0.5785801   -0.1573857 
   5.123985240    -0.5716068   -0.1231756     0.2888613   -0.7539597     0.2625904   -0.7425866    -0.5744262   -0.1524426 
   5.131549815    -0.5704418   -0.1228672     0.2894692   -0.7541940     0.2638051   -0.7440435    -0.5694329   -0.1492001 
   5.139114391    -0.5696334   -0.1205631     0.2924982   -0.7549793     0.2654512   -0.7463006    -0.5655266   -0.1469329 
   5.146678967    -0.5678815   -0.1164861     0.2939979   -0.7571025     0.2673174   -0.7495111    -0.5608191   -0.1469023 
   5.154243542    -0.5647547   -0.1099585     0.2969612   -0.7597637     0.2690009   -0.7525752    -0.5542737   -0.1487415 
   5.161808118    -0.5607643   -0.1051741     0.3008329   -0.7639241     0.2721387   -0.7555224    -0.5465085   -0.1515649 
   5.169372694    -0.5553890   -0.1000569     0.3036447   -0.7685532     0.2760703   -0.7574925    -0.5378233   -0.1529249 
   5.176937269    -0.5476191   -0.0946901     0.3064363   -0.7744786     0.2806783   -0.7588392    -0.5293090   -0.1540042 
   5.184501845    -0.5387524   -0.0896851     0.3087768   -0.7806937     0.2858068   -0.7609223    -0.5202312   -0.1554824 
   5.192066421    -0.5277007   -0.0873672     0.3090531   -0.7875587     0.2915854   -0.7643552    -0.5135478   -0.1561756 
   5.199630996    -0.5173940   -0.0869005     0.3092856   -0.7942881     0.2976696   -0.7716045    -0.5063236   -0.1568453 
   5.207195572    -0.5071751   -0.0892420     0.3079999   -0.8027584     0.3026903   -0.7807267    -0.5005431   -0.1551925 
   5.214760148    -0.4994527   -0.0947238     0.3063384   -0.8118964     0.3044508   -0.7920231    -0.4933916   -0.1514163 
   5.222324723    -0.4919702   -0.1022965     0.3017514   -0.8205029     0.3040761   -0.8026962    -0.4864980   -0.1473732 
   5.229889299    -0.4868218   -0.1105814     0.2950796   -0.8295854     0.3001103   -0.8119504    -0.4800718   -0.1427474 
   5.237453875    -0.4835362   -0.1198041     0.2869128   -0.8346972     0.2940892   -0.8171517    -0.4730770   -0.1403451 
   5.245018450    -0.4832077   -0.1267446     0.2769906   -0.8400335     0.2877762   -0.8219544    -0.4697661   -0.1378561 
   5.252583026    -0.4843259   -0.1325595     0.2669428   -0.8413205     0.2813846   -0.8249807    -0.4698437   -0.1379053 
   5.260147601    -0.4836477   -0.1353973     0.2588531   -0.8428745     0.2752161   -0.8267003    -0.4703795   -0.1388956 
   5.267712177    -0.4843324   -0.1371683     0.2522591   -0.8412948     0.2711329   -0.8272682    -0.4713126   -0.1427846 
   5.275276753    -0.4820335   -0.1389186     0.2468198   -0.8409925     0.2665172   -0.8268737    -0.4731736   -0.1488383 
   5.282841328    -0.4801829   -0.1402799     0.2427733   -0.8382751     0.2636381   -0.8253810    -0.4756911   -0.1582331 
   5.290405904    -0.4784324   -0.1428713     0.2399209   -0.8369011     0.2620660   -0.8240681    -0.4791893   -0.1702010 
   5.297970480    -0.4759232   -0.1458349     0.2392657   -0.8360321     0.2603769   -0.8234490    -0.4823986   -0.1827523 
   5.305535055    -0.4753062   -0.1475535     0.2369793   -0.8371074     0.2587304   -0.8243839    -0.4850401   -0.1974782 
   5.313099631    -0.4758300   -0.1493155     0.2371739   -0.8412092     0.2566741   -0.8273203    -0.4866387   -0.2115562 
   5.320664207    -0.4755842   -0.1510275     0.2357046   -0.8458605     0.2537027   -0.8314708    -0.4883126   -0.2268468 
   5.328228782    -0.4777138   -0.1533051     0.2325228   -0.8545245     0.2489963   -0.8361305    -0.4882870   -0.2422055 
   5.335793358    -0.4786952   -0.1568739     0.2261259   -0.8620183     0.2429016   -0.8406706    -0.4891272   -0.2557717 
   5.343357934    -0.4825313   -0.1601321     0.2165368   -0.8676662     0.2356453   -0.8439987    -0.4882396   -0.2661588 
   5.350922509    -0.4867883   -0.1638879     0.2031510   -0.8722440     0.2262909   -0.8464611    -0.4868652   -0.2723644 
   5.358487085    -0.4920591   -0.1678143     0.1887024   -0.8723952     0.2157790   -0.8494108    -0.4867714   -0.2774083 
   5.366051661    -0.4984177   -0.1726519     0.1750048   -0.8701479     0.2054032   -0.8518300    -0.4872410   -0.2798030 
   5.373616236    -0.5060120   -0.1767644     0.1650633   -0.8665741     0.1941589   -0.8529607    -0.4913193   -0.2820399 
   5.381180812    -0.5137913   -0.1806224     0.1550514   -0.8600491     0.1852656   -0.8531758    -0.4958613   -0.2803119 
   5.388745387    -0.5229969   -0.1840667     0.1479817   -0.8530329     0.1759480   -0.8525737    -0.5027379   -0.2765283 
   5.396309963    -0.5322086   -0.1893074     0.1410475   -0.8454251     0.1684457   -0.8513061    -0.5098900   -0.2702338 
   5.403874539    -0.5427421   -0.1922566     0.1367255   -0.8368110     0.1593263   -0.8493079    -0.5172389   -0.2628399 
   5.411439114    -0.5557253   -0.1955299     0.1325374   -0.8288151     0.1498068   -0.8474394    -0.5244410   -0.2554988 
   5.419003690    -0.5689299   -0.1961391     0.1313276   -0.8211127     0.1405828   -0.8442585    -0.5306287   -0.2490420 
   5.426568266    -0.5828609   -0.1935400     0.1311826   -0.8166466     0.1321495   -0.8397583    -0.5366765   -0.2460323 
   5.434132841    -0.5943548   -0.1886292     0.1311792   -0.8123720     0.1260693   -0.8345642    -0.5430111   -0.2439983 
   5.441697417    -0.6036804   -0.1822649     0.1310149   -0.8100287     0.1231426   -0.8297195    -0.5502169   -0.2458945 
   5.449261993    -0.6111231   -0.1750723     0.1291284   -0.8067267     0.1215275   -0.8247007    -0.5577363   -0.2485644 
   5.456826568    -0.6164644   -0.1668030     0.1257498   -0.8030055     0.1190087   -0.8217100    -0.5660194   -0.2505276 
   5.464391144    -0.6199328   -0.1594255     0.1213965   -0.7981391     0.1150064   -0.8185485    -0.5738534   -0.2526931 
   5.471955720    -0.6219769   -0.1528647     0.1183337   -0.7938315     0.1111525   -0.8160178    -0.5814513   -0.2539434 
   5.479520295    -0.6223668   -0.1492605     0.1172152   -0.7874976     0.1087183   -0.8114848    -0.5867544   -0.2552992 
   5.487084871    -0.6230051   -0.1460966     0.1165369   -0.7817216     0.1075826   -0.8059915    -0.5906007   -0.2545891 
   5.494649446    -0.6249524   -0.1437548     0.1173416   -0.7763672     0.1083428   -0.7993720    -0.5939713   -0.2529441 
   5.502214022    -0.6281416   -0.1430051     0.1183003   -0.7695036     0.1097902   -0.7931338    -0.5981247   -0.2484139 
   5.509778598    -0.6329927   -0.1418164     0.1194390   -0.7640832     0.1122111   -0.7878235    -0.6031376   -0.2406799 
   5.517343173    -0.6390971   -0.1409187     0.1204672   -0.7587534     0.1141848   -0.7821231    -0.6075792   -0.2304294 
   5.524907749    -0.6452221   -0.1377358     0.1210250   -0.7537225     0.1167286   -0.7768911    -0.6124440   -0.2167053 
   5.532472325    -0.6514428   -0.1344780     0.1222078   -0.7484162     0.1192306   -0.7719678    -0.6167460   -0.2027837 
   5.540036900    -0.6577075   -0.1293543     0.1242480   -0.7433252     0.1222932   -0.7658991    -0.6208948   -0.1878040 
   5.547601476    -0.6621424   -0.1241361     0.1269660   -0.7366834     0.1258292   -0.7604247    -0.6254665   -0.1732723 
   5.555166052    -0.6681953   -0.1177946     0.1318187   -0.7307253     0.1294291   -0.7541426    -0.6283143   -0.1587834 
   5.562730627    -0.6684129   -0.1093101     0.1360175   -0.7241781     0.1334801   -0.7474630    -0.6321617   -0.1449294 
   5.570295203    -0.6716675   -0.1030999     0.1421393   -0.7185900     0.1370453   -0.7411675    -0.6362820   -0.1323973 
   5.577859779    -0.6721951   -0.0934748     0.1493853   -0.7145916     0.1406515   -0.7355477    -0.6406012   -0.1215885 
   5.585424354    -0.6712751   -0.0844639     0.1570983   -0.7125340     0.1444531   -0.7308049    -0.6448714   -0.1124794 
   5.592988930    -0.6695092   -0.0749978     0.1652913   -0.7117155     0.1489445   -0.7267221    -0.6476201   -0.1043168 
   5.600553506    -0.6670179   -0.0659872     0.1743187   -0.7110612     0.1537711   -0.7228540    -0.6498858   -0.0991368 
   5.608118081    -0.6638888   -0.0576313     0.1824759   -0.7128652     0.1592962   -0.7188460    -0.6505157   -0.0937700 
   5.615682657    -0.6607254   -0.0492035     0.1898389   -0.7156753     0.1643948   -0.7159867    -0.6509645   -0.0903199 
   5.623247232    -0.6565124   -0.0405624     0.1964459   -0.7190642     0.1690365   -0.7138802    -0.6489353   -0.0865521 
   5.630811808    -0.6519657   -0.0327640     0.2016621   -0.7242123     0.1736364   -0.7132065    -0.6465438   -0.0834370 
   5.638376384    -0.6474455   -0.0251760     0.2057000   -0.7304451     0.1776701   -0.7146147    -0.6441066   -0.0800185 
   5.645940959    -0.6433949   -0.0193298     0.2091677   -0.7365851     0.1818654   -0.7170613    -0.6410459   -0.0775159 
   5.653505535    -0.6396106   -0.0134022     0.2120438   -0.7420631     0.1852221   -0.7205557    -0.6385560   -0.0730144 
   5.661070111    -0.6364104   -0.0099704     0.2136394   -0.7467952     0.1884801   -0.7242360    -0.6360783   -0.0686649 
   5.668634686    -0.6331596   -0.0068953     0.2157113   -0.7503042     0.1914184   -0.7269160    -0.6321306   -0.0641254 
   5.676199262    -0.6302195   -0.0043701     0.2159347   -0.7541295     0.1936756   -0.7292935    -0.6283165   -0.0598524 
   5.683763838    -0.6277325   -0.0010443     0.2167608   -0.7578141     0.1949329   -0.7321967    -0.6245400   -0.0549580 
   5.691328413    -0.6244876    0.0032775     0.2181874   -0.7614472     0.1971699   -0.7361195    -0.6199635   -0.0506705 
   5.698892989    -0.6221510    0.0062462     0.2211058   -0.7653719     0.1989616   -0.7405609    -0.6150993   -0.0485418 
   5.706457565    -0.6189052    0.0101736     0.2225266   -0.7696735     0.2031527   -0.7462781    -0.6088646   -0.0459550 
   5.714022140    -0.6142090    0.0149383     0.2273246   -0.7722757     0.2063247   -0.7512153    -0.6023849   -0.0445295 
   5.721586716    -0.6095003    0.0201860     0.2291209   -0.7760156     0.2106476   -0.7564411    -0.5961615   -0.0435824 
   5.729151292    -0.6020613    0.0255272     0.2314208   -0.7798615     0.2145465   -0.7611517    -0.5882987   -0.0438489 
   5.736715867    -0.5950055    0.0319458     0.2337112   -0.7856832     0.2177560   -0.7670338    -0.5799354   -0.0432197 
   5.744280443    -0.5858469    0.0376292     0.2371538   -0.7927321     0.2217415   -0.7748435    -0.5696865   -0.0435900 
   5.751845018    -0.5759659    0.0430475     0.2395399   -0.8002306     0.2252334   -0.7834641    -0.5600711   -0.0429881 
   5.759409594    -0.5646886    0.0468504     0.2422730   -0.8092577     0.2294360   -0.7929926    -0.5492766   -0.0427456 
   5.766974170    -0.5521053    0.0497936     0.2446811   -0.8178136     0.2329596   -0.8027751    -0.5371570   -0.0429128 
   5.774538745    -0.5397186    0.0514987     0.2429361   -0.8274285     0.2347067   -0.8129967    -0.5251403   -0.0411336 
   5.782103321    -0.5275952    0.0522529     0.2401205   -0.8373830     0.2324784   -0.8231571    -0.5144123   -0.0379666 
   5.789667897    -0.5151763    0.0504129     0.2348549   -0.8469633     0.2293564   -0.8315642    -0.5027812   -0.0352443 
   5.797232472    -0.5033355    0.0487878     0.2278224   -0.8571165     0.2240825   -0.8396564    -0.4914549   -0.0306860 
   5.804797048    -0.4930488    0.0437368     0.2207541   -0.8645154     0.2196347   -0.8458522    -0.4822669   -0.0282995 
   5.812361624    -0.4817563    0.0399679     0.2142203   -0.8705724     0.2156665   -0.8506392    -0.4731575   -0.0259031 
   5.819926199    -0.4723320    0.0344047     0.2069439   -0.8734820     0.2131981   -0.8535297    -0.4643244   -0.0216357 
   5.827490775    -0.4627655    0.0290016     0.2001670   -0.8765456     0.2106787   -0.8548833    -0.4591017   -0.0202427 
   5.835055351    -0.4533474    0.0226482     0.1930265   -0.8762023     0.2079094   -0.8563995    -0.4538080   -0.0186265 
   5.842619926    -0.4457516    0.0154114     0.1872571   -0.8775979     0.2081505   -0.8577627    -0.4510593   -0.0193268 
   5.850184502    -0.4403726    0.0078909     0.1819195   -0.8784884     0.2051555   -0.8618265    -0.4496844   -0.0218659 
   5.857749077    -0.4363724    0.0007409     0.1793502   -0.8814905     0.2050302   -0.8662292    -0.4487024   -0.0262689 
   5.865313653    -0.4334595   -0.0050035     0.1765047   -0.8849564     0.2036422   -0.8712956    -0.4463625   -0.0333307 
   5.872878229    -0.4309150   -0.0097478     0.1742733   -0.8888342     0.2021795   -0.8762898    -0.4431332   -0.0440516 
   5.880442804    -0.4285775   -0.0117458     0.1703234   -0.8935108     0.1987809   -0.8815306    -0.4405491   -0.0568928 
   5.888007380    -0.4252311   -0.0137348     0.1633095   -0.8983850     0.1943546   -0.8870207    -0.4377047   -0.0729894 
   5.895571956    -0.4216901   -0.0155582     0.1577788   -0.9039972     0.1883772   -0.8919199    -0.4363184   -0.0895632 
   5.903136531    -0.4180712   -0.0182017     0.1495493   -0.9090890     0.1807722   -0.8983598    -0.4363508   -0.1070953 
   5.910701107    -0.4145706   -0.0215548     0.1411059   -0.9132580     0.1716536   -0.9035934    -0.4356939   -0.1249418 
   5.918265683    -0.4117176   -0.0266065     0.1334685   -0.9154311     0.1623239   -0.9083604    -0.4350992   -0.1423208 
   5.925830258    -0.4099853   -0.0322410     0.1241884   -0.9174680     0.1528118   -0.9115431    -0.4351539   -0.1568409 
   5.933394834    -0.4090859   -0.0402203     0.1153793   -0.9181027     0.1428687   -0.9133054    -0.4361097   -0.1676164 
   5.940959410    -0.4098589   -0.0491774     0.1050306   -0.9172361     0.1320748   -0.9139474    -0.4375423   -0.1747904 
   5.948523985    -0.4126611   -0.0596559     0.0967592   -0.9159993     0.1221457   -0.9137447    -0.4379252   -0.1809047 
   5.956088561    -0.4176660   -0.0701135     0.0864886   -0.9142477     0.1128583   -0.9136955    -0.4389331   -0.1844859 
   5.963653137    -0.4250884   -0.0810049     0.0804087   -0.9112065     0.1004709   -0.9142365    -0.4407951   -0.1850369 
   5.971217712    -0.4346468   -0.0901084     0.0725957   -0.9082677     0.0886743   -0.9131085    -0.4432308   -0.1829943 
   5.978782288    -0.4461903   -0.0982517     0.0658009   -0.9045987     0.0793222   -0.9105474    -0.4450576   -0.1812776 
   5.986346863    -0.4582161   -0.1048797     0.0591848   -0.8996360     0.0712756   -0.9071561    -0.4475942   -0.1799113 
   5.993911439    -0.4706994   -0.1089904     0.0541207   -0.8955906     0.0642488   -0.9032247    -0.4514242   -0.1796186 
   6.001476015    -0.4826409   -0.1115169     0.0476113   -0.8910193     0.0583176   -0.8995979    -0.4560783   -0.1803222 
   6.009040590    -0.4942551   -0.1122419     0.0418081   -0.8870460     0.0520260   -0.8976817    -0.4619302   -0.1829891 
   6.016605166    -0.5046087   -0.1122777     0.0377052   -0.8829353     0.0459282   -0.8967760    -0.4703004   -0.1865598 
   6.024169742    -0.5135513   -0.1106259     0.0335679   -0.8775107     0.0395679   -0.8971133    -0.4785734   -0.1901425 
   6.031734317    -0.5211526   -0.1091210     0.0305212   -0.8734166     0.0339430   -0.8968700    -0.4874566   -0.1934369 
   6.039298893    -0.5273240   -0.1076226     0.0275562   -0.8683104     0.0275951   -0.8948497    -0.4971880   -0.1965518 
   6.046863469    -0.5326065   -0.1068714     0.0256510   -0.8636283     0.0218664   -0.8914020    -0.5059862   -0.2005765 
   6.054428044    -0.5378956   -0.1067363     0.0218594   -0.8588809     0.0151541   -0.8873444    -0.5152718   -0.2054530 
   6.061992620    -0.5423576   -0.1061547     0.0178396   -0.8556185     0.0096220   -0.8823034    -0.5229573   -0.2086686 
   6.069557196    -0.5471208   -0.1059319     0.0147458   -0.8527325     0.0048752   -0.8784601    -0.5290207   -0.2093456 
   6.077121771    -0.5524646   -0.1068695     0.0110103   -0.8485718     0.0008904   -0.8731743    -0.5343666   -0.2098026 
   6.084686347    -0.5577411   -0.1067289     0.0085697   -0.8446689    -0.0018501   -0.8687006    -0.5396975   -0.2074993 
   6.092250923    -0.5639451   -0.1064796     0.0053433   -0.8388721    -0.0035783   -0.8624311    -0.5440797   -0.2033738 
   6.099815498    -0.5713095   -0.1050526     0.0027182   -0.8324488    -0.0049933   -0.8559507    -0.5496310   -0.1963680 
   6.107380074    -0.5790335   -0.1030242     0.0005550   -0.8254790    -0.0062219   -0.8485228    -0.5548528   -0.1882533 
   6.114944649    -0.5876166   -0.0999180    -0.0013364   -0.8187413    -0.0067958   -0.8410814    -0.5605529   -0.1779903 
   6.122509225    -0.5964425   -0.0963607    -0.0010477   -0.8113772    -0.0061862   -0.8340155    -0.5666155   -0.1668825 
   6.130073801    -0.6042688   -0.0903369     0.0001323   -0.8043560    -0.0053632   -0.8264833    -0.5725827   -0.1549865 
