! MS46122B
! 1919307/90821646
! 5/18/2022 2:11:22 PM
! C:\USERS\PC_\DESKTOP\CARACTERIZACION\MEDICIONES\S11_S21_ABS3_1002CL.S2P
! CHANNEL.1
! TR.MEASUREMENT
! CORRECTED.DATA
# GHZ S RI R 50.0
! FREQ.GHZ         S11RE         S11IM         S21RE         S21IM         S12RE         S12IM         S22RE         S22IM         
!; PortSelection: Port_12
   4.950000000    -0.6020374   -0.2052069     0.2757448   -0.7213290     0.3025398   -0.7394673    -0.5855709   -0.2642302 
   4.957564576    -0.6037897   -0.2040257     0.2735256   -0.7187896     0.2997940   -0.7378358    -0.5882383   -0.2568593 
   4.965129151    -0.6074398   -0.2066039     0.2732319   -0.7153630     0.2977521   -0.7346755    -0.5917262   -0.2478016 
   4.972693727    -0.6120539   -0.2103512     0.2722797   -0.7118024     0.2959883   -0.7318082    -0.5964023   -0.2367399 
   4.980258303    -0.6163995   -0.2125306     0.2730264   -0.7069548     0.2942061   -0.7280267    -0.6011038   -0.2254233 
   4.987822878    -0.6196917   -0.2135923     0.2741057   -0.7023029     0.2920549   -0.7245098    -0.6051069   -0.2143087 
   4.995387454    -0.6227873   -0.2131308     0.2771925   -0.6991407     0.2906564   -0.7216953    -0.6104493   -0.2048540 
   5.002952030    -0.6240852   -0.2112971     0.2813644   -0.6966169     0.2897570   -0.7193394    -0.6139023   -0.1976598 
   5.010516605    -0.6233656   -0.2078458     0.2869181   -0.6960963     0.2894450   -0.7173232    -0.6172176   -0.1913900 
   5.018081181    -0.6212587   -0.2035199     0.2909248   -0.6959695     0.2882985   -0.7149412    -0.6187096   -0.1851926 
   5.025645756    -0.6177242   -0.1989110     0.2946824   -0.6972643     0.2869934   -0.7134116    -0.6195909   -0.1807485 
   5.033210332    -0.6124586   -0.1922571     0.2980277   -0.6991099     0.2848332   -0.7113001    -0.6202316   -0.1774749 
   5.040774908    -0.6076659   -0.1855341     0.2991456   -0.7025502     0.2832079   -0.7104028    -0.6203018   -0.1746517 
   5.048339483    -0.6034753   -0.1803777     0.3009212   -0.7051162     0.2814928   -0.7091716    -0.6200987   -0.1727440 
   5.055904059    -0.6001140   -0.1746171     0.3018084   -0.7083524     0.2805473   -0.7083038    -0.6190534   -0.1717835 
   5.063468635    -0.5968753   -0.1696598     0.3039025   -0.7114414     0.2801327   -0.7077434    -0.6175280   -0.1711234 
   5.071033210    -0.5946091   -0.1650887     0.3054113   -0.7151681     0.2804250   -0.7079291    -0.6158785   -0.1707161 
   5.078597786    -0.5927522   -0.1614260     0.3065779   -0.7172054     0.2811486   -0.7088152    -0.6137210   -0.1700680 
   5.086162362    -0.5908724   -0.1588826     0.3055468   -0.7201595     0.2806427   -0.7102938    -0.6123603   -0.1681662 
   5.093726937    -0.5892265   -0.1583028     0.3052511   -0.7235656     0.2803463   -0.7120360    -0.6105715   -0.1672414 
   5.101291513    -0.5885365   -0.1588967     0.3045044   -0.7254748     0.2801968   -0.7141349    -0.6080145   -0.1661730 
   5.108856089    -0.5878983   -0.1613150     0.3043801   -0.7284715     0.2814551   -0.7167233    -0.6049342   -0.1643765 
   5.116420664    -0.5875474   -0.1637129     0.3058438   -0.7299583     0.2826993   -0.7191589    -0.6018798   -0.1620784 
   5.123985240    -0.5862679   -0.1652745     0.3077478   -0.7322671     0.2847708   -0.7207881    -0.5968658   -0.1587046 
   5.131549815    -0.5841799   -0.1670340     0.3089546   -0.7335615     0.2865889   -0.7237039    -0.5915265   -0.1558448 
   5.139114391    -0.5815530   -0.1665408     0.3108947   -0.7359190     0.2882915   -0.7273266    -0.5863664   -0.1530903 
   5.146678967    -0.5781764   -0.1649902     0.3115764   -0.7392926     0.2898867   -0.7319798    -0.5805550   -0.1501384 
   5.154243542    -0.5731888   -0.1606635     0.3132606   -0.7428469     0.2911779   -0.7354958    -0.5735963   -0.1490017 
   5.161808118    -0.5682783   -0.1569736     0.3161442   -0.7473918     0.2930384   -0.7391060    -0.5664909   -0.1474096 
   5.169372694    -0.5616892   -0.1531208     0.3175502   -0.7521417     0.2959436   -0.7410131    -0.5591962   -0.1446347 
   5.176937269    -0.5537229   -0.1486429     0.3188467   -0.7576581     0.2993621   -0.7419684    -0.5534564   -0.1417770 
   5.184501845    -0.5454349   -0.1433308     0.3201567   -0.7630970     0.3037381   -0.7425147    -0.5473126   -0.1391942 
   5.192066421    -0.5355747   -0.1406628     0.3206820   -0.7694442     0.3091017   -0.7441566    -0.5441647   -0.1374286 
   5.199630996    -0.5272240   -0.1393807     0.3199376   -0.7751240     0.3150090   -0.7497886    -0.5413674   -0.1367519 
   5.207195572    -0.5193278   -0.1405569     0.3180362   -0.7826851     0.3203004   -0.7571583    -0.5400645   -0.1350718 
   5.214760148    -0.5142508   -0.1450789     0.3159762   -0.7916124     0.3235060   -0.7676621    -0.5371253   -0.1328035 
   5.222324723    -0.5101836   -0.1517938     0.3113552   -0.7998676     0.3239868   -0.7774910    -0.5339102   -0.1308086 
   5.229889299    -0.5079913   -0.1588904     0.3051192   -0.8087144     0.3213925   -0.7865717    -0.5301864   -0.1298859 
   5.237453875    -0.5071937   -0.1669987     0.2968761   -0.8136649     0.3154331   -0.7925977    -0.5251902   -0.1313650 
   5.245018450    -0.5083222   -0.1733889     0.2867521   -0.8187419     0.3090107   -0.7980989    -0.5208748   -0.1327601 
   5.252583026    -0.5109077   -0.1791563     0.2767229   -0.8204389     0.3024350   -0.8017623    -0.5205089   -0.1363062 
   5.260147601    -0.5104308   -0.1823998     0.2684357   -0.8219516     0.2956753   -0.8036670    -0.5196918   -0.1408836 
   5.267712177    -0.5116136   -0.1845493     0.2613086   -0.8206242     0.2907408   -0.8048015    -0.5196420   -0.1463127 
   5.275276753    -0.5089990   -0.1866395     0.2551349   -0.8201086     0.2853889   -0.8040670    -0.5196248   -0.1529225 
   5.282841328    -0.5070153   -0.1888152     0.2508085   -0.8171722     0.2813723   -0.8022744    -0.5212528   -0.1612592 
   5.290405904    -0.5049359   -0.1930016     0.2480105   -0.8154166     0.2791177   -0.8003302    -0.5250744   -0.1712231 
   5.297970480    -0.5030236   -0.1963133     0.2469409   -0.8136783     0.2770853   -0.7986563    -0.5287096   -0.1806645 
   5.305535055    -0.5028772   -0.1989922     0.2449995   -0.8140635     0.2753920   -0.7987530    -0.5336571   -0.1921038 
   5.313099631    -0.5044961   -0.2018039     0.2452311   -0.8174576     0.2739290   -0.8010140    -0.5382688   -0.2028740 
   5.320664207    -0.5065413   -0.2043650     0.2444145   -0.8214977     0.2707651   -0.8042760    -0.5438886   -0.2152609 
   5.328228782    -0.5111228   -0.2071666     0.2423255   -0.8293709     0.2671009   -0.8087566    -0.5486145   -0.2289754 
   5.335793358    -0.5151965   -0.2109103     0.2362652   -0.8362582     0.2609562   -0.8126146    -0.5531448   -0.2421391 
   5.343357934    -0.5219801   -0.2139833     0.2276045   -0.8415360     0.2545417   -0.8156384    -0.5559368   -0.2534238 
   5.350922509    -0.5292946   -0.2172985     0.2145893   -0.8461230     0.2465114   -0.8180860    -0.5564579   -0.2620504 
   5.358487085    -0.5373608   -0.2196121     0.2017557   -0.8461593     0.2354760   -0.8211557    -0.5574322   -0.2705694 
   5.366051661    -0.5454847   -0.2230362     0.1882743   -0.8443765     0.2258013   -0.8239647    -0.5582478   -0.2770933 
   5.373616236    -0.5541531   -0.2258519     0.1783708   -0.8409439     0.2144728   -0.8251668    -0.5592000   -0.2829872 
   5.381180812    -0.5624372   -0.2284544     0.1685230   -0.8345565     0.2057783   -0.8252239    -0.5616591   -0.2863380 
   5.388745387    -0.5714211   -0.2303512     0.1614103   -0.8273353     0.1965253   -0.8242560    -0.5642100   -0.2854573 
   5.396309963    -0.5795475   -0.2344762     0.1545636   -0.8194693     0.1894784   -0.8221353    -0.5681118   -0.2831514 
   5.403874539    -0.5884316   -0.2360959     0.1506845   -0.8102911     0.1807487   -0.8195801    -0.5716974   -0.2760246 
   5.411439114    -0.5992329   -0.2390316     0.1471795   -0.8016126     0.1724062   -0.8170022    -0.5761350   -0.2684312 
   5.419003690    -0.6106635   -0.2393290     0.1461119   -0.7935702     0.1645048   -0.8140596    -0.5799930   -0.2607774 
   5.426568266    -0.6220379   -0.2376807     0.1470931   -0.7885029     0.1573611   -0.8101671    -0.5844406   -0.2547218 
   5.434132841    -0.6324236   -0.2330881     0.1482256   -0.7844261     0.1527226   -0.8053609    -0.5890754   -0.2493277 
   5.441697417    -0.6409609   -0.2276564     0.1491402   -0.7821965     0.1501731   -0.8015336    -0.5956482   -0.2476010 
   5.449261993    -0.6479746   -0.2210780     0.1477436   -0.7795708     0.1488087   -0.7974727    -0.6033707   -0.2469697 
   5.456826568    -0.6532283   -0.2138250     0.1449137   -0.7767860     0.1471145   -0.7949851    -0.6119242   -0.2470181 
   5.464391144    -0.6564089   -0.2069634     0.1408874   -0.7730420     0.1434888   -0.7929283    -0.6208398   -0.2478356 
   5.471955720    -0.6581774   -0.2009785     0.1370821   -0.7688736     0.1395150   -0.7911391    -0.6288539   -0.2490488 
   5.479520295    -0.6578521   -0.1973514     0.1352922   -0.7629483     0.1364344   -0.7870190    -0.6347706   -0.2520870 
   5.487084871    -0.6576954   -0.1938560     0.1346853   -0.7576239     0.1346619   -0.7816252    -0.6384992   -0.2534190 
   5.494649446    -0.6584691   -0.1916618     0.1346376   -0.7513510     0.1352660   -0.7748164    -0.6409152   -0.2545998 
   5.502214022    -0.6611332   -0.1900420     0.1360998   -0.7436022     0.1367519   -0.7676850    -0.6431834   -0.2535178 
   5.509778598    -0.6643849   -0.1881621     0.1369296   -0.7377057     0.1396144   -0.7610701    -0.6455511   -0.2492983 
   5.517343173    -0.6686317   -0.1860506     0.1383797   -0.7317472     0.1424492   -0.7545857    -0.6470525   -0.2419235 
   5.524907749    -0.6734139   -0.1826959     0.1391777   -0.7264621     0.1464064   -0.7483468    -0.6488087   -0.2309102 
   5.532472325    -0.6775252   -0.1779253     0.1425752   -0.7205706     0.1489107   -0.7433719    -0.6500086   -0.2187226 
   5.540036900    -0.6824206   -0.1733616     0.1451970   -0.7158119     0.1535732   -0.7372656    -0.6520122   -0.2046038 
   5.547601476    -0.6852078   -0.1678318     0.1486608   -0.7095160     0.1584996   -0.7319654    -0.6536956   -0.1897755 
   5.555166052    -0.6901447   -0.1623115     0.1543092   -0.7044033     0.1626024   -0.7265227    -0.6551660   -0.1744645 
   5.562730627    -0.6894233   -0.1549260     0.1594486   -0.6989315     0.1677319   -0.7209869    -0.6573406   -0.1590129 
   5.570295203    -0.6918358   -0.1505780     0.1651603   -0.6943944     0.1723897   -0.7155621    -0.6603855   -0.1448597 
   5.577859779    -0.6914177   -0.1422844     0.1727364   -0.6913822     0.1744107   -0.7116646    -0.6642862   -0.1317636 
   5.585424354    -0.6894580   -0.1359862     0.1800337   -0.6903301     0.1785426   -0.7077503    -0.6681260   -0.1211532 
   5.592988930    -0.6860169   -0.1282095     0.1877803   -0.6901795     0.1821011   -0.7048193    -0.6708907   -0.1113068 
   5.600553506    -0.6813844   -0.1208766     0.1966632   -0.6904933     0.1862623   -0.7014361    -0.6732231   -0.1046628 
   5.608118081    -0.6768010   -0.1132135     0.2038518   -0.6923779     0.1901242   -0.6979330    -0.6741806   -0.0977028 
   5.615682657    -0.6718745   -0.1056347     0.2105651   -0.6944363     0.1942847   -0.6949158    -0.6752809   -0.0931722 
   5.623247232    -0.6662720   -0.0971129     0.2166498   -0.6976520     0.1969275   -0.6929497    -0.6733380   -0.0884221 
   5.630811808    -0.6606383   -0.0897430     0.2207803   -0.7027107     0.2029371   -0.6911139    -0.6704842   -0.0845030 
   5.638376384    -0.6554098   -0.0818039     0.2255564   -0.7079493     0.2058538   -0.6920416    -0.6688306   -0.0806690 
   5.645940959    -0.6512014   -0.0745589     0.2294054   -0.7134299     0.2100007   -0.6937814    -0.6662696   -0.0775376 
   5.653505535    -0.6475169   -0.0680928     0.2327622   -0.7186204     0.2140845   -0.6969118    -0.6636451   -0.0730606 
   5.661070111    -0.6448695   -0.0631846     0.2350046   -0.7231639     0.2180527   -0.7000076    -0.6616160   -0.0690076 
   5.668634686    -0.6420389   -0.0597005     0.2373863   -0.7270596     0.2223063   -0.7030901    -0.6588570   -0.0651811 
   5.676199262    -0.6399795   -0.0566323     0.2390950   -0.7306590     0.2244955   -0.7057701    -0.6559436   -0.0606311 
   5.683763838    -0.6381704   -0.0533130     0.2401274   -0.7354447     0.2269269   -0.7099359    -0.6529571   -0.0561539 
   5.691328413    -0.6355799   -0.0500350     0.2420765   -0.7403072     0.2294759   -0.7143281    -0.6488345   -0.0517503 
   5.698892989    -0.6331730   -0.0476640     0.2451458   -0.7451718     0.2315785   -0.7201983    -0.6447158   -0.0497256 
   5.706457565    -0.6301020   -0.0453507     0.2466940   -0.7499551     0.2351241   -0.7269056    -0.6390454   -0.0470908 
   5.714022140    -0.6250892   -0.0420183     0.2505351   -0.7535518     0.2380083   -0.7326351    -0.6325608   -0.0437885 
   5.721586716    -0.6193213   -0.0381169     0.2512869   -0.7581970     0.2427496   -0.7379843    -0.6268764   -0.0411731 
   5.729151292    -0.6111658   -0.0341089     0.2540833   -0.7619702     0.2443501   -0.7434136    -0.6200264   -0.0390676 
   5.736715867    -0.6030655   -0.0291763     0.2550768   -0.7682993     0.2476175   -0.7491887    -0.6126313   -0.0358601 
   5.744280443    -0.5929186   -0.0246821     0.2575233   -0.7752390     0.2510497   -0.7558489    -0.6044555   -0.0328692 
   5.751845018    -0.5827430   -0.0205056     0.2591137   -0.7825952     0.2541837   -0.7638273    -0.5964305   -0.0291898 
   5.759409594    -0.5714455   -0.0170651     0.2616646   -0.7911070     0.2582537   -0.7726780    -0.5885401   -0.0258829 
   5.766974170    -0.5604287   -0.0141487     0.2625219   -0.7996650     0.2621819   -0.7814303    -0.5800861   -0.0221219 
   5.774538745    -0.5501869   -0.0122770     0.2604638   -0.8087869     0.2643358   -0.7907471    -0.5716391   -0.0179515 
   5.782103321    -0.5411673   -0.0112546     0.2569762   -0.8179579     0.2626997   -0.8001509    -0.5642850   -0.0126037 
   5.789667897    -0.5323365   -0.0123942     0.2509667   -0.8275306     0.2593867   -0.8083302    -0.5561848   -0.0085077 
   5.797232472    -0.5247908   -0.0141502     0.2440689   -0.8371668     0.2550454   -0.8159688    -0.5485882   -0.0041068 
   5.804797048    -0.5179504   -0.0182440     0.2365897   -0.8441837     0.2509217   -0.8221404    -0.5415754   -0.0027079 
   5.812361624    -0.5108437   -0.0221495     0.2304198   -0.8499906     0.2470993   -0.8264852    -0.5336286   -0.0022116 
   5.819926199    -0.5036513   -0.0272533     0.2223061   -0.8526425     0.2445971   -0.8286790    -0.5256006   -0.0007921 
   5.827490775    -0.4964976   -0.0331917     0.2148378   -0.8557874     0.2425571   -0.8293828    -0.5210293   -0.0030207 
   5.835055351    -0.4888627   -0.0392930     0.2077180   -0.8553717     0.2389645   -0.8304170    -0.5154994   -0.0043095 
   5.842619926    -0.4821491   -0.0474691     0.2024661   -0.8562070     0.2386913   -0.8309423    -0.5116851   -0.0070769 
   5.850184502    -0.4767431   -0.0551999     0.1962444   -0.8571620     0.2368337   -0.8340809    -0.5091975   -0.0116447 
   5.857749077    -0.4724867   -0.0634890     0.1926495   -0.8597718     0.2373443   -0.8380853    -0.5074996   -0.0167315 
   5.865313653    -0.4697496   -0.0703945     0.1903279   -0.8629084     0.2362469   -0.8427665    -0.5057373   -0.0233237 
   5.872878229    -0.4671775   -0.0756331     0.1869936   -0.8665544     0.2372294   -0.8478986    -0.5018238   -0.0319465 
   5.880442804    -0.4657694   -0.0772895     0.1863513   -0.8705060     0.2287473   -0.8546636    -0.5003350   -0.0411233 
   5.888007380    -0.4645120   -0.0793124     0.1801443   -0.8753037     0.2257878   -0.8596284    -0.4994343   -0.0542459 
   5.895571956    -0.4630450   -0.0804340     0.1721871   -0.8809903     0.2211429   -0.8643671    -0.5003971   -0.0677676 
   5.903136531    -0.4625665   -0.0821808     0.1654570   -0.8861125     0.2134420   -0.8717776    -0.5032007   -0.0825226 
   5.910701107    -0.4623655   -0.0838746     0.1580006   -0.8899974     0.2036805   -0.8773579    -0.5057690   -0.0986140 
   5.918265683    -0.4630372   -0.0880962     0.1500838   -0.8922712     0.1930936   -0.8823545    -0.5079491   -0.1156121 
   5.925830258    -0.4650221   -0.0926197     0.1396904   -0.8937137     0.1850023   -0.8852100    -0.5116540   -0.1313911 
   5.933394834    -0.4668641   -0.0993829     0.1344285   -0.8923520     0.1690095   -0.8873882    -0.5138151   -0.1450296 
   5.940959410    -0.4703796   -0.1068967     0.1225497   -0.8915777     0.1606281   -0.8866698    -0.5155416   -0.1567350 
   5.948523985    -0.4752004   -0.1162570     0.1148889   -0.8894070     0.1497509   -0.8854414    -0.5154296   -0.1670493 
   5.956088561    -0.4810863   -0.1257170     0.1064670   -0.8862054     0.1393465   -0.8848845    -0.5150607   -0.1750465 
   5.963653137    -0.4885657   -0.1354918     0.0999075   -0.8821876     0.1288517   -0.8841434    -0.5136657   -0.1794719 
   5.971217712    -0.4977138   -0.1437698     0.0930600   -0.8784891     0.1182194   -0.8826792    -0.5124600   -0.1808075 
   5.978782288    -0.5077345   -0.1512062     0.0872610   -0.8740720     0.1097842   -0.8802361    -0.5100813   -0.1810265 
   5.986346863    -0.5180116   -0.1566401     0.0821162   -0.8685254     0.1028670   -0.8772172    -0.5081161   -0.1796407 
   5.993911439    -0.5287346   -0.1599371     0.0770412   -0.8642995     0.0983441   -0.8734949    -0.5070893   -0.1788010 
   6.001476015    -0.5391324   -0.1618359     0.0723258   -0.8599461     0.0914161   -0.8710229    -0.5081961   -0.1769626 
   6.009040590    -0.5492178   -0.1615753     0.0680098   -0.8560176     0.0858206   -0.8699058    -0.5102535   -0.1770573 
   6.016605166    -0.5587314   -0.1614872     0.0642750   -0.8524859     0.0803242   -0.8701493    -0.5165095   -0.1773732 
   6.024169742    -0.5671255   -0.1591665     0.0604662   -0.8477054     0.0742263   -0.8710896    -0.5239795   -0.1773078 
   6.031734317    -0.5748641   -0.1580166     0.0580314   -0.8438962     0.0686399   -0.8713272    -0.5326562   -0.1781507 
   6.039298893    -0.5807803   -0.1566319     0.0548370   -0.8395678     0.0617736   -0.8697883    -0.5437927   -0.1793635 
   6.046863469    -0.5865304   -0.1568605     0.0514772   -0.8350816     0.0571565   -0.8667204    -0.5533856   -0.1830770 
   6.054428044    -0.5915583   -0.1560619     0.0500108   -0.8310757     0.0469752   -0.8626615    -0.5650019   -0.1877232 
   6.061992620    -0.5960080   -0.1570983     0.0444688   -0.8268701     0.0434144   -0.8569134    -0.5739055   -0.1929482 
   6.069557196    -0.6005324   -0.1578415     0.0409577   -0.8235336     0.0389529   -0.8524068    -0.5797901   -0.1968234 
   6.077121771    -0.6047336   -0.1592883     0.0373684   -0.8183549     0.0350622   -0.8461092    -0.5835001   -0.2004213 
   6.084686347    -0.6091333   -0.1592103     0.0347388   -0.8128139     0.0330427   -0.8398620    -0.5845132   -0.2025322 
   6.092250923    -0.6139141   -0.1578656     0.0333869   -0.8056960     0.0335797   -0.8320873    -0.5844998   -0.2061282 
   6.099815498    -0.6185193   -0.1556865     0.0318307   -0.7995390     0.0330093   -0.8257862    -0.5865403   -0.2038320 
   6.107380074    -0.6246861   -0.1537567     0.0300935   -0.7907823     0.0318420   -0.8160546    -0.5832171   -0.2005541 
   6.114944649    -0.6336828   -0.1486861     0.0333293   -0.7808926     0.0367395   -0.8058970    -0.5835174   -0.2029698 
   6.122509225    -0.6400294   -0.1416921     0.0382696   -0.7775080     0.0421906   -0.8029109    -0.5947283   -0.1965196 
   6.130073801    -0.6448401   -0.1342459     0.0402228   -0.7742538     0.0432195   -0.7992998    -0.6024311   -0.1819109 
