! MS46122B
! 1919307/90821646
! 7/29/2022 1:52:32 PM
! C:\USERS\PC_\DESKTOP\MEDICIONES\BANCHA ESTRECHA\6_65_GHZ\S11_S21_ABS12_1002CL.S2P
! CHANNEL.1
! TR.MEASUREMENT
! CORRECTED.DATA
# GHZ S RI R 50.0
! FREQ.GHZ         S11RE         S11IM         S21RE         S21IM         S12RE         S12IM         S22RE         S22IM         
!; PortSelection: Port_12
   6.000000000    -0.4290112    0.3913480    -0.5759377   -0.4736794    -0.5649194   -0.4760530    -0.3835819    0.3849669 
   6.002500000    -0.4259440    0.3912359    -0.5762118   -0.4743275    -0.5651944   -0.4751711    -0.3832904    0.3845979 
   6.005000000    -0.4259590    0.3915139    -0.5765545   -0.4729081    -0.5656922   -0.4737007    -0.3824509    0.3841454 
   6.007500000    -0.4266384    0.3907060    -0.5760489   -0.4722917    -0.5661322   -0.4723442    -0.3817483    0.3843166 
   6.010000000    -0.4275492    0.3896993    -0.5760656   -0.4710654    -0.5663932   -0.4713187    -0.3813620    0.3835509 
   6.012500000    -0.4284985    0.3884826    -0.5760216   -0.4699771    -0.5662036   -0.4698658    -0.3809607    0.3831274 
   6.015000000    -0.4294291    0.3869913    -0.5753885   -0.4690305    -0.5660260   -0.4687310    -0.3804965    0.3823662 
   6.017500000    -0.4301238    0.3862934    -0.5761513   -0.4680298    -0.5660666   -0.4676554    -0.3803020    0.3831188 
   6.020000000    -0.4305069    0.3858250    -0.5760506   -0.4666519    -0.5661607   -0.4660925    -0.3801073    0.3822350 
   6.022500000    -0.4314845    0.3847252    -0.5752960   -0.4654801    -0.5657239   -0.4652557    -0.3791676    0.3822486 
   6.025000000    -0.4325728    0.3842770    -0.5746497   -0.4644715    -0.5654532   -0.4636405    -0.3791645    0.3812488 
   6.027500000    -0.4336812    0.3832852    -0.5742680   -0.4635023    -0.5648017   -0.4625759    -0.3790413    0.3808222 
   6.030000000    -0.4347824    0.3821735    -0.5734582   -0.4627324    -0.5638825   -0.4618209    -0.3790650    0.3808028 
   6.032500000    -0.4356292    0.3818609    -0.5742255   -0.4613390    -0.5635231   -0.4614343    -0.3788433    0.3803512 
   6.035000000    -0.4359030    0.3813854    -0.5738195   -0.4609651    -0.5628800   -0.4604305    -0.3793031    0.3793351 
   6.037500000    -0.4367509    0.3806220    -0.5730790   -0.4600629    -0.5626028   -0.4595267    -0.3792246    0.3789554 
   6.040000000    -0.4378079    0.3804538    -0.5723176   -0.4590473    -0.5617523   -0.4584545    -0.3792231    0.3781571 
   6.042500000    -0.4386663    0.3803081    -0.5712056   -0.4589522    -0.5609367   -0.4577157    -0.3796404    0.3771290 
   6.045000000    -0.4380970    0.3793797    -0.5701747   -0.4584606    -0.5604019   -0.4558069    -0.3808315    0.3762301 
   6.047500000    -0.4389932    0.3792181    -0.5696090   -0.4581361    -0.5598545   -0.4558191    -0.3812573    0.3752422 
   6.050000000    -0.4401537    0.3783188    -0.5696703   -0.4568221    -0.5583433   -0.4559723    -0.3817608    0.3744461 
   6.052500000    -0.4406828    0.3781313    -0.5691928   -0.4563507    -0.5576814   -0.4554841    -0.3827907    0.3734794 
   6.055000000    -0.4405305    0.3781134    -0.5695263   -0.4556842    -0.5572404   -0.4547264    -0.3832358    0.3721628 
   6.057500000    -0.4408560    0.3783213    -0.5687965   -0.4553083    -0.5566018   -0.4545647    -0.3841657    0.3713522 
   6.060000000    -0.4410737    0.3784904    -0.5680292   -0.4551937    -0.5562326   -0.4544464    -0.3851333    0.3711322 
   6.062500000    -0.4411687    0.3783916    -0.5689504   -0.4539054    -0.5553710   -0.4544659    -0.3860240    0.3703187 
   6.065000000    -0.4409986    0.3783134    -0.5681012   -0.4541674    -0.5543798   -0.4548374    -0.3866033    0.3694147 
   6.067500000    -0.4404662    0.3788745    -0.5677822   -0.4546656    -0.5544227   -0.4551779    -0.3866929    0.3687558 
   6.070000000    -0.4400003    0.3793584    -0.5673601   -0.4547302    -0.5543298   -0.4552991    -0.3870855    0.3683254 
   6.072500000    -0.4396147    0.3799036    -0.5671169   -0.4548458    -0.5537012   -0.4550646    -0.3879881    0.3674159 
   6.075000000    -0.4390192    0.3803743    -0.5663716   -0.4547046    -0.5529268   -0.4554826    -0.3886479    0.3667769 
   6.077500000    -0.4389809    0.3806940    -0.5667672   -0.4543638    -0.5526754   -0.4560033    -0.3894570    0.3677431 
   6.080000000    -0.4381702    0.3812428    -0.5664287   -0.4545477    -0.5522267   -0.4565273    -0.3904929    0.3673229 
   6.082500000    -0.4369647    0.3824905    -0.5657824   -0.4549863    -0.5522431   -0.4569629    -0.3901865    0.3673299 
   6.085000000    -0.4360954    0.3828794    -0.5654758   -0.4558102    -0.5516695   -0.4578991    -0.3912121    0.3672296 
   6.087500000    -0.4350930    0.3836320    -0.5653548   -0.4560710    -0.5517159   -0.4582731    -0.3917916    0.3675902 
   6.090000000    -0.4340055    0.3843740    -0.5648266   -0.4563444    -0.5510411   -0.4583229    -0.3925797    0.3675415 
   6.092500000    -0.4330281    0.3851051    -0.5651776   -0.4559897    -0.5505805   -0.4587868    -0.3930351    0.3684128 
   6.095000000    -0.4320469    0.3860434    -0.5648873   -0.4563774    -0.5508358   -0.4593621    -0.3932577    0.3693178 
   6.097500000    -0.4302063    0.3874913    -0.5647742   -0.4565444    -0.5506009   -0.4598829    -0.3939252    0.3701323 
   6.100000000    -0.4289327    0.3884730    -0.5647753   -0.4572196    -0.5504087   -0.4604292    -0.3945742    0.3710580 
   6.102500000    -0.4276654    0.3892117    -0.5646785   -0.4582067    -0.5503626   -0.4610922    -0.3950481    0.3719871 
   6.105000000    -0.4263203    0.3905507    -0.5654879   -0.4584025    -0.5506042   -0.4615709    -0.3952600    0.3731019 
   6.107500000    -0.4249319    0.3918222    -0.5655875   -0.4581206    -0.5506247   -0.4621574    -0.3953069    0.3744447 
   6.110000000    -0.4228452    0.3932875    -0.5646118   -0.4598882    -0.5516230   -0.4614251    -0.3955091    0.3761016 
   6.112500000    -0.4220600    0.3945731    -0.5671163   -0.4587178    -0.5513742   -0.4644507    -0.3953093    0.3784063 
   6.115000000    -0.4209364    0.3955297    -0.5673392   -0.4595488    -0.5520575   -0.4645391    -0.3957851    0.3793433 
   6.117500000    -0.4194451    0.3969026    -0.5665529   -0.4609735    -0.5530009   -0.4645291    -0.3959730    0.3817936 
   6.120000000    -0.4184951    0.3978242    -0.5679094   -0.4610234    -0.5526962   -0.4660393    -0.3959995    0.3830368 
   6.122500000    -0.4169627    0.3994819    -0.5677392   -0.4620254    -0.5531189   -0.4667951    -0.3958453    0.3856147 
   6.125000000    -0.4157819    0.4009264    -0.5683372   -0.4626763    -0.5538123   -0.4678490    -0.3958145    0.3879728 
   6.127500000    -0.4144132    0.4023004    -0.5686419   -0.4634352    -0.5546858   -0.4683428    -0.3964077    0.3903210 
   6.130000000    -0.4136702    0.4036637    -0.5693383   -0.4641074    -0.5551514   -0.4692407    -0.3964820    0.3926417 
   6.132500000    -0.4130563    0.4048361    -0.5700743   -0.4641090    -0.5556661   -0.4696253    -0.3969481    0.3941329 
   6.135000000    -0.4125915    0.4056564    -0.5706252   -0.4648568    -0.5561033   -0.4706206    -0.3966711    0.3959036 
   6.137500000    -0.4116653    0.4070598    -0.5711518   -0.4653529    -0.5560356   -0.4717017    -0.3965031    0.3983517 
   6.140000000    -0.4111019    0.4078824    -0.5714607   -0.4663368    -0.5570937   -0.4719583    -0.3961183    0.4009185 
   6.142500000    -0.4103095    0.4090710    -0.5721203   -0.4665678    -0.5574112   -0.4727623    -0.3965770    0.4028052 
   6.145000000    -0.4098867    0.4097522    -0.5724040   -0.4671147    -0.5581576   -0.4731346    -0.3964193    0.4047924 
   6.147500000    -0.4093414    0.4108447    -0.5736804   -0.4673497    -0.5586262   -0.4737138    -0.3961068    0.4063089 
   6.150000000    -0.4085548    0.4119706    -0.5747114   -0.4680143    -0.5589361   -0.4744272    -0.3960185    0.4073918 
   6.152500000    -0.4082412    0.4130383    -0.5752369   -0.4686022    -0.5598028   -0.4746123    -0.3952974    0.4094529 
   6.155000000    -0.4074443    0.4138264    -0.5761186   -0.4689374    -0.5611326   -0.4755571    -0.3947805    0.4113455 
   6.157500000    -0.4068767    0.4147520    -0.5760678   -0.4686810    -0.5616406   -0.4759240    -0.3948030    0.4128491 
   6.160000000    -0.4064871    0.4156086    -0.5774762   -0.4689001    -0.5627196   -0.4758975    -0.3941017    0.4142144 
   6.162500000    -0.4061349    0.4162725    -0.5779278   -0.4693624    -0.5634788   -0.4769571    -0.3937527    0.4151910 
   6.165000000    -0.4054263    0.4176376    -0.5790522   -0.4700638    -0.5640944   -0.4778996    -0.3934446    0.4168628 
   6.167500000    -0.4051796    0.4183728    -0.5795602   -0.4703479    -0.5646715   -0.4783696    -0.3924086    0.4179998 
   6.170000000    -0.4045690    0.4192964    -0.5801966   -0.4708758    -0.5663326   -0.4793339    -0.3920076    0.4187753 
   6.172500000    -0.4039736    0.4202388    -0.5816553   -0.4715846    -0.5675335   -0.4799344    -0.3911513    0.4202241 
   6.175000000    -0.4034966    0.4212877    -0.5823317   -0.4716543    -0.5683998   -0.4807815    -0.3908009    0.4210863 
   6.177500000    -0.4030580    0.4222741    -0.5833313   -0.4721434    -0.5693052   -0.4816461    -0.3901185    0.4218600 
   6.180000000    -0.4025151    0.4232256    -0.5836102   -0.4729818    -0.5700657   -0.4827066    -0.3894833    0.4227284 
   6.182500000    -0.4013762    0.4246486    -0.5846235   -0.4732529    -0.5709827   -0.4837789    -0.3884450    0.4234283 
   6.185000000    -0.4008718    0.4252741    -0.5848271   -0.4742970    -0.5721165   -0.4846467    -0.3878936    0.4235306 
   6.187500000    -0.4000022    0.4262596    -0.5864966   -0.4740192    -0.5733382   -0.4849116    -0.3869717    0.4237958 
   6.190000000    -0.3993634    0.4269949    -0.5873404   -0.4750072    -0.5742676   -0.4859193    -0.3858806    0.4239704 
   6.192500000    -0.3982351    0.4277490    -0.5873120   -0.4759177    -0.5749342   -0.4872448    -0.3853500    0.4238945 
   6.195000000    -0.3969881    0.4289072    -0.5885944   -0.4763946    -0.5755785   -0.4878929    -0.3834815    0.4246683 
   6.197500000    -0.3952550    0.4295317    -0.5889637   -0.4774702    -0.5762647   -0.4892462    -0.3829000    0.4241966 
   6.200000000    -0.3942166    0.4298709    -0.5896341   -0.4782892    -0.5776123   -0.4903488    -0.3820000    0.4239488 
   6.202500000    -0.3933622    0.4303422    -0.5910680   -0.4792589    -0.5789385   -0.4910205    -0.3807938    0.4237769 
   6.205000000    -0.3918981    0.4307939    -0.5924078   -0.4794730    -0.5797689   -0.4921327    -0.3796785    0.4236159 
   6.207500000    -0.3893682    0.4317499    -0.5934500   -0.4812229    -0.5812172   -0.4933953    -0.3780934    0.4240752 
   6.210000000    -0.3869586    0.4330230    -0.5942228   -0.4820020    -0.5828082   -0.4946113    -0.3763930    0.4244743 
   6.212500000    -0.3850466    0.4344750    -0.5955339   -0.4830641    -0.5838764   -0.4955809    -0.3751452    0.4247675 
   6.215000000    -0.3849791    0.4351381    -0.5965839   -0.4847754    -0.5857629   -0.4967571    -0.3741374    0.4247104 
   6.217500000    -0.3837205    0.4361524    -0.5984864   -0.4856899    -0.5873300   -0.4981464    -0.3727207    0.4250326 
   6.220000000    -0.3801369    0.4371946    -0.5995832   -0.4867831    -0.5890894   -0.4992960    -0.3715058    0.4252285 
   6.222500000    -0.3759484    0.4394801    -0.6014196   -0.4883828    -0.5908099   -0.5005523    -0.3703509    0.4261860 
   6.225000000    -0.3744388    0.4418414    -0.6032952   -0.4905661    -0.5927744   -0.5019388    -0.3686769    0.4271991 
   6.227500000    -0.3731594    0.4417404    -0.6043077   -0.4915835    -0.5945497   -0.5033833    -0.3675178    0.4280515 
   6.230000000    -0.3717629    0.4423592    -0.6059551   -0.4927807    -0.5971769   -0.5049401    -0.3673100    0.4295632 
   6.232500000    -0.3700147    0.4443164    -0.6078200   -0.4940528    -0.5995075   -0.5063337    -0.3658947    0.4303153 
   6.235000000    -0.3678184    0.4465914    -0.6104048   -0.4945090    -0.6020779   -0.5074193    -0.3651287    0.4313641 
   6.237500000    -0.3654312    0.4479772    -0.6124068   -0.4966393    -0.6045552   -0.5085627    -0.3641294    0.4326966 
   6.240000000    -0.3629915    0.4503148    -0.6147471   -0.4978191    -0.6069223   -0.5098472    -0.3621148    0.4350077 
   6.242500000    -0.3609730    0.4515882    -0.6170534   -0.4989963    -0.6100840   -0.5108761    -0.3606614    0.4370761 
   6.245000000    -0.3588900    0.4532734    -0.6192478   -0.4996646    -0.6127360   -0.5119876    -0.3593752    0.4392345 
   6.247500000    -0.3566039    0.4551688    -0.6222238   -0.4998941    -0.6156909   -0.5126556    -0.3579753    0.4414866 
   6.250000000    -0.3542750    0.4568227    -0.6250360   -0.5001820    -0.6185758   -0.5132072    -0.3567120    0.4430067 
   6.252500000    -0.3512675    0.4584529    -0.6279719   -0.5007350    -0.6216472   -0.5140075    -0.3554676    0.4447883 
   6.255000000    -0.3490804    0.4602206    -0.6302936   -0.5017671    -0.6243452   -0.5143186    -0.3535969    0.4475912 
   6.257500000    -0.3467112    0.4618893    -0.6331167   -0.5024503    -0.6275138   -0.5146832    -0.3526617    0.4497676 
   6.260000000    -0.3445021    0.4632697    -0.6372186   -0.5026386    -0.6305526   -0.5142763    -0.3513612    0.4515092 
   6.262500000    -0.3416649    0.4648731    -0.6399767   -0.5020143    -0.6333443   -0.5146252    -0.3493164    0.4535647 
   6.265000000    -0.3389090    0.4662645    -0.6427080   -0.5021845    -0.6366894   -0.5141656    -0.3475654    0.4553117 
   6.267500000    -0.3360010    0.4673277    -0.6454632   -0.5023136    -0.6393330   -0.5137742    -0.3449664    0.4575067 
   6.270000000    -0.3332761    0.4681519    -0.6485843   -0.5018787    -0.6427346   -0.5135188    -0.3435191    0.4593524 
   6.272500000    -0.3304457    0.4686945    -0.6520497   -0.5021209    -0.6459306   -0.5125254    -0.3414946    0.4615376 
   6.275000000    -0.3270290    0.4689946    -0.6550118   -0.5010738    -0.6485428   -0.5120832    -0.3394733    0.4630736 
   6.277500000    -0.3241667    0.4697701    -0.6579621   -0.5006546    -0.6515030   -0.5112031    -0.3372614    0.4646695 
   6.280000000    -0.3214711    0.4703436    -0.6608889   -0.5003603    -0.6547508   -0.5106032    -0.3348029    0.4661975 
   6.282500000    -0.3184547    0.4707173    -0.6631517   -0.4997860    -0.6580344   -0.5099023    -0.3329296    0.4673172 
   6.285000000    -0.3150671    0.4711403    -0.6672101   -0.4990385    -0.6606464   -0.5087310    -0.3305714    0.4683230 
   6.287500000    -0.3119836    0.4708360    -0.6695911   -0.4969866    -0.6637320   -0.5076892    -0.3282614    0.4691235 
   6.290000000    -0.3085256    0.4709976    -0.6718429   -0.4960497    -0.6662644   -0.5064278    -0.3261611    0.4704098 
   6.292500000    -0.3051738    0.4704236    -0.6742595   -0.4954726    -0.6684970   -0.5056395    -0.3237956    0.4718598 
   6.295000000    -0.3017571    0.4690799    -0.6758988   -0.4944687    -0.6708193   -0.5045228    -0.3211064    0.4736603 
   6.297500000    -0.2981445    0.4668420    -0.6772369   -0.4928586    -0.6723623   -0.5034367    -0.3187039    0.4752207 
   6.300000000    -0.2955327    0.4636651    -0.6783836   -0.4916746    -0.6735138   -0.5028991    -0.3152894    0.4771536 
   6.302500000    -0.2947778    0.4605694    -0.6798394   -0.4917044    -0.6744667   -0.5032714    -0.3111343    0.4781601 
   6.305000000    -0.2946529    0.4593537    -0.6822085   -0.4927414    -0.6774540   -0.5038038    -0.3071816    0.4782260 
   6.307500000    -0.2944384    0.4594759    -0.6854880   -0.4929166    -0.6806379   -0.5034534    -0.3031004    0.4780129 
   6.310000000    -0.2933041    0.4597201    -0.6882246   -0.4914823    -0.6842129   -0.5031146    -0.2999953    0.4775975 
   6.312500000    -0.2913774    0.4608580    -0.6918604   -0.4904883    -0.6874542   -0.5020837    -0.2968178    0.4781371 
   6.315000000    -0.2889367    0.4610257    -0.6953450   -0.4886831    -0.6907650   -0.5004703    -0.2935387    0.4781269 
   6.317500000    -0.2860575    0.4611537    -0.6958446   -0.4885861    -0.6937857   -0.4976464    -0.2899912    0.4781581 
   6.320000000    -0.2837057    0.4612353    -0.7002962   -0.4836020    -0.6944223   -0.4984612    -0.2862151    0.4781550 
   6.322500000    -0.2802311    0.4615919    -0.7020294   -0.4832722    -0.6983693   -0.4942004    -0.2817512    0.4784974 
   6.325000000    -0.2768111    0.4619413    -0.7033045   -0.4803931    -0.7003633   -0.4917750    -0.2774643    0.4787581 
   6.327500000    -0.2730483    0.4622557    -0.7055659   -0.4783028    -0.7023643   -0.4894398    -0.2727917    0.4789339 
   6.330000000    -0.2690957    0.4624945    -0.7069126   -0.4750167    -0.7038668   -0.4866446    -0.2673197    0.4791214 
   6.332500000    -0.2642413    0.4633856    -0.7067797   -0.4720916    -0.7041955   -0.4835492    -0.2611744    0.4795725 
   6.335000000    -0.2579507    0.4643317    -0.7058720   -0.4693849    -0.7040688   -0.4797953    -0.2530818    0.4804053 
   6.337500000    -0.2505805    0.4654671    -0.7039988   -0.4662626    -0.7026412   -0.4767181    -0.2447077    0.4797767 
   6.340000000    -0.2413841    0.4656607    -0.7003993   -0.4647575    -0.6987540   -0.4744265    -0.2350866    0.4785849 
   6.342500000    -0.2306608    0.4638908    -0.6956868   -0.4644755    -0.6936069   -0.4740112    -0.2232684    0.4750409 
   6.345000000    -0.2186907    0.4586394    -0.6903441   -0.4679612    -0.6877705   -0.4775192    -0.2115643    0.4680060 
   6.347500000    -0.2083279    0.4487629    -0.6861624   -0.4760989    -0.6839745   -0.4858811    -0.2022568    0.4560239 
   6.350000000    -0.2021239    0.4357956    -0.6864800   -0.4871853    -0.6842239   -0.4967001    -0.1974527    0.4424506 
   6.352500000    -0.2020047    0.4237384    -0.6924124   -0.4975254    -0.6901150   -0.5058442    -0.1991580    0.4299074 
   6.355000000    -0.2048514    0.4159945    -0.7016776   -0.5030654    -0.6996852   -0.5116531    -0.2035114    0.4212292 
   6.357500000    -0.2084446    0.4112565    -0.7111953   -0.5049238    -0.7088560   -0.5136108    -0.2074764    0.4166876 
   6.360000000    -0.2111359    0.4093622    -0.7204489   -0.5044832    -0.7178710   -0.5131704    -0.2108897    0.4140409 
   6.362500000    -0.2128564    0.4086364    -0.7280290   -0.5022229    -0.7256658   -0.5109149    -0.2128861    0.4130698 
   6.365000000    -0.2131266    0.4083967    -0.7339481   -0.4997342    -0.7315298   -0.5088683    -0.2131714    0.4126415 
   6.367500000    -0.2131242    0.4088918    -0.7386304   -0.4970928    -0.7369049   -0.5055861    -0.2132517    0.4125063 
   6.370000000    -0.2119372    0.4091898    -0.7428076   -0.4942790    -0.7410437   -0.5027939    -0.2129316    0.4117252 
   6.372500000    -0.2105592    0.4095141    -0.7477055   -0.4910295    -0.7454353   -0.4994988    -0.2123968    0.4112362 
   6.375000000    -0.2080877    0.4096024    -0.7507426   -0.4875462    -0.7482729   -0.4968295    -0.2112951    0.4105365 
   6.377500000    -0.2061901    0.4096305    -0.7543491   -0.4856726    -0.7515233   -0.4936556    -0.2098859    0.4097771 
   6.380000000    -0.2036472    0.4094200    -0.7577427   -0.4829205    -0.7549732   -0.4912527    -0.2089947    0.4091671 
   6.382500000    -0.2013352    0.4090695    -0.7610595   -0.4804249    -0.7576417   -0.4889317    -0.2078953    0.4084252 
   6.385000000    -0.1990030    0.4087560    -0.7639289   -0.4779270    -0.7606401   -0.4865640    -0.2062264    0.4070358 
   6.387500000    -0.1968560    0.4081035    -0.7665520   -0.4755046    -0.7633572   -0.4842766    -0.2047316    0.4056988 
   6.390000000    -0.1945437    0.4076256    -0.7692325   -0.4725172    -0.7658552   -0.4825485    -0.2036752    0.4045909 
