! MS46122B
! 1919307/90821646
! 5/20/2022 12:52:59 PM
! C:\USERS\PC_\DESKTOP\CARACTERIZACION\MEDICIONES\BANCHA ESTRECHA\6_65_GHZ\S11_S21_ABS44_502CL.S2P
! CHANNEL.1
! TR.MEASUREMENT
! CORRECTED.DATA
# GHZ S RI R 50.0
! FREQ.GHZ         S11RE         S11IM         S21RE         S21IM         S12RE         S12IM         S22RE         S22IM         
!; PortSelection: Port_12
   6.000000000    -0.4355158   -0.0370885     0.0886605   -0.8968151     0.1013640   -0.8791937    -0.4758943   -0.2015838 
   6.002500000    -0.4431665   -0.0345182     0.0865388   -0.8946873     0.0995257   -0.8782964    -0.4764017   -0.2024083 
   6.005000000    -0.4478582   -0.0354549     0.0840060   -0.8946626     0.0960332   -0.8783131    -0.4773902   -0.2031290 
   6.007500000    -0.4522273   -0.0371024     0.0820800   -0.8943536     0.0924554   -0.8785121    -0.4784893   -0.2035347 
   6.010000000    -0.4565330   -0.0388758     0.0791416   -0.8936648     0.0893795   -0.8783331    -0.4792592   -0.2045619 
   6.012500000    -0.4610152   -0.0408646     0.0771355   -0.8929070     0.0858987   -0.8781142    -0.4802792   -0.2052223 
   6.015000000    -0.4649908   -0.0429908     0.0743846   -0.8921141     0.0819364   -0.8776045    -0.4813000   -0.2056982 
   6.017500000    -0.4692404   -0.0454313     0.0720896   -0.8920436     0.0785407   -0.8769370    -0.4827572   -0.2062093 
   6.020000000    -0.4736509   -0.0474464     0.0697276   -0.8912218     0.0750366   -0.8759475    -0.4839263   -0.2067527 
   6.022500000    -0.4781000   -0.0490693     0.0668597   -0.8899989     0.0715123   -0.8754978    -0.4848594   -0.2074036 
   6.025000000    -0.4828352   -0.0512718     0.0643611   -0.8880487     0.0684604   -0.8741792    -0.4861016   -0.2080468 
   6.027500000    -0.4874653   -0.0537999     0.0618515   -0.8865578     0.0656633   -0.8727115    -0.4875536   -0.2083165 
   6.030000000    -0.4919291   -0.0558897     0.0604451   -0.8849444     0.0630359   -0.8713480    -0.4886741   -0.2086950 
   6.032500000    -0.4963429   -0.0582182     0.0577614   -0.8838817     0.0608597   -0.8700115    -0.4901667   -0.2092925 
   6.035000000    -0.5008720   -0.0602497     0.0551376   -0.8821466     0.0582321   -0.8680530    -0.4921897   -0.2100156 
   6.037500000    -0.5053723   -0.0624688     0.0524866   -0.8798934     0.0558649   -0.8665864    -0.4940167   -0.2107057 
   6.040000000    -0.5096145   -0.0646296     0.0507348   -0.8774385     0.0540847   -0.8646191    -0.4965706   -0.2109814 
   6.042500000    -0.5136806   -0.0669206     0.0492717   -0.8749000     0.0518924   -0.8627497    -0.4985592   -0.2117729 
   6.045000000    -0.5177082   -0.0687628     0.0472642   -0.8726379     0.0501670   -0.8605648    -0.5013713   -0.2126506 
   6.047500000    -0.5220317   -0.0707537     0.0450020   -0.8705615     0.0484865   -0.8583391    -0.5038711   -0.2133392 
   6.050000000    -0.5257612   -0.0722529     0.0424256   -0.8677799     0.0464455   -0.8568559    -0.5065611   -0.2150448 
   6.052500000    -0.5300856   -0.0745454     0.0411699   -0.8650252     0.0439283   -0.8549109    -0.5104937   -0.2154688 
   6.055000000    -0.5333847   -0.0755218     0.0386531   -0.8634387     0.0419550   -0.8527706    -0.5134012   -0.2157015 
   6.057500000    -0.5370545   -0.0768532     0.0369453   -0.8607085     0.0401309   -0.8508982    -0.5171162   -0.2168198 
   6.060000000    -0.5403117   -0.0781061     0.0354519   -0.8583449     0.0379853   -0.8493679    -0.5204605   -0.2171212 
   6.062500000    -0.5431367   -0.0791204     0.0328555   -0.8564593     0.0362885   -0.8470161    -0.5230110   -0.2178395 
   6.065000000    -0.5461469   -0.0794732     0.0315194   -0.8543735     0.0347990   -0.8456271    -0.5259566   -0.2179075 
   6.067500000    -0.5487536   -0.0800530     0.0303798   -0.8524705     0.0331157   -0.8444534    -0.5292290   -0.2176234 
   6.070000000    -0.5511175   -0.0805075     0.0286021   -0.8503993     0.0315114   -0.8430068    -0.5324214   -0.2173913 
   6.072500000    -0.5532953   -0.0810651     0.0274107   -0.8478940     0.0298853   -0.8408565    -0.5354804   -0.2176226 
   6.075000000    -0.5555219   -0.0813630     0.0264775   -0.8455505     0.0282818   -0.8392654    -0.5388237   -0.2175580 
   6.077500000    -0.5575556   -0.0816727     0.0244841   -0.8432772     0.0271301   -0.8377532    -0.5417685   -0.2172690 
   6.080000000    -0.5588510   -0.0812915     0.0234590   -0.8410081     0.0261597   -0.8362536    -0.5444363   -0.2163195 
   6.082500000    -0.5605592   -0.0805294     0.0233111   -0.8388467     0.0252038   -0.8345928    -0.5473217   -0.2154249 
   6.085000000    -0.5617800   -0.0799496     0.0221084   -0.8369144     0.0244126   -0.8334766    -0.5510038   -0.2146615 
   6.087500000    -0.5627444   -0.0793776     0.0216861   -0.8347694     0.0236138   -0.8320069    -0.5541602   -0.2137850 
   6.090000000    -0.5638778   -0.0784716     0.0210092   -0.8319454     0.0230673   -0.8299879    -0.5571244   -0.2128730 
   6.092500000    -0.5649900   -0.0773664     0.0188006   -0.8298636     0.0223694   -0.8278905    -0.5591131   -0.2119387 
   6.095000000    -0.5662025   -0.0762535     0.0186000   -0.8274799     0.0221369   -0.8266030    -0.5621132   -0.2101648 
   6.097500000    -0.5673425   -0.0741154     0.0178178   -0.8250491     0.0212434   -0.8246026    -0.5648477   -0.2083991 
   6.100000000    -0.5681939   -0.0726450     0.0172218   -0.8228574     0.0208172   -0.8227728    -0.5676357   -0.2072357 
   6.102500000    -0.5688120   -0.0712182     0.0168509   -0.8212079     0.0209640   -0.8211664    -0.5703540   -0.2058403 
   6.105000000    -0.5695387   -0.0692957     0.0165518   -0.8185820     0.0207264   -0.8196849    -0.5728785   -0.2040007 
   6.107500000    -0.5704916   -0.0674877     0.0145222   -0.8161013     0.0204671   -0.8172323    -0.5751315   -0.2026033 
   6.110000000    -0.5716248   -0.0656868     0.0141146   -0.8141325     0.0200066   -0.8160018    -0.5777607   -0.2007811 
   6.112500000    -0.5728023   -0.0631466     0.0132112   -0.8121975     0.0200981   -0.8142902    -0.5799507   -0.1980721 
   6.115000000    -0.5733891   -0.0620820     0.0122617   -0.8107334     0.0202852   -0.8128191    -0.5819339   -0.1969925 
   6.117500000    -0.5745518   -0.0606972     0.0119551   -0.8086029     0.0205497   -0.8113312    -0.5838250   -0.1954185 
   6.120000000    -0.5754238   -0.0590768     0.0120453   -0.8070227     0.0207647   -0.8099109    -0.5854378   -0.1931018 
   6.122500000    -0.5761810   -0.0577465     0.0118906   -0.8052050     0.0211211   -0.8084637    -0.5870717   -0.1911598 
   6.125000000    -0.5772342   -0.0553945     0.0114173   -0.8033891     0.0214287   -0.8075671    -0.5887281   -0.1894067 
   6.127500000    -0.5780074   -0.0534502     0.0116555   -0.8016795     0.0213169   -0.8061748    -0.5900831   -0.1862692 
   6.130000000    -0.5790836   -0.0518127     0.0115567   -0.8002509     0.0224959   -0.8050493    -0.5913836   -0.1843673 
   6.132500000    -0.5805827   -0.0505018     0.0117176   -0.7985335     0.0233043   -0.8037714    -0.5925227   -0.1827687 
   6.135000000    -0.5821329   -0.0495010     0.0118866   -0.7980753     0.0242177   -0.8023672    -0.5932808   -0.1806527 
   6.137500000    -0.5835056   -0.0480325     0.0113792   -0.7961429     0.0252065   -0.8010141    -0.5941935   -0.1785543 
   6.140000000    -0.5850187   -0.0469116     0.0122285   -0.7944323     0.0259415   -0.7999014    -0.5954155   -0.1758056 
   6.142500000    -0.5864648   -0.0455509     0.0122103   -0.7931800     0.0268377   -0.7985125    -0.5960107   -0.1733083 
   6.145000000    -0.5880558   -0.0449566     0.0131626   -0.7912492     0.0278717   -0.7973006    -0.5968361   -0.1712211 
   6.147500000    -0.5899019   -0.0442217     0.0130780   -0.7904943     0.0289616   -0.7960930    -0.5974901   -0.1691239 
   6.150000000    -0.5916886   -0.0434487     0.0138705   -0.7896255     0.0299588   -0.7944472    -0.5979369   -0.1669628 
   6.152500000    -0.5939218   -0.0422954     0.0133734   -0.7874217     0.0308507   -0.7931100    -0.5985436   -0.1646537 
   6.155000000    -0.5958216   -0.0415317     0.0136639   -0.7862513     0.0320343   -0.7919767    -0.5995323   -0.1617791 
   6.157500000    -0.5981170   -0.0411268     0.0137538   -0.7843894     0.0324068   -0.7906908    -0.6001531   -0.1591741 
   6.160000000    -0.6006059   -0.0408934     0.0140976   -0.7830748     0.0336709   -0.7894191    -0.6008036   -0.1572238 
   6.162500000    -0.6028349   -0.0407466     0.0141271   -0.7821822     0.0343340   -0.7881821    -0.6009295   -0.1554173 
   6.165000000    -0.6054385   -0.0402102     0.0132837   -0.7807325     0.0355726   -0.7867892    -0.6013681   -0.1535332 
   6.167500000    -0.6080338   -0.0399603     0.0137884   -0.7794296     0.0366898   -0.7856612    -0.6017154   -0.1519302 
   6.170000000    -0.6107388   -0.0397792     0.0141945   -0.7784263     0.0374290   -0.7850375    -0.6025053   -0.1493141 
   6.172500000    -0.6132441   -0.0400720     0.0149552   -0.7772817     0.0382385   -0.7844072    -0.6029539   -0.1472586 
   6.175000000    -0.6159855   -0.0400662     0.0149948   -0.7756914     0.0394957   -0.7832881    -0.6032505   -0.1453518 
   6.177500000    -0.6185682   -0.0403688     0.0143631   -0.7746673     0.0396175   -0.7823409    -0.6033909   -0.1433640 
   6.180000000    -0.6207507   -0.0401134     0.0159419   -0.7729635     0.0415312   -0.7818119    -0.6035415   -0.1414994 
   6.182500000    -0.6230866   -0.0400420     0.0169291   -0.7716421     0.0429428   -0.7807958    -0.6032506   -0.1398121 
   6.185000000    -0.6250792   -0.0393996     0.0185101   -0.7697800     0.0444492   -0.7794387    -0.6025336   -0.1379255 
   6.187500000    -0.6267922   -0.0390498     0.0199922   -0.7679257     0.0461426   -0.7785546    -0.6015953   -0.1371820 
   6.190000000    -0.6279985   -0.0391128     0.0214196   -0.7674420     0.0475875   -0.7776368    -0.6005271   -0.1367057 
   6.192500000    -0.6292416   -0.0392293     0.0233099   -0.7663298     0.0496495   -0.7771477    -0.6005070   -0.1368520 
   6.195000000    -0.6301958   -0.0389285     0.0251224   -0.7657303     0.0510255   -0.7766832    -0.6010494   -0.1369286 
   6.197500000    -0.6309627   -0.0391531     0.0267466   -0.7647067     0.0527758   -0.7760427    -0.6013363   -0.1372692 
   6.200000000    -0.6320364   -0.0393280     0.0280144   -0.7639167     0.0540898   -0.7754428    -0.6022731   -0.1354872 
   6.202500000    -0.6332556   -0.0396133     0.0302733   -0.7626535     0.0553470   -0.7748731    -0.6026909   -0.1353456 
   6.205000000    -0.6340506   -0.0396546     0.0304285   -0.7622463     0.0559300   -0.7739208    -0.6030849   -0.1346856 
   6.207500000    -0.6341358   -0.0389959     0.0327835   -0.7618873     0.0576486   -0.7734397    -0.6041561   -0.1338313 
   6.210000000    -0.6342973   -0.0376166     0.0348340   -0.7608454     0.0592881   -0.7728717    -0.6051421   -0.1334801 
   6.212500000    -0.6351349   -0.0368166     0.0364507   -0.7609192     0.0603509   -0.7723719    -0.6071234   -0.1313808 
   6.215000000    -0.6368293   -0.0364756     0.0386943   -0.7606255     0.0617771   -0.7718749    -0.6081136   -0.1305493 
   6.217500000    -0.6377510   -0.0356341     0.0403167   -0.7606148     0.0628602   -0.7714334    -0.6092466   -0.1292295 
   6.220000000    -0.6359180   -0.0349888     0.0414632   -0.7607144     0.0633546   -0.7710328    -0.6101628   -0.1273738 
   6.222500000    -0.6337245   -0.0329782     0.0434641   -0.7612739     0.0645023   -0.7709176    -0.6111900   -0.1259799 
   6.225000000    -0.6344385   -0.0307913     0.0455993   -0.7612520     0.0658607   -0.7708905    -0.6121274   -0.1243329 
   6.227500000    -0.6355522   -0.0310385     0.0472766   -0.7611740     0.0667533   -0.7702821    -0.6132990   -0.1216652 
   6.230000000    -0.6359063   -0.0302972     0.0493668   -0.7617242     0.0677781   -0.7699088    -0.6151114   -0.1199427 
   6.232500000    -0.6361825   -0.0284277     0.0517498   -0.7617706     0.0689982   -0.7695253    -0.6155732   -0.1182803 
   6.235000000    -0.6356274   -0.0261329     0.0525092   -0.7622842     0.0698201   -0.7693054    -0.6166879   -0.1170836 
   6.237500000    -0.6349694   -0.0240039     0.0545713   -0.7623904     0.0707065   -0.7691821    -0.6173671   -0.1151517 
   6.240000000    -0.6351336   -0.0215528     0.0569222   -0.7629836     0.0719930   -0.7685879    -0.6177672   -0.1128107 
   6.242500000    -0.6349242   -0.0190457     0.0584640   -0.7629518     0.0726650   -0.7682663    -0.6180631   -0.1094076 
   6.245000000    -0.6349151   -0.0166524     0.0599583   -0.7630161     0.0737282   -0.7680864    -0.6191153   -0.1058050 
   6.247500000    -0.6345587   -0.0139848     0.0621922   -0.7629326     0.0745679   -0.7676395    -0.6200116   -0.1035134 
   6.250000000    -0.6344979   -0.0114731     0.0638181   -0.7634084     0.0752742   -0.7675745    -0.6206935   -0.1018442 
   6.252500000    -0.6344019   -0.0088438     0.0639294   -0.7641680     0.0758552   -0.7674778    -0.6205899   -0.0995038 
   6.255000000    -0.6343556   -0.0058141     0.0662397   -0.7645495     0.0773293   -0.7671666    -0.6208090   -0.0967893 
   6.257500000    -0.6339114   -0.0029717     0.0681073   -0.7648983     0.0780972   -0.7668623    -0.6211878   -0.0933849 
   6.260000000    -0.6334668   -0.0004984     0.0692367   -0.7651489     0.0792949   -0.7661142    -0.6211274   -0.0903438 
   6.262500000    -0.6331446    0.0023006     0.0708137   -0.7650596     0.0802722   -0.7657166    -0.6213446   -0.0877297 
   6.265000000    -0.6327475    0.0049204     0.0721153   -0.7655389     0.0808968   -0.7659733    -0.6210721   -0.0852356 
   6.267500000    -0.6323216    0.0074765     0.0728585   -0.7661465     0.0820608   -0.7655118    -0.6201604   -0.0821407 
   6.270000000    -0.6317758    0.0101986     0.0739647   -0.7670036     0.0820310   -0.7651931    -0.6197756   -0.0798629 
   6.272500000    -0.6311732    0.0128656     0.0756307   -0.7677453     0.0833780   -0.7648492    -0.6191724   -0.0771049 
   6.275000000    -0.6304699    0.0147640     0.0769630   -0.7682532     0.0840926   -0.7644342    -0.6183341   -0.0739732 
   6.277500000    -0.6299009    0.0171198     0.0773523   -0.7682873     0.0846281   -0.7642552    -0.6178328   -0.0715997 
   6.280000000    -0.6294554    0.0192838     0.0783963   -0.7689354     0.0851445   -0.7647116    -0.6169559   -0.0698014 
   6.282500000    -0.6287986    0.0220244     0.0795630   -0.7696988     0.0856560   -0.7649205    -0.6163132   -0.0675396 
   6.285000000    -0.6285440    0.0237141     0.0804139   -0.7701036     0.0858186   -0.7648452    -0.6152785   -0.0654283 
   6.287500000    -0.6283444    0.0257006     0.0816408   -0.7703733     0.0860513   -0.7650892    -0.6140103   -0.0636407 
   6.290000000    -0.6281129    0.0266045     0.0826160   -0.7709047     0.0866910   -0.7650151    -0.6131126   -0.0609448 
   6.292500000    -0.6279843    0.0274991     0.0829987   -0.7710949     0.0873539   -0.7652606    -0.6119150   -0.0589805 
   6.295000000    -0.6276034    0.0288640     0.0839857   -0.7717787     0.0880184   -0.7655799    -0.6103999   -0.0570263 
   6.297500000    -0.6274039    0.0297069     0.0853296   -0.7717266     0.0884522   -0.7661206    -0.6091930   -0.0552307 
   6.300000000    -0.6272277    0.0307520     0.0866529   -0.7718743     0.0889905   -0.7665345    -0.6075558   -0.0530652 
   6.302500000    -0.6267328    0.0316550     0.0875550   -0.7723615     0.0895555   -0.7666678    -0.6057922   -0.0511288 
   6.305000000    -0.6270604    0.0320728     0.0877005   -0.7730834     0.0899863   -0.7670981    -0.6040520   -0.0487217 
   6.307500000    -0.6269449    0.0317963     0.0892262   -0.7734922     0.0907705   -0.7675171    -0.6027120   -0.0470085 
   6.310000000    -0.6269265    0.0316450     0.0901061   -0.7738213     0.0917914   -0.7684534    -0.6012392   -0.0458453 
   6.312500000    -0.6272403    0.0305533     0.0912290   -0.7728266     0.0928955   -0.7688668    -0.5994971   -0.0447779 
   6.315000000    -0.6277758    0.0307119     0.0924669   -0.7737472     0.0937584   -0.7697402    -0.5976808   -0.0437164 
   6.317500000    -0.6278368    0.0295174     0.0929723   -0.7742472     0.0950472   -0.7705431    -0.5961694   -0.0421370 
   6.320000000    -0.6277895    0.0288764     0.0931189   -0.7751855     0.0960512   -0.7713580    -0.5950822   -0.0409179 
   6.322500000    -0.6276834    0.0275132     0.0942973   -0.7753072     0.0968341   -0.7722583    -0.5933974   -0.0400738 
   6.325000000    -0.6273599    0.0264614     0.0949294   -0.7758315     0.0976139   -0.7732674    -0.5921035   -0.0392268 
   6.327500000    -0.6275693    0.0249839     0.0957223   -0.7753806     0.0980943   -0.7743360    -0.5905291   -0.0384132 
   6.330000000    -0.6273918    0.0236311     0.0960649   -0.7762792     0.0995481   -0.7759600    -0.5893409   -0.0362599 
   6.332500000    -0.6268947    0.0226290     0.0964364   -0.7777891     0.1000718   -0.7777010    -0.5880932   -0.0349069 
   6.335000000    -0.6262388    0.0221196     0.0975386   -0.7793490     0.1005409   -0.7797458    -0.5867850   -0.0339310 
   6.337500000    -0.6257678    0.0210786     0.0978707   -0.7803951     0.1015194   -0.7815434    -0.5852445   -0.0326769 
   6.340000000    -0.6249114    0.0208787     0.0984468   -0.7818194     0.1009661   -0.7835288    -0.5839503   -0.0319187 
   6.342500000    -0.6235179    0.0199746     0.0990875   -0.7831940     0.1011991   -0.7858208    -0.5830857   -0.0300945 
   6.345000000    -0.6220688    0.0197081     0.0993311   -0.7845190     0.1011902   -0.7879261    -0.5819027   -0.0286936 
   6.347500000    -0.6204768    0.0186529     0.0985329   -0.7861174     0.1013559   -0.7903072    -0.5809891   -0.0273193 
   6.350000000    -0.6185315    0.0177686     0.0988707   -0.7872501     0.1010360   -0.7923295    -0.5802655   -0.0263390 
   6.352500000    -0.6164507    0.0166199     0.0998662   -0.7877787     0.1006490   -0.7950202    -0.5797600   -0.0252657 
   6.355000000    -0.6144275    0.0168142     0.0998908   -0.7884026     0.0998640   -0.7976218    -0.5786754   -0.0241811 
   6.357500000    -0.6118954    0.0158901     0.1004154   -0.7890105     0.0994271   -0.7998487    -0.5780440   -0.0215639 
   6.360000000    -0.6094683    0.0153446     0.1005566   -0.7898830     0.0984054   -0.8025296    -0.5772533   -0.0194197 
   6.362500000    -0.6070808    0.0147204     0.1006035   -0.7906750     0.0976365   -0.8049601    -0.5769444   -0.0176495 
   6.365000000    -0.6051249    0.0145232     0.0993473   -0.7921385     0.0969781   -0.8072546    -0.5763727   -0.0159968 
   6.367500000    -0.6029465    0.0136146     0.0992207   -0.7925341     0.0962899   -0.8091033    -0.5755942   -0.0147693 
   6.370000000    -0.6003520    0.0136304     0.0994817   -0.7926162     0.0941259   -0.8111928    -0.5748543   -0.0132803 
   6.372500000    -0.5976614    0.0154656     0.0982202   -0.7933645     0.0924188   -0.8132353    -0.5741218   -0.0111924 
   6.375000000    -0.5945409    0.0165764     0.0982077   -0.7940803     0.0911994   -0.8141637    -0.5737614   -0.0090705 
   6.377500000    -0.5919604    0.0165997     0.0985706   -0.7950529     0.0894538   -0.8154535    -0.5729227   -0.0075054 
   6.380000000    -0.5895686    0.0178647     0.0962555   -0.7964383     0.0879873   -0.8169414    -0.5729878   -0.0062404 
   6.382500000    -0.5868237    0.0191565     0.0958688   -0.7968113     0.0865465   -0.8172030    -0.5722407   -0.0045949 
   6.385000000    -0.5840756    0.0207659     0.0959788   -0.7971466     0.0847631   -0.8185056    -0.5708072   -0.0032152 
   6.387500000    -0.5813199    0.0218999     0.0950648   -0.7980806     0.0832743   -0.8188839    -0.5705548   -0.0018453 
