! MS46122B
! 1919307/90821646
! 7/29/2022 2:01:59 PM
! C:\USERS\PC_\DESKTOP\MEDICIONES\BANCHA ESTRECHA\6_65_GHZ\S11_S21_ABS65_502CL.S2P
! CHANNEL.1
! TR.MEASUREMENT
! CORRECTED.DATA
# GHZ S RI R 50.0
! FREQ.GHZ         S11RE         S11IM         S21RE         S21IM         S12RE         S12IM         S22RE         S22IM         
!; PortSelection: Port_12
   6.000000000    -0.6035231   -0.0585922    -0.0983356   -0.7904700    -0.0919473   -0.7849683    -0.5627947   -0.0119595 
   6.002500000    -0.6065984   -0.0556266    -0.0989404   -0.7892222    -0.0926892   -0.7835926    -0.5637118   -0.0119532 
   6.005000000    -0.6092485   -0.0556041    -0.1011165   -0.7873179    -0.0944972   -0.7825951    -0.5643995   -0.0121274 
   6.007500000    -0.6117215   -0.0558245    -0.1017863   -0.7860493    -0.0964036   -0.7816284    -0.5655925   -0.0121796 
   6.010000000    -0.6141252   -0.0567644    -0.1034107   -0.7847574    -0.0981722   -0.7803764    -0.5663431   -0.0126700 
   6.012500000    -0.6164318   -0.0580202    -0.1046022   -0.7834647    -0.0997783   -0.7790155    -0.5673678   -0.0125608 
   6.015000000    -0.6185666   -0.0593436    -0.1057070   -0.7819052    -0.1020899   -0.7778935    -0.5683194   -0.0124364 
   6.017500000    -0.6208004   -0.0598455    -0.1074145   -0.7812130    -0.1038044   -0.7765697    -0.5696094   -0.0120455 
   6.020000000    -0.6232176   -0.0600729    -0.1090024   -0.7796035    -0.1054506   -0.7750828    -0.5701514   -0.0114400 
   6.022500000    -0.6253803   -0.0607987    -0.1101941   -0.7779086    -0.1069708   -0.7737107    -0.5711107   -0.0112666 
   6.025000000    -0.6279317   -0.0615316    -0.1105754   -0.7759315    -0.1088497   -0.7720075    -0.5723506   -0.0115520 
   6.027500000    -0.6305218   -0.0619355    -0.1119719   -0.7739351    -0.1100584   -0.7698395    -0.5733164   -0.0114739 
   6.030000000    -0.6328421   -0.0627794    -0.1132911   -0.7719576    -0.1108835   -0.7682314    -0.5740528   -0.0114307 
   6.032500000    -0.6353706   -0.0626264    -0.1146176   -0.7704807    -0.1117885   -0.7667940    -0.5750865   -0.0105224 
   6.035000000    -0.6377329   -0.0629458    -0.1151666   -0.7690745    -0.1127966   -0.7646244    -0.5761350   -0.0102644 
   6.037500000    -0.6399170   -0.0635294    -0.1160978   -0.7671742    -0.1136667   -0.7623184    -0.5774611   -0.0103227 
   6.040000000    -0.6422574   -0.0636754    -0.1167924   -0.7646571    -0.1142245   -0.7600929    -0.5788438   -0.0107872 
   6.042500000    -0.6445835   -0.0640266    -0.1161680   -0.7625465    -0.1149319   -0.7575237    -0.5800223   -0.0112880 
   6.045000000    -0.6462210   -0.0636087    -0.1168730   -0.7607759    -0.1169553   -0.7546765    -0.5811421   -0.0119147 
   6.047500000    -0.6489689   -0.0635486    -0.1168889   -0.7588413    -0.1172095   -0.7530935    -0.5823881   -0.0122904 
   6.050000000    -0.6511910   -0.0643854    -0.1185970   -0.7566553    -0.1163079   -0.7504459    -0.5845860   -0.0128488 
   6.052500000    -0.6537722   -0.0640333    -0.1189195   -0.7547836    -0.1168930   -0.7480639    -0.5863190   -0.0136401 
   6.055000000    -0.6554806   -0.0630450    -0.1203546   -0.7535792    -0.1176952   -0.7456383    -0.5874489   -0.0144834 
   6.057500000    -0.6575867   -0.0623794    -0.1204901   -0.7514631    -0.1176649   -0.7435993    -0.5896496   -0.0151171 
   6.060000000    -0.6596200   -0.0620757    -0.1218197   -0.7494978    -0.1178702   -0.7416577    -0.5916777   -0.0149962 
   6.062500000    -0.6614134   -0.0611150    -0.1222827   -0.7478602    -0.1180813   -0.7391319    -0.5931564   -0.0163018 
   6.065000000    -0.6627858   -0.0600089    -0.1218946   -0.7462978    -0.1179039   -0.7376435    -0.5937580   -0.0161615 
   6.067500000    -0.6641066   -0.0592973    -0.1219722   -0.7449786    -0.1176923   -0.7359599    -0.5953099   -0.0170458 
   6.070000000    -0.6655923   -0.0583679    -0.1219287   -0.7434796    -0.1181054   -0.7341449    -0.5968358   -0.0174168 
   6.072500000    -0.6668769   -0.0571633    -0.1219906   -0.7419516    -0.1179300   -0.7320572    -0.5980362   -0.0183363 
   6.075000000    -0.6679227   -0.0561954    -0.1229688   -0.7401714    -0.1174892   -0.7302623    -0.6001465   -0.0180135 
   6.077500000    -0.6689464   -0.0551398    -0.1221971   -0.7385320    -0.1171018   -0.7289424    -0.6019906   -0.0182451 
   6.080000000    -0.6701300   -0.0529515    -0.1221842   -0.7369769    -0.1168585   -0.7273853    -0.6026391   -0.0178871 
   6.082500000    -0.6707286   -0.0512410    -0.1214740   -0.7357687    -0.1162716   -0.7261500    -0.6042072   -0.0178547 
   6.085000000    -0.6711016   -0.0499529    -0.1208051   -0.7346578    -0.1158729   -0.7245312    -0.6059098   -0.0179305 
   6.087500000    -0.6714929   -0.0479423    -0.1205174   -0.7331973    -0.1149006   -0.7233600    -0.6074936   -0.0176956 
   6.090000000    -0.6719200   -0.0463431    -0.1214389   -0.7318516    -0.1141980   -0.7215856    -0.6095271   -0.0168168 
   6.092500000    -0.6721097   -0.0443701    -0.1201633   -0.7301620    -0.1131618   -0.7200404    -0.6109194   -0.0159650 
   6.095000000    -0.6728356   -0.0421922    -0.1196296   -0.7285162    -0.1126743   -0.7189448    -0.6123911   -0.0149482 
   6.097500000    -0.6727008   -0.0395686    -0.1193847   -0.7270581    -0.1118567   -0.7174451    -0.6141874   -0.0145884 
   6.100000000    -0.6728048   -0.0374850    -0.1183655   -0.7259310    -0.1112646   -0.7158499    -0.6157640   -0.0135438 
   6.102500000    -0.6726705   -0.0353472    -0.1175816   -0.7247456    -0.1104229   -0.7144466    -0.6176057   -0.0124458 
   6.105000000    -0.6727479   -0.0329357    -0.1182921   -0.7237007    -0.1094514   -0.7134509    -0.6194405   -0.0107043 
   6.107500000    -0.6726817   -0.0305237    -0.1176234   -0.7220315    -0.1087658   -0.7119603    -0.6208630   -0.0089487 
   6.110000000    -0.6723800   -0.0275056    -0.1158299   -0.7209756    -0.1096722   -0.7102985    -0.6226442   -0.0074222 
   6.112500000    -0.6727822   -0.0255391    -0.1178617   -0.7197685    -0.1066666   -0.7105665    -0.6245653   -0.0049693 
   6.115000000    -0.6729081   -0.0234948    -0.1171143   -0.7186109    -0.1067136   -0.7092558    -0.6259581   -0.0036028 
   6.117500000    -0.6727247   -0.0212340    -0.1155954   -0.7174658    -0.1070252   -0.7079420    -0.6277354   -0.0016189 
   6.120000000    -0.6727059   -0.0194324    -0.1159346   -0.7165550    -0.1055080   -0.7072130    -0.6291504    0.0007652 
   6.122500000    -0.6727842   -0.0171529    -0.1145317   -0.7156694    -0.1046726   -0.7063776    -0.6308030    0.0034589 
   6.125000000    -0.6724951   -0.0146232    -0.1139749   -0.7153737    -0.1040928   -0.7059797    -0.6329944    0.0054155 
   6.127500000    -0.6720983   -0.0122883    -0.1131639   -0.7144746    -0.1035463   -0.7054273    -0.6346462    0.0076643 
   6.130000000    -0.6720765   -0.0100904    -0.1125121   -0.7134353    -0.1031653   -0.7044770    -0.6361502    0.0103079 
   6.132500000    -0.6721115   -0.0084335    -0.1121439   -0.7129046    -0.1022356   -0.7037601    -0.6375764    0.0119813 
   6.135000000    -0.6720423   -0.0069529    -0.1112529   -0.7121133    -0.1009343   -0.7031907    -0.6386417    0.0149990 
   6.137500000    -0.6720257   -0.0046381    -0.1104716   -0.7116181    -0.0995655   -0.7023619    -0.6404057    0.0182400 
   6.140000000    -0.6718593   -0.0031225    -0.1091956   -0.7110264    -0.0993190   -0.7018397    -0.6418588    0.0208584 
   6.142500000    -0.6718355   -0.0012375    -0.1084651   -0.7101135    -0.0981473   -0.7009255    -0.6431633    0.0229414 
   6.145000000    -0.6718869    0.0003520    -0.1074764   -0.7085690    -0.0976497   -0.6999336    -0.6444591    0.0255110 
   6.147500000    -0.6719979    0.0019118    -0.1071499   -0.7078161    -0.0963364   -0.6993554    -0.6458641    0.0276589 
   6.150000000    -0.6722318    0.0040020    -0.1063840   -0.7078525    -0.0950062   -0.6983474    -0.6468754    0.0302718 
   6.152500000    -0.6727418    0.0055732    -0.1056232   -0.7070936    -0.0947091   -0.6974269    -0.6483206    0.0335851 
   6.155000000    -0.6730961    0.0073311    -0.1051819   -0.7062653    -0.0940168   -0.6971647    -0.6495898    0.0360426 
   6.157500000    -0.6732624    0.0087448    -0.1043507   -0.7043726    -0.0933283   -0.6960661    -0.6511226    0.0382438 
   6.160000000    -0.6740376    0.0101956    -0.1041653   -0.7040609    -0.0929699   -0.6950945    -0.6520237    0.0402964 
   6.162500000    -0.6742673    0.0113906    -0.1036451   -0.7029650    -0.0918258   -0.6943840    -0.6528254    0.0419981 
   6.165000000    -0.6751642    0.0133507    -0.1030161   -0.7024935    -0.0906674   -0.6939160    -0.6539545    0.0441169 
   6.167500000    -0.6758521    0.0142530    -0.1024002   -0.7017944    -0.0898636   -0.6928540    -0.6550577    0.0463451 
   6.170000000    -0.6765941    0.0156578    -0.1019312   -0.7011365    -0.0896616   -0.6928217    -0.6559209    0.0478813 
   6.172500000    -0.6774742    0.0167721    -0.1015908   -0.7010787    -0.0891801   -0.6923006    -0.6568680    0.0498618 
   6.175000000    -0.6781489    0.0179224    -0.1013395   -0.6999869    -0.0882563   -0.6917387    -0.6572906    0.0510977 
   6.177500000    -0.6791146    0.0188422    -0.1007817   -0.6995613    -0.0871755   -0.6913705    -0.6578591    0.0529077 
   6.180000000    -0.6799320    0.0205416    -0.0996862   -0.6986291    -0.0862245   -0.6906788    -0.6583337    0.0538491 
   6.182500000    -0.6805329    0.0214650    -0.0985819   -0.6979747    -0.0846678   -0.6903404    -0.6591745    0.0549309 
   6.185000000    -0.6812137    0.0223275    -0.0968358   -0.6971942    -0.0837343   -0.6896293    -0.6602669    0.0554465 
   6.187500000    -0.6818714    0.0240041    -0.0971483   -0.6965585    -0.0828168   -0.6894130    -0.6607193    0.0564696 
   6.190000000    -0.6823900    0.0250438    -0.0954094   -0.6963699    -0.0812001   -0.6894414    -0.6611638    0.0573973 
   6.192500000    -0.6827435    0.0268280    -0.0935591   -0.6952540    -0.0792739   -0.6891064    -0.6620240    0.0583539 
   6.195000000    -0.6827599    0.0284808    -0.0925076   -0.6949251    -0.0780469   -0.6884590    -0.6621869    0.0598547 
   6.197500000    -0.6824551    0.0297218    -0.0907383   -0.6942523    -0.0764202   -0.6880087    -0.6625695    0.0597496 
   6.200000000    -0.6825908    0.0308026    -0.0895775   -0.6937454    -0.0751628   -0.6879554    -0.6629847    0.0604011 
   6.202500000    -0.6828170    0.0318854    -0.0890908   -0.6934087    -0.0738944   -0.6876270    -0.6627414    0.0608006 
   6.205000000    -0.6827685    0.0332075    -0.0878486   -0.6930199    -0.0722480   -0.6876812    -0.6628832    0.0611896 
   6.207500000    -0.6821976    0.0353419    -0.0863350   -0.6931574    -0.0712037   -0.6877721    -0.6631721    0.0624785 
   6.210000000    -0.6817535    0.0373055    -0.0849028   -0.6926548    -0.0695762   -0.6880225    -0.6635333    0.0634378 
   6.212500000    -0.6821681    0.0390091    -0.0835421   -0.6928088    -0.0680460   -0.6879560    -0.6643863    0.0641857 
   6.215000000    -0.6836285    0.0401343    -0.0815662   -0.6928713    -0.0670173   -0.6884062    -0.6647732    0.0643807 
   6.217500000    -0.6839318    0.0413784    -0.0814503   -0.6931816    -0.0655309   -0.6887032    -0.6648174    0.0648758 
   6.220000000    -0.6818496    0.0431975    -0.0793358   -0.6934615    -0.0641093   -0.6891507    -0.6648626    0.0655100 
   6.222500000    -0.6792747    0.0460821    -0.0778235   -0.6936944    -0.0625746   -0.6894149    -0.6653263    0.0667305 
   6.225000000    -0.6797208    0.0486993    -0.0760451   -0.6946214    -0.0610818   -0.6903074    -0.6666582    0.0683582 
   6.227500000    -0.6804045    0.0493281    -0.0743485   -0.6949385    -0.0595501   -0.6910166    -0.6674738    0.0695150 
   6.230000000    -0.6806762    0.0502882    -0.0725450   -0.6960832    -0.0580496   -0.6918949    -0.6685447    0.0703464 
   6.232500000    -0.6805891    0.0523522    -0.0712534   -0.6963754    -0.0573021   -0.6928988    -0.6693435    0.0712838 
   6.235000000    -0.6796978    0.0548079    -0.0705109   -0.6977383    -0.0559239   -0.6938879    -0.6709573    0.0726655 
   6.237500000    -0.6782027    0.0573129    -0.0684328   -0.6982828    -0.0543420   -0.6951091    -0.6722962    0.0744555 
   6.240000000    -0.6782947    0.0601227    -0.0669925   -0.6994776    -0.0528145   -0.6964818    -0.6724422    0.0767892 
   6.242500000    -0.6778067    0.0625331    -0.0657080   -0.7005309    -0.0519794   -0.6973163    -0.6728374    0.0794010 
   6.245000000    -0.6773669    0.0648925    -0.0646166   -0.7014291    -0.0507318   -0.6984580    -0.6738381    0.0820692 
   6.247500000    -0.6769847    0.0677252    -0.0633935   -0.7022134    -0.0501813   -0.6999680    -0.6753226    0.0844370 
   6.250000000    -0.6763518    0.0697268    -0.0632641   -0.7032704    -0.0491642   -0.7011964    -0.6763172    0.0862761 
   6.252500000    -0.6754842    0.0723111    -0.0625849   -0.7046077    -0.0482535   -0.7030806    -0.6779088    0.0891671 
   6.255000000    -0.6753900    0.0753312    -0.0610507   -0.7057151    -0.0471406   -0.7045447    -0.6789891    0.0918194 
   6.257500000    -0.6744225    0.0774971    -0.0602649   -0.7071997    -0.0460104   -0.7057986    -0.6799530    0.0952672 
   6.260000000    -0.6736964    0.0798022    -0.0597205   -0.7082250    -0.0452838   -0.7067078    -0.6808364    0.0977036 
   6.262500000    -0.6730821    0.0817186    -0.0594598   -0.7095500    -0.0446037   -0.7082257    -0.6814363    0.1005021 
   6.265000000    -0.6724399    0.0838730    -0.0592655   -0.7103407    -0.0446102   -0.7095702    -0.6819857    0.1032814 
   6.267500000    -0.6713391    0.0857772    -0.0584256   -0.7114658    -0.0439551   -0.7106993    -0.6827746    0.1069087 
   6.270000000    -0.6705717    0.0879112    -0.0584795   -0.7127050    -0.0434542   -0.7121195    -0.6834996    0.1101852 
   6.272500000    -0.6692978    0.0892741    -0.0576048   -0.7138155    -0.0429211   -0.7130633    -0.6838176    0.1128335 
   6.275000000    -0.6683629    0.0901843    -0.0574533   -0.7153937    -0.0428595   -0.7142873    -0.6838138    0.1156465 
   6.277500000    -0.6672802    0.0914889    -0.0579411   -0.7163945    -0.0428101   -0.7154320    -0.6838871    0.1185931 
   6.280000000    -0.6664806    0.0923332    -0.0574787   -0.7181376    -0.0427182   -0.7170134    -0.6843884    0.1206069 
   6.282500000    -0.6652437    0.0940892    -0.0568895   -0.7195944    -0.0429490   -0.7181765    -0.6847312    0.1229249 
   6.285000000    -0.6642826    0.0952937    -0.0567546   -0.7204519    -0.0426140   -0.7191654    -0.6846806    0.1261357 
   6.287500000    -0.6635538    0.0964305    -0.0569643   -0.7212446    -0.0428321   -0.7204145    -0.6844487    0.1281209 
   6.290000000    -0.6626053    0.0969291    -0.0573707   -0.7224489    -0.0431003   -0.7215103    -0.6841742    0.1301374 
   6.292500000    -0.6618127    0.0974316    -0.0567614   -0.7244859    -0.0425475   -0.7227794    -0.6842015    0.1325966 
   6.295000000    -0.6607863    0.0978512    -0.0564636   -0.7257867    -0.0423545   -0.7240326    -0.6841438    0.1346947 
   6.297500000    -0.6597498    0.0982981    -0.0561647   -0.7259265    -0.0426278   -0.7251557    -0.6838751    0.1368300 
   6.300000000    -0.6589950    0.0988798    -0.0560591   -0.7266910    -0.0420764   -0.7266394    -0.6833709    0.1395216 
   6.302500000    -0.6578019    0.0990017    -0.0568728   -0.7273424    -0.0422996   -0.7275593    -0.6823552    0.1417576 
   6.305000000    -0.6571789    0.0993301    -0.0564826   -0.7283948    -0.0418017   -0.7286766    -0.6815190    0.1433821 
   6.307500000    -0.6560723    0.0994091    -0.0564437   -0.7297045    -0.0418461   -0.7299778    -0.6807493    0.1451395 
   6.310000000    -0.6547580    0.0995902    -0.0564394   -0.7307274    -0.0414110   -0.7313375    -0.6799600    0.1462654 
   6.312500000    -0.6543562    0.0998433    -0.0564014   -0.7318360    -0.0409798   -0.7329243    -0.6793956    0.1482057 
   6.315000000    -0.6534175    0.0995377    -0.0569842   -0.7325729    -0.0409853   -0.7344351    -0.6784817    0.1492176 
   6.317500000    -0.6523719    0.0992970    -0.0550471   -0.7334479    -0.0416609   -0.7350067    -0.6774213    0.1501788 
   6.320000000    -0.6515849    0.0987832    -0.0579567   -0.7343619    -0.0383210   -0.7365611    -0.6766233    0.1510342 
   6.322500000    -0.6500764    0.0985522    -0.0570834   -0.7354291    -0.0408068   -0.7377409    -0.6750631    0.1514803 
   6.325000000    -0.6493073    0.0986329    -0.0570242   -0.7365505    -0.0406434   -0.7391825    -0.6741596    0.1530804 
   6.327500000    -0.6482874    0.0984139    -0.0575524   -0.7383639    -0.0405264   -0.7401595    -0.6727263    0.1535041 
   6.330000000    -0.6468561    0.0977255    -0.0583282   -0.7394345    -0.0408728   -0.7420601    -0.6710129    0.1546192 
   6.332500000    -0.6459845    0.0973348    -0.0580915   -0.7402987    -0.0408937   -0.7432732    -0.6694147    0.1556312 
   6.335000000    -0.6444452    0.0969600    -0.0577772   -0.7412607    -0.0417732   -0.7442346    -0.6677746    0.1561071 
   6.337500000    -0.6430146    0.0974229    -0.0582357   -0.7423918    -0.0417172   -0.7461115    -0.6658723    0.1574896 
   6.340000000    -0.6414756    0.0975872    -0.0581606   -0.7437234    -0.0420487   -0.7471291    -0.6648979    0.1582132 
   6.342500000    -0.6399345    0.0978720    -0.0583170   -0.7447723    -0.0425935   -0.7483162    -0.6629923    0.1587945 
   6.345000000    -0.6381695    0.0984318    -0.0597288   -0.7465706    -0.0431100   -0.7494739    -0.6613550    0.1596022 
   6.347500000    -0.6365868    0.0984715    -0.0598567   -0.7477291    -0.0431966   -0.7507684    -0.6595019    0.1602080 
   6.350000000    -0.6346656    0.0985195    -0.0596998   -0.7484673    -0.0443850   -0.7523335    -0.6575247    0.1605903 
   6.352500000    -0.6330249    0.0992836    -0.0595193   -0.7493201    -0.0448666   -0.7534436    -0.6563011    0.1617525 
   6.355000000    -0.6307788    0.1004590    -0.0599416   -0.7503030    -0.0451515   -0.7551398    -0.6547189    0.1630307 
   6.357500000    -0.6285018    0.1011114    -0.0596413   -0.7511879    -0.0453733   -0.7561063    -0.6527637    0.1644579 
   6.360000000    -0.6265966    0.1021517    -0.0598832   -0.7522380    -0.0463392   -0.7571904    -0.6503591    0.1650719 
   6.362500000    -0.6248074    0.1031526    -0.0614207   -0.7533122    -0.0470282   -0.7586383    -0.6485817    0.1660728 
   6.365000000    -0.6229641    0.1037558    -0.0616948   -0.7543405    -0.0471427   -0.7600734    -0.6469735    0.1673445 
   6.367500000    -0.6215896    0.1042457    -0.0620986   -0.7548304    -0.0481140   -0.7614235    -0.6460279    0.1685675 
   6.370000000    -0.6198179    0.1062413    -0.0625227   -0.7552043    -0.0491763   -0.7623600    -0.6439202    0.1699899 
   6.372500000    -0.6173579    0.1076251    -0.0630972   -0.7557412    -0.0496497   -0.7640240    -0.6420774    0.1710380 
   6.375000000    -0.6151834    0.1088325    -0.0628934   -0.7563537    -0.0498640   -0.7649331    -0.6403736    0.1718755 
   6.377500000    -0.6134014    0.1099252    -0.0644745   -0.7576841    -0.0505717   -0.7654725    -0.6386986    0.1727268 
   6.380000000    -0.6118512    0.1109095    -0.0649766   -0.7587060    -0.0514494   -0.7668464    -0.6373883    0.1735187 
   6.382500000    -0.6101427    0.1120128    -0.0653935   -0.7593194    -0.0520882   -0.7680706    -0.6362271    0.1749430 
   6.385000000    -0.6085739    0.1129283    -0.0660936   -0.7597843    -0.0534970   -0.7686172    -0.6343555    0.1765086 
   6.387500000    -0.6067632    0.1142205    -0.0669453   -0.7611688    -0.0540520   -0.7696862    -0.6330121    0.1764673 
   6.390000000    -0.6051894    0.1149317    -0.0677520   -0.7615757    -0.0543967   -0.7710260    -0.6314294    0.1772497 
