! MS46122B
! 1919307/90821646
! 7/29/2022 2:04:20 PM
! C:\USERS\PC_\DESKTOP\MEDICIONES\BANCHA ESTRECHA\6_65_GHZ\S11_S21_ABS44_1002CL.S2P
! CHANNEL.1
! TR.MEASUREMENT
! CORRECTED.DATA
# GHZ S RI R 50.0
! FREQ.GHZ         S11RE         S11IM         S21RE         S21IM         S12RE         S12IM         S22RE         S22IM         
!; PortSelection: Port_12
   6.000000000    -0.6753443    0.0330457    -0.1579200   -0.7160463    -0.1516096   -0.7107230    -0.6322812    0.0488139 
   6.002500000    -0.6774251    0.0357665    -0.1580527   -0.7137926    -0.1522639   -0.7093724    -0.6329836    0.0491669 
   6.005000000    -0.6798726    0.0361930    -0.1595003   -0.7127580    -0.1537265   -0.7078010    -0.6333306    0.0490709 
   6.007500000    -0.6816282    0.0359003    -0.1601162   -0.7114394    -0.1555833   -0.7066099    -0.6339855    0.0487527 
   6.010000000    -0.6836366    0.0349800    -0.1613371   -0.7096132    -0.1568605   -0.7051982    -0.6343327    0.0484044 
   6.012500000    -0.6857555    0.0339119    -0.1622606   -0.7075335    -0.1584652   -0.7035431    -0.6348326    0.0484527 
   6.015000000    -0.6874762    0.0329338    -0.1633397   -0.7059526    -0.1598500   -0.7017918    -0.6350762    0.0489025 
   6.017500000    -0.6895953    0.0325976    -0.1648499   -0.7046679    -0.1613671   -0.7002025    -0.6363783    0.0495759 
   6.020000000    -0.6916103    0.0320449    -0.1653129   -0.7029235    -0.1624063   -0.6983918    -0.6366200    0.0496920 
   6.022500000    -0.6933770    0.0315053    -0.1664824   -0.7007493    -0.1638074   -0.6967755    -0.6371961    0.0499576 
   6.025000000    -0.6957304    0.0311429    -0.1666297   -0.6989250    -0.1649517   -0.6944787    -0.6377198    0.0494504 
   6.027500000    -0.6978654    0.0304879    -0.1673656   -0.6969244    -0.1656182   -0.6924402    -0.6385048    0.0498558 
   6.030000000    -0.7000606    0.0301708    -0.1690620   -0.6950569    -0.1661065   -0.6905929    -0.6389203    0.0503112 
   6.032500000    -0.7021455    0.0299323    -0.1692220   -0.6935642    -0.1668048   -0.6892235    -0.6393277    0.0505435 
   6.035000000    -0.7041968    0.0297358    -0.1696699   -0.6919077    -0.1673514   -0.6868330    -0.6396108    0.0505862 
   6.037500000    -0.7063501    0.0291620    -0.1700840   -0.6898823    -0.1679403   -0.6842203    -0.6406018    0.0503208 
   6.040000000    -0.7081022    0.0288870    -0.1701298   -0.6874141    -0.1678917   -0.6821462    -0.6420832    0.0503234 
   6.042500000    -0.7100196    0.0287016    -0.1695246   -0.6854372    -0.1679155   -0.6796473    -0.6428541    0.0500712 
   6.045000000    -0.7117423    0.0290579    -0.1695920   -0.6834038    -0.1693940   -0.6764667    -0.6433542    0.0485829 
   6.047500000    -0.7142697    0.0291553    -0.1694230   -0.6815608    -0.1693690   -0.6748527    -0.6442594    0.0479378 
   6.050000000    -0.7155420    0.0282682    -0.1713530   -0.6791296    -0.1678304   -0.6724775    -0.6460153    0.0476840 
   6.052500000    -0.7179692    0.0286616    -0.1714740   -0.6773764    -0.1678999   -0.6702367    -0.6475489    0.0466614 
   6.055000000    -0.7195842    0.0291827    -0.1712359   -0.6760063    -0.1683090   -0.6679374    -0.6485605    0.0458526 
   6.057500000    -0.7211383    0.0297580    -0.1718552   -0.6735348    -0.1678772   -0.6659302    -0.6502188    0.0449812 
   6.060000000    -0.7226126    0.0306249    -0.1721752   -0.6717725    -0.1678319   -0.6637751    -0.6517882    0.0446198 
   6.062500000    -0.7237949    0.0315063    -0.1722435   -0.6700999    -0.1674632   -0.6612337    -0.6527219    0.0435283 
   6.065000000    -0.7253523    0.0320206    -0.1715873   -0.6687675    -0.1668780   -0.6595696    -0.6535622    0.0428859 
   6.067500000    -0.7265350    0.0324710    -0.1710757   -0.6675187    -0.1665858   -0.6580806    -0.6544594    0.0421017 
   6.070000000    -0.7277750    0.0333101    -0.1705806   -0.6658210    -0.1661818   -0.6568416    -0.6560658    0.0417945 
   6.072500000    -0.7286054    0.0343322    -0.1710992   -0.6641221    -0.1656920   -0.6550381    -0.6570355    0.0408051 
   6.075000000    -0.7286612    0.0351880    -0.1710919   -0.6625376    -0.1649253   -0.6531838    -0.6584899    0.0405609 
   6.077500000    -0.7297593    0.0366881    -0.1700419   -0.6611295    -0.1642695   -0.6516488    -0.6600097    0.0401583 
   6.080000000    -0.7302319    0.0383766    -0.1696439   -0.6597140    -0.1638229   -0.6500902    -0.6605877    0.0402655 
   6.082500000    -0.7310455    0.0394673    -0.1684781   -0.6585395    -0.1631975   -0.6486909    -0.6617143    0.0401268 
   6.085000000    -0.7314461    0.0408505    -0.1676006   -0.6576035    -0.1620121   -0.6480384    -0.6631345    0.0397431 
   6.087500000    -0.7312111    0.0422315    -0.1677113   -0.6557855    -0.1610007   -0.6471120    -0.6651210    0.0401930 
   6.090000000    -0.7308494    0.0437171    -0.1674791   -0.6546752    -0.1597205   -0.6453370    -0.6666361    0.0405774 
   6.092500000    -0.7311139    0.0458814    -0.1660387   -0.6532162    -0.1587207   -0.6439618    -0.6678280    0.0411746 
   6.095000000    -0.7312411    0.0478619    -0.1653051   -0.6518207    -0.1580780   -0.6425726    -0.6688134    0.0418793 
   6.097500000    -0.7308528    0.0496340    -0.1646274   -0.6505587    -0.1572705   -0.6414003    -0.6704318    0.0419341 
   6.100000000    -0.7309618    0.0515951    -0.1633504   -0.6494192    -0.1560898   -0.6401177    -0.6717867    0.0426167 
   6.102500000    -0.7305006    0.0534522    -0.1629535   -0.6483344    -0.1547670   -0.6392341    -0.6739347    0.0438098 
   6.105000000    -0.7306747    0.0553916    -0.1629672   -0.6476160    -0.1535809   -0.6384064    -0.6755594    0.0452041 
   6.107500000    -0.7301652    0.0581374    -0.1620117   -0.6460100    -0.1527029   -0.6369494    -0.6766535    0.0463156 
   6.110000000    -0.7298324    0.0601412    -0.1607093   -0.6452150    -0.1532520   -0.6355006    -0.6783625    0.0482227 
   6.112500000    -0.7301505    0.0620905    -0.1615579   -0.6441640    -0.1504495   -0.6360308    -0.6795651    0.0498120 
   6.115000000    -0.7303745    0.0640065    -0.1606897   -0.6432503    -0.1501094   -0.6348523    -0.6818857    0.0509666 
   6.117500000    -0.7296330    0.0656830    -0.1596059   -0.6420937    -0.1499342   -0.6338225    -0.6826407    0.0525030 
   6.120000000    -0.7295140    0.0674398    -0.1590926   -0.6415106    -0.1481892   -0.6332470    -0.6847084    0.0546612 
   6.122500000    -0.7292830    0.0695935    -0.1573371   -0.6408207    -0.1473128   -0.6324887    -0.6853946    0.0569779 
   6.125000000    -0.7289687    0.0715407    -0.1568427   -0.6401090    -0.1466272   -0.6320890    -0.6871140    0.0586872 
   6.127500000    -0.7284608    0.0737607    -0.1558800   -0.6394859    -0.1464311   -0.6315321    -0.6885530    0.0607720 
   6.130000000    -0.7282854    0.0752980    -0.1548095   -0.6390728    -0.1452049   -0.6311615    -0.6899725    0.0627606 
   6.132500000    -0.7282236    0.0765952    -0.1549225   -0.6384556    -0.1438928   -0.6306393    -0.6918427    0.0648683 
   6.135000000    -0.7278117    0.0782857    -0.1531927   -0.6378793    -0.1426496   -0.6302131    -0.6931691    0.0669794 
   6.137500000    -0.7279404    0.0800363    -0.1522672   -0.6370862    -0.1412702   -0.6295998    -0.6940442    0.0696007 
   6.140000000    -0.7277443    0.0812968    -0.1510507   -0.6366569    -0.1408888   -0.6288232    -0.6951252    0.0721718 
   6.142500000    -0.7276376    0.0827178    -0.1500048   -0.6359925    -0.1399403   -0.6282939    -0.6963033    0.0738594 
   6.145000000    -0.7271909    0.0839242    -0.1490732   -0.6355556    -0.1387470   -0.6278879    -0.6974822    0.0758739 
   6.147500000    -0.7273621    0.0855086    -0.1483996   -0.6347589    -0.1374155   -0.6274253    -0.6993359    0.0786975 
   6.150000000    -0.7273763    0.0868892    -0.1473692   -0.6342883    -0.1359718   -0.6265715    -0.7004688    0.0798729 
   6.152500000    -0.7277601    0.0882747    -0.1468182   -0.6336176    -0.1353067   -0.6258802    -0.7007843    0.0829051 
   6.155000000    -0.7279623    0.0898094    -0.1459683   -0.6331367    -0.1345600   -0.6252813    -0.7020598    0.0851001 
   6.157500000    -0.7281526    0.0909139    -0.1450368   -0.6321820    -0.1339201   -0.6248114    -0.7035785    0.0867743 
   6.160000000    -0.7287475    0.0920469    -0.1451887   -0.6316562    -0.1332064   -0.6242815    -0.7042745    0.0886432 
   6.162500000    -0.7292280    0.0932769    -0.1436624   -0.6311257    -0.1318793   -0.6237945    -0.7056894    0.0907592 
   6.165000000    -0.7297032    0.0945363    -0.1432993   -0.6306253    -0.1308206   -0.6233790    -0.7069733    0.0918983 
   6.167500000    -0.7303453    0.0953336    -0.1422416   -0.6302634    -0.1299894   -0.6225434    -0.7070453    0.0936906 
   6.170000000    -0.7310577    0.0966139    -0.1415950   -0.6297804    -0.1297505   -0.6221709    -0.7078114    0.0950254 
   6.172500000    -0.7318343    0.0974257    -0.1416666   -0.6297360    -0.1286184   -0.6221881    -0.7087488    0.0967937 
   6.175000000    -0.7324766    0.0984695    -0.1405409   -0.6292141    -0.1272459   -0.6221267    -0.7094800    0.0974755 
   6.177500000    -0.7333860    0.1000104    -0.1398322   -0.6289320    -0.1264858   -0.6218647    -0.7110597    0.0995065 
   6.180000000    -0.7340298    0.1009240    -0.1387072   -0.6284946    -0.1253403   -0.6216698    -0.7107603    0.1010315 
   6.182500000    -0.7344891    0.1016265    -0.1376020   -0.6282288    -0.1241451   -0.6220485    -0.7117280    0.1014171 
   6.185000000    -0.7353642    0.1024165    -0.1365601   -0.6275255    -0.1231900   -0.6214503    -0.7120471    0.1019280 
   6.187500000    -0.7353621    0.1035430    -0.1362263   -0.6274083    -0.1220882   -0.6214216    -0.7122353    0.1024466 
   6.190000000    -0.7356719    0.1043521    -0.1347832   -0.6270498    -0.1206961   -0.6214210    -0.7124822    0.1031632 
   6.192500000    -0.7358251    0.1060043    -0.1330834   -0.6263457    -0.1191498   -0.6212859    -0.7131398    0.1039071 
   6.195000000    -0.7364260    0.1067379    -0.1317347   -0.6261514    -0.1178104   -0.6209481    -0.7132316    0.1048167 
   6.197500000    -0.7361354    0.1077923    -0.1300039   -0.6256968    -0.1164733   -0.6210619    -0.7133691    0.1043664 
   6.200000000    -0.7362489    0.1083277    -0.1294290   -0.6250634    -0.1152469   -0.6210597    -0.7135832    0.1043392 
   6.202500000    -0.7363738    0.1088296    -0.1281878   -0.6251397    -0.1136370   -0.6210303    -0.7134470    0.1041343 
   6.205000000    -0.7364337    0.1102425    -0.1270170   -0.6250128    -0.1121520   -0.6210176    -0.7139258    0.1047206 
   6.207500000    -0.7356805    0.1119607    -0.1256708   -0.6253378    -0.1107910   -0.6214107    -0.7139219    0.1059079 
   6.210000000    -0.7346979    0.1134654    -0.1239721   -0.6248459    -0.1093436   -0.6218527    -0.7142727    0.1057793 
   6.212500000    -0.7351853    0.1150124    -0.1225564   -0.6252380    -0.1079200   -0.6218947    -0.7147084    0.1062734 
   6.215000000    -0.7367009    0.1155691    -0.1213541   -0.6253375    -0.1072375   -0.6224585    -0.7150367    0.1059310 
   6.217500000    -0.7369458    0.1166706    -0.1205899   -0.6259232    -0.1053656   -0.6230733    -0.7151915    0.1061344 
   6.220000000    -0.7354096    0.1184196    -0.1185313   -0.6264910    -0.1039811   -0.6236339    -0.7163389    0.1072775 
   6.222500000    -0.7329167    0.1207921    -0.1170408   -0.6270706    -0.1024416   -0.6241938    -0.7165648    0.1078568 
   6.225000000    -0.7332894    0.1233091    -0.1152081   -0.6281753    -0.1010538   -0.6252260    -0.7172418    0.1088592 
   6.227500000    -0.7337215    0.1238125    -0.1135530   -0.6286089    -0.0994136   -0.6260817    -0.7183975    0.1093964 
   6.230000000    -0.7341951    0.1242365    -0.1122351   -0.6296536    -0.0984868   -0.6272299    -0.7195026    0.1101059 
   6.232500000    -0.7339467    0.1261355    -0.1111459   -0.6304958    -0.0975322   -0.6282439    -0.7206763    0.1109937 
   6.235000000    -0.7334095    0.1284651    -0.1100565   -0.6317518    -0.0961342   -0.6293159    -0.7223352    0.1125402 
   6.237500000    -0.7327496    0.1310250    -0.1080114   -0.6327295    -0.0947824   -0.6306118    -0.7236270    0.1135041 
   6.240000000    -0.7324918    0.1340634    -0.1068747   -0.6340730    -0.0934060   -0.6318096    -0.7242245    0.1154146 
   6.242500000    -0.7322919    0.1356365    -0.1054291   -0.6351972    -0.0926316   -0.6330814    -0.7245592    0.1179488 
   6.245000000    -0.7319458    0.1380012    -0.1044802   -0.6362438    -0.0913408   -0.6344275    -0.7256241    0.1204280 
   6.247500000    -0.7315660    0.1402013    -0.1040493   -0.6369457    -0.0910132   -0.6360330    -0.7273244    0.1225778 
   6.250000000    -0.7310600    0.1422031    -0.1033222   -0.6384001    -0.0902225   -0.6373533    -0.7289475    0.1246012 
   6.252500000    -0.7301053    0.1452688    -0.1027638   -0.6395779    -0.0891269   -0.6388240    -0.7301432    0.1269475 
   6.255000000    -0.7298288    0.1478081    -0.1014555   -0.6409746    -0.0881460   -0.6404446    -0.7314162    0.1294109 
   6.257500000    -0.7290215    0.1498034    -0.1006069   -0.6425383    -0.0872418   -0.6418164    -0.7326283    0.1327839 
   6.260000000    -0.7284685    0.1518078    -0.0999760   -0.6436858    -0.0865801   -0.6428982    -0.7335892    0.1349159 
   6.262500000    -0.7280192    0.1538726    -0.1005989   -0.6448311    -0.0859978   -0.6445019    -0.7344074    0.1375885 
   6.265000000    -0.7273391    0.1557114    -0.0996663   -0.6460384    -0.0861507   -0.6460886    -0.7353975    0.1404077 
   6.267500000    -0.7264650    0.1577999    -0.0991455   -0.6471361    -0.0852969   -0.6473872    -0.7366629    0.1439483 
   6.270000000    -0.7257040    0.1596821    -0.0992724   -0.6484293    -0.0851252   -0.6489450    -0.7375600    0.1465004 
   6.272500000    -0.7246221    0.1608005    -0.0982536   -0.6497897    -0.0845112   -0.6500065    -0.7374098    0.1494033 
   6.275000000    -0.7235467    0.1619449    -0.0985778   -0.6512477    -0.0844657   -0.6512951    -0.7379706    0.1520635 
   6.277500000    -0.7225686    0.1630457    -0.0989053   -0.6524083    -0.0848298   -0.6523970    -0.7384626    0.1546105 
   6.280000000    -0.7219985    0.1640491    -0.0984467   -0.6538148    -0.0847026   -0.6540390    -0.7389197    0.1568620 
   6.282500000    -0.7211231    0.1659099    -0.0980353   -0.6548773    -0.0845337   -0.6554505    -0.7390616    0.1594393 
   6.285000000    -0.7202247    0.1671551    -0.0978607   -0.6562813    -0.0842644   -0.6565323    -0.7390159    0.1620567 
   6.287500000    -0.7193913    0.1679456    -0.0983531   -0.6575534    -0.0850800   -0.6579754    -0.7395306    0.1640294 
   6.290000000    -0.7184918    0.1684557    -0.0986167   -0.6585914    -0.0848829   -0.6591467    -0.7394018    0.1658969 
   6.292500000    -0.7176996    0.1688213    -0.0980396   -0.6601170    -0.0848676   -0.6605420    -0.7394112    0.1680750 
   6.295000000    -0.7167859    0.1695227    -0.0980388   -0.6614231    -0.0845829   -0.6618248    -0.7390349    0.1702818 
   6.297500000    -0.7161422    0.1698305    -0.0974253   -0.6621043    -0.0844772   -0.6631697    -0.7392482    0.1726621 
   6.300000000    -0.7151937    0.1702389    -0.0982078   -0.6630781    -0.0846665   -0.6649180    -0.7387111    0.1749968 
   6.302500000    -0.7141762    0.1703006    -0.0982374   -0.6640518    -0.0845930   -0.6658447    -0.7379786    0.1770150 
   6.305000000    -0.7133422    0.1705852    -0.0981399   -0.6650577    -0.0847014   -0.6669606    -0.7373412    0.1786734 
   6.307500000    -0.7124993    0.1711750    -0.0980532   -0.6665116    -0.0845837   -0.6683371    -0.7366751    0.1802721 
   6.310000000    -0.7117805    0.1711371    -0.0979653   -0.6675888    -0.0840564   -0.6699396    -0.7364715    0.1819023 
   6.312500000    -0.7111137    0.1711523    -0.0984159   -0.6688038    -0.0838508   -0.6713958    -0.7357968    0.1832360 
   6.315000000    -0.7101100    0.1708716    -0.0988243   -0.6695771    -0.0841208   -0.6731998    -0.7352619    0.1842264 
   6.317500000    -0.7091417    0.1705824    -0.0971001   -0.6705426    -0.0848024   -0.6736796    -0.7343448    0.1851830 
   6.320000000    -0.7085624    0.1699360    -0.1005532   -0.6714475    -0.0819230   -0.6754566    -0.7336387    0.1860704 
   6.322500000    -0.7074170    0.1702939    -0.0990348   -0.6727375    -0.0843355   -0.6766121    -0.7325749    0.1868461 
   6.325000000    -0.7065493    0.1699247    -0.0990078   -0.6739354    -0.0842383   -0.6779462    -0.7322115    0.1880655 
   6.327500000    -0.7055408    0.1694582    -0.1002487   -0.6755735    -0.0842979   -0.6790583    -0.7311095    0.1885218 
   6.330000000    -0.7044073    0.1689355    -0.1003593   -0.6768551    -0.0849413   -0.6803020    -0.7295206    0.1893942 
   6.332500000    -0.7035657    0.1684184    -0.1003282   -0.6776440    -0.0854969   -0.6814548    -0.7280641    0.1902236 
   6.335000000    -0.7023008    0.1684482    -0.1001913   -0.6788264    -0.0857733   -0.6828552    -0.7270383    0.1914300 
   6.337500000    -0.7006915    0.1686050    -0.1005554   -0.6798493    -0.0859867   -0.6846512    -0.7247893    0.1928007 
   6.340000000    -0.6994295    0.1687725    -0.1005396   -0.6813761    -0.0864796   -0.6855178    -0.7234808    0.1930885 
   6.342500000    -0.6985703    0.1688010    -0.1015729   -0.6822349    -0.0871545   -0.6867577    -0.7216228    0.1935614 
   6.345000000    -0.6968163    0.1693683    -0.1024031   -0.6840388    -0.0876399   -0.6883296    -0.7201530    0.1944564 
   6.347500000    -0.6951159    0.1697581    -0.1026602   -0.6852968    -0.0883499   -0.6897391    -0.7184876    0.1950490 
   6.350000000    -0.6931735    0.1702273    -0.1027185   -0.6862286    -0.0891421   -0.6911629    -0.7178823    0.1961320 
   6.352500000    -0.6914859    0.1708700    -0.1026784   -0.6871566    -0.0896044   -0.6922222    -0.7165142    0.1966836 
   6.355000000    -0.6895186    0.1720242    -0.1028799   -0.6881147    -0.0900320   -0.6937597    -0.7141570    0.1980682 
   6.357500000    -0.6877832    0.1728356    -0.1029850   -0.6890723    -0.0905309   -0.6947119    -0.7123139    0.1995567 
   6.360000000    -0.6860769    0.1739027    -0.1039437   -0.6899590    -0.0912538   -0.6959339    -0.7100943    0.2001468 
   6.362500000    -0.6841825    0.1748285    -0.1049253   -0.6911005    -0.0919857   -0.6973276    -0.7086158    0.2012988 
   6.365000000    -0.6819098    0.1757465    -0.1052834   -0.6920408    -0.0924059   -0.6987799    -0.7075571    0.2031014 
   6.367500000    -0.6808706    0.1769677    -0.1058384   -0.6926058    -0.0936905   -0.6998715    -0.7063754    0.2037173 
   6.370000000    -0.6787086    0.1789561    -0.1060262   -0.6930819    -0.0943252   -0.7008589    -0.7046808    0.2050489 
   6.372500000    -0.6764989    0.1801904    -0.1067340   -0.6936316    -0.0950173   -0.7020491    -0.7027187    0.2063869 
   6.375000000    -0.6745613    0.1815507    -0.1071614   -0.6942236    -0.0954390   -0.7028674    -0.7012178    0.2072074 
   6.377500000    -0.6726936    0.1829914    -0.1082732   -0.6956288    -0.0960530   -0.7035466    -0.6997073    0.2080062 
   6.380000000    -0.6712711    0.1840049    -0.1089027   -0.6966300    -0.0969657   -0.7048941    -0.6987252    0.2091911 
   6.382500000    -0.6695650    0.1852102    -0.1096331   -0.6970322    -0.0977255   -0.7057294    -0.6980386    0.2108451 
   6.385000000    -0.6681278    0.1867814    -0.1101215   -0.6977615    -0.0990602   -0.7071272    -0.6966292    0.2115275 
   6.387500000    -0.6664457    0.1875975    -0.1110298   -0.6991448    -0.0997616   -0.7081994    -0.6949207    0.2121482 
   6.390000000    -0.6648995    0.1885238    -0.1121085   -0.6995312    -0.1001253   -0.7096077    -0.6939785    0.2128700 
