! MS46122B
! 1919307/90821646
! 6/13/2022 11:58:03 AM
! C:\USERS\PC_\DESKTOP\CARACTERIZACION\MEDICIONES\BANCHA ESTRECHA\6_65_GHZ\S11_S21_ABS65_1002CL.S2P
! CHANNEL.1
! TR.MEASUREMENT
! CORRECTED.DATA
# GHZ S RI R 50.0
! FREQ.GHZ         S11RE         S11IM         S21RE         S21IM         S12RE         S12IM         S22RE         S22IM         
!; PortSelection: Port_12
   6.000000000    -0.6791997    0.1958129    -0.3051689   -0.6121325    -0.2930815   -0.6088496    -0.6135630    0.2187769 
   6.002500000    -0.6792140    0.1972978    -0.3037486   -0.6110935    -0.2935271   -0.6073551    -0.6132096    0.2196376 
   6.005000000    -0.6807172    0.1972743    -0.3045136   -0.6091857    -0.2943062   -0.6057423    -0.6119062    0.2200550 
   6.007500000    -0.6819708    0.1968577    -0.3044639   -0.6076041    -0.2954649   -0.6040282    -0.6107218    0.2207888 
   6.010000000    -0.6837038    0.1960489    -0.3053070   -0.6059036    -0.2960898   -0.6026133    -0.6098768    0.2219017 
   6.012500000    -0.6854204    0.1952724    -0.3064655   -0.6039971    -0.2971294   -0.6006913    -0.6088813    0.2229711 
   6.015000000    -0.6869524    0.1942320    -0.3064548   -0.6021717    -0.2979153   -0.5988117    -0.6074970    0.2242794 
   6.017500000    -0.6892124    0.1934494    -0.3070790   -0.6007215    -0.2985770   -0.5968670    -0.6067100    0.2256521 
   6.020000000    -0.6910517    0.1929455    -0.3071397   -0.5988688    -0.2993008   -0.5943953    -0.6057866    0.2266961 
   6.022500000    -0.6927885    0.1921905    -0.3072324   -0.5966908    -0.2995019   -0.5926121    -0.6054300    0.2283133 
   6.025000000    -0.6949246    0.1921260    -0.3078699   -0.5944452    -0.2998921   -0.5901899    -0.6050234    0.2291347 
   6.027500000    -0.6970384    0.1920298    -0.3082360   -0.5925894    -0.3001369   -0.5883754    -0.6047670    0.2300633 
   6.030000000    -0.6992074    0.1908711    -0.3076900   -0.5903361    -0.2996246   -0.5862297    -0.6043155    0.2314084 
   6.032500000    -0.7017244    0.1902333    -0.3076683   -0.5886159    -0.2998256   -0.5842098    -0.6038684    0.2325151 
   6.035000000    -0.7036017    0.1896402    -0.3074565   -0.5868627    -0.2994463   -0.5818560    -0.6044825    0.2332096 
   6.037500000    -0.7055719    0.1890177    -0.3070787   -0.5848089    -0.2990315   -0.5796160    -0.6050715    0.2342013 
   6.040000000    -0.7081437    0.1891949    -0.3077265   -0.5820173    -0.2980741   -0.5775239    -0.6057729    0.2342455 
   6.042500000    -0.7102511    0.1886273    -0.3063575   -0.5801374    -0.2973196   -0.5747006    -0.6066016    0.2343432 
   6.045000000    -0.7110835    0.1886238    -0.3058843   -0.5777764    -0.2966793   -0.5722054    -0.6074784    0.2336519 
   6.047500000    -0.7133358    0.1880596    -0.3048623   -0.5760777    -0.2958006   -0.5702338    -0.6084549    0.2330169 
   6.050000000    -0.7158262    0.1872683    -0.3047141   -0.5739247    -0.2946475   -0.5678560    -0.6097763    0.2329691 
   6.052500000    -0.7177246    0.1872558    -0.3038291   -0.5720011    -0.2938699   -0.5657247    -0.6112531    0.2321947 
   6.055000000    -0.7189118    0.1866086    -0.3034633   -0.5700194    -0.2928557   -0.5635213    -0.6125965    0.2312188 
   6.057500000    -0.7211223    0.1875707    -0.3028532   -0.5683491    -0.2918220   -0.5616640    -0.6144577    0.2303752 
   6.060000000    -0.7222964    0.1881186    -0.3014244   -0.5666543    -0.2910950   -0.5599680    -0.6158873    0.2300931 
   6.062500000    -0.7236411    0.1880266    -0.3007088   -0.5649388    -0.2899461   -0.5578824    -0.6170571    0.2282823 
   6.065000000    -0.7248824    0.1880828    -0.2991603   -0.5638302    -0.2881789   -0.5566118    -0.6183395    0.2276162 
   6.067500000    -0.7259186    0.1879208    -0.2982966   -0.5619871    -0.2867283   -0.5556044    -0.6199608    0.2261229 
   6.070000000    -0.7266231    0.1880819    -0.2976840   -0.5608613    -0.2857227   -0.5542644    -0.6212631    0.2255169 
   6.072500000    -0.7275859    0.1888752    -0.2966007   -0.5599094    -0.2841040   -0.5527705    -0.6226634    0.2235485 
   6.075000000    -0.7285227    0.1894460    -0.2949246   -0.5584784    -0.2824176   -0.5515770    -0.6238680    0.2227272 
   6.077500000    -0.7287911    0.1901833    -0.2931087   -0.5575177    -0.2814880   -0.5507097    -0.6249508    0.2217801 
   6.080000000    -0.7293394    0.1909569    -0.2915535   -0.5565065    -0.2796863   -0.5497098    -0.6266545    0.2207435 
   6.082500000    -0.7295707    0.1915437    -0.2903005   -0.5550234    -0.2779519   -0.5489427    -0.6280863    0.2196926 
   6.085000000    -0.7293565    0.1918069    -0.2889621   -0.5547308    -0.2761477   -0.5484819    -0.6296167    0.2189852 
   6.087500000    -0.7292765    0.1928920    -0.2880225   -0.5542174    -0.2742971   -0.5480420    -0.6311037    0.2180336 
   6.090000000    -0.7289622    0.1942895    -0.2860538   -0.5534100    -0.2723960   -0.5471570    -0.6321212    0.2175329 
   6.092500000    -0.7286274    0.1957268    -0.2840716   -0.5526814    -0.2710196   -0.5465230    -0.6328354    0.2170439 
   6.095000000    -0.7287092    0.1968765    -0.2823154   -0.5520144    -0.2695915   -0.5460878    -0.6339824    0.2164072 
   6.097500000    -0.7281039    0.1978901    -0.2814837   -0.5508920    -0.2676515   -0.5457581    -0.6359091    0.2160773 
   6.100000000    -0.7275693    0.1991893    -0.2803861   -0.5507132    -0.2659788   -0.5453104    -0.6369305    0.2163346 
   6.102500000    -0.7269328    0.2003070    -0.2789137   -0.5508753    -0.2640132   -0.5451660    -0.6382681    0.2163009 
   6.105000000    -0.7269462    0.2025698    -0.2775144   -0.5507596    -0.2625463   -0.5451105    -0.6389498    0.2171230 
   6.107500000    -0.7257560    0.2045708    -0.2759932   -0.5500556    -0.2614549   -0.5447425    -0.6392177    0.2173107 
   6.110000000    -0.7252017    0.2059707    -0.2742982   -0.5500988    -0.2604679   -0.5444288    -0.6402422    0.2184053 
   6.112500000    -0.7247255    0.2074743    -0.2738294   -0.5501521    -0.2589190   -0.5448306    -0.6415125    0.2199740 
   6.115000000    -0.7246977    0.2090526    -0.2730689   -0.5498091    -0.2575340   -0.5452253    -0.6424286    0.2208679 
   6.117500000    -0.7241696    0.2104923    -0.2714303   -0.5499142    -0.2566207   -0.5452839    -0.6434447    0.2224226 
   6.120000000    -0.7237270    0.2117778    -0.2705801   -0.5499508    -0.2548197   -0.5454741    -0.6439135    0.2239836 
   6.122500000    -0.7230127    0.2133595    -0.2689345   -0.5504270    -0.2539389   -0.5458680    -0.6445485    0.2255966 
   6.125000000    -0.7225614    0.2147551    -0.2677369   -0.5507671    -0.2531851   -0.5466389    -0.6454664    0.2271330 
   6.127500000    -0.7219314    0.2163954    -0.2675705   -0.5509237    -0.2522995   -0.5470642    -0.6465639    0.2295253 
   6.130000000    -0.7220849    0.2181310    -0.2665659   -0.5514475    -0.2510135   -0.5476896    -0.6474704    0.2320321 
   6.132500000    -0.7220314    0.2191756    -0.2654172   -0.5518330    -0.2498315   -0.5480075    -0.6484563    0.2335235 
   6.135000000    -0.7214912    0.2203196    -0.2640312   -0.5521514    -0.2486025   -0.5484440    -0.6490855    0.2361596 
   6.137500000    -0.7215873    0.2211833    -0.2630820   -0.5524002    -0.2475205   -0.5487216    -0.6495965    0.2386175 
   6.140000000    -0.7214354    0.2219266    -0.2617907   -0.5527441    -0.2471083   -0.5490869    -0.6503325    0.2413613 
   6.142500000    -0.7213781    0.2230716    -0.2618972   -0.5526759    -0.2459891   -0.5493261    -0.6514828    0.2440827 
   6.145000000    -0.7217757    0.2240972    -0.2604518   -0.5529363    -0.2448929   -0.5495970    -0.6523080    0.2467985 
   6.147500000    -0.7214383    0.2253894    -0.2595313   -0.5531726    -0.2437730   -0.5498661    -0.6530232    0.2495876 
   6.150000000    -0.7217323    0.2260181    -0.2590082   -0.5533996    -0.2429619   -0.5496677    -0.6535366    0.2516951 
   6.152500000    -0.7222355    0.2269443    -0.2582168   -0.5535250    -0.2428436   -0.5495433    -0.6542450    0.2544754 
   6.155000000    -0.7224412    0.2276816    -0.2586868   -0.5534303    -0.2420327   -0.5502303    -0.6553006    0.2575587 
   6.157500000    -0.7228329    0.2284345    -0.2578144   -0.5533101    -0.2412432   -0.5501742    -0.6564936    0.2603816 
   6.160000000    -0.7234662    0.2295099    -0.2571113   -0.5533565    -0.2403258   -0.5500199    -0.6573051    0.2623990 
   6.162500000    -0.7238632    0.2300814    -0.2561040   -0.5535129    -0.2393927   -0.5501248    -0.6575530    0.2648263 
   6.165000000    -0.7246748    0.2306440    -0.2556780   -0.5536882    -0.2388900   -0.5505167    -0.6585484    0.2667787 
   6.167500000    -0.7254449    0.2306580    -0.2556241   -0.5534132    -0.2382975   -0.5504550    -0.6593050    0.2683926 
   6.170000000    -0.7259588    0.2312511    -0.2553214   -0.5535122    -0.2376937   -0.5507035    -0.6602354    0.2705291 
   6.172500000    -0.7264377    0.2320205    -0.2543729   -0.5538459    -0.2370816   -0.5512228    -0.6612600    0.2733208 
   6.175000000    -0.7275002    0.2328890    -0.2535055   -0.5537171    -0.2359593   -0.5515705    -0.6623953    0.2746457 
   6.177500000    -0.7283507    0.2335298    -0.2530190   -0.5540324    -0.2351903   -0.5519568    -0.6625199    0.2768357 
   6.180000000    -0.7286063    0.2335972    -0.2522065   -0.5538491    -0.2343975   -0.5521876    -0.6640568    0.2779030 
   6.182500000    -0.7293148    0.2341341    -0.2514333   -0.5539972    -0.2330690   -0.5532733    -0.6645458    0.2791193 
   6.185000000    -0.7296517    0.2342392    -0.2502419   -0.5540469    -0.2323883   -0.5531235    -0.6654523    0.2801966 
   6.187500000    -0.7305236    0.2353521    -0.2492331   -0.5539777    -0.2314955   -0.5535603    -0.6663008    0.2808941 
   6.190000000    -0.7303898    0.2361000    -0.2480468   -0.5543507    -0.2303509   -0.5540781    -0.6659338    0.2824573 
   6.192500000    -0.7304159    0.2366187    -0.2460724   -0.5541820    -0.2288177   -0.5544406    -0.6669104    0.2825864 
   6.195000000    -0.7305604    0.2368627    -0.2456629   -0.5541279    -0.2283392   -0.5545134    -0.6673315    0.2830092 
   6.197500000    -0.7299859    0.2370958    -0.2443114   -0.5543405    -0.2266236   -0.5551987    -0.6678298    0.2824134 
   6.200000000    -0.7298310    0.2373536    -0.2429059   -0.5548009    -0.2250901   -0.5558866    -0.6689830    0.2830994 
   6.202500000    -0.7305016    0.2381411    -0.2411435   -0.5553219    -0.2235182   -0.5564992    -0.6695621    0.2826317 
   6.205000000    -0.7301624    0.2388605    -0.2401018   -0.5557320    -0.2222500   -0.5571912    -0.6692150    0.2831393 
   6.207500000    -0.7284575    0.2405028    -0.2383084   -0.5567042    -0.2209110   -0.5580261    -0.6698281    0.2830957 
   6.210000000    -0.7273952    0.2412243    -0.2373476   -0.5567322    -0.2203496   -0.5591230    -0.6707018    0.2829899 
   6.212500000    -0.7275048    0.2423094    -0.2366816   -0.5579416    -0.2190105   -0.5599868    -0.6713706    0.2831537 
   6.215000000    -0.7289596    0.2432445    -0.2351764   -0.5591966    -0.2176799   -0.5610965    -0.6729250    0.2836328 
   6.217500000    -0.7291915    0.2450844    -0.2337091   -0.5604004    -0.2161430   -0.5624502    -0.6738048    0.2836231 
   6.220000000    -0.7269298    0.2462453    -0.2319881   -0.5616042    -0.2148716   -0.5637390    -0.6738108    0.2843411 
   6.222500000    -0.7241756    0.2490480    -0.2305382   -0.5629678    -0.2136317   -0.5649912    -0.6749040    0.2846306 
   6.225000000    -0.7240095    0.2515629    -0.2289085   -0.5649462    -0.2124181   -0.5666494    -0.6760149    0.2853066 
   6.227500000    -0.7245899    0.2517143    -0.2280403   -0.5658239    -0.2119745   -0.5682298    -0.6772515    0.2857893 
   6.230000000    -0.7247589    0.2522527    -0.2271968   -0.5678682    -0.2106768   -0.5699615    -0.6791061    0.2871453 
   6.232500000    -0.7245527    0.2548403    -0.2254957   -0.5695668    -0.2097951   -0.5719236    -0.6807116    0.2880428 
   6.235000000    -0.7241832    0.2579881    -0.2246268   -0.5715358    -0.2087897   -0.5737593    -0.6824952    0.2886097 
   6.237500000    -0.7224425    0.2606384    -0.2229814   -0.5732235    -0.2078885   -0.5758992    -0.6838840    0.2902686 
   6.240000000    -0.7222871    0.2633668    -0.2220614   -0.5754241    -0.2066112   -0.5779055    -0.6845157    0.2917700 
   6.242500000    -0.7220082    0.2655078    -0.2214496   -0.5772393    -0.2064635   -0.5799971    -0.6857713    0.2941723 
   6.245000000    -0.7218393    0.2681943    -0.2218447   -0.5791500    -0.2061823   -0.5820734    -0.6873736    0.2966181 
   6.247500000    -0.7210793    0.2709951    -0.2210158   -0.5808718    -0.2057786   -0.5841374    -0.6890454    0.2994901 
   6.250000000    -0.7206553    0.2738095    -0.2201323   -0.5828045    -0.2053393   -0.5862975    -0.6905011    0.3009373 
   6.252500000    -0.7196856    0.2772520    -0.2202447   -0.5847389    -0.2047267   -0.5886927    -0.6917092    0.3032407 
   6.255000000    -0.7194847    0.2797172    -0.2194154   -0.5871884    -0.2043757   -0.5908878    -0.6927299    0.3058487 
   6.257500000    -0.7187498    0.2819607    -0.2193050   -0.5894188    -0.2043115   -0.5931975    -0.6947779    0.3084881 
   6.260000000    -0.7175242    0.2842223    -0.2202652   -0.5911564    -0.2044505   -0.5948988    -0.6963987    0.3110173 
   6.262500000    -0.7169912    0.2863272    -0.2201325   -0.5930829    -0.2044065   -0.5974867    -0.6972322    0.3140124 
   6.265000000    -0.7162818    0.2889881    -0.2202064   -0.5947419    -0.2047576   -0.5995373    -0.6981478    0.3164138 
   6.267500000    -0.7150432    0.2912419    -0.2201745   -0.5968407    -0.2045067   -0.6016201    -0.6985530    0.3198740 
   6.270000000    -0.7141261    0.2926321    -0.2205849   -0.5987406    -0.2049735   -0.6035779    -0.6997227    0.3223933 
   6.272500000    -0.7130879    0.2941090    -0.2216464   -0.6006249    -0.2057966   -0.6057177    -0.7002325    0.3248664 
   6.275000000    -0.7118739    0.2951680    -0.2218966   -0.6028052    -0.2065392   -0.6071138    -0.7004784    0.3273953 
   6.277500000    -0.7106622    0.2962389    -0.2227761   -0.6045310    -0.2072530   -0.6087899    -0.7010840    0.3303188 
   6.280000000    -0.7098417    0.2978098    -0.2230366   -0.6065647    -0.2075147   -0.6111465    -0.7014692    0.3331017 
   6.282500000    -0.7086621    0.2990325    -0.2233583   -0.6083121    -0.2084520   -0.6128777    -0.7019840    0.3350344 
   6.285000000    -0.7074909    0.3001352    -0.2251513   -0.6100489    -0.2096439   -0.6149063    -0.7020584    0.3373706 
   6.287500000    -0.7062036    0.3006142    -0.2256565   -0.6117367    -0.2107121   -0.6166478    -0.7019964    0.3391246 
   6.290000000    -0.7050562    0.3010862    -0.2265945   -0.6132749    -0.2118103   -0.6181717    -0.7017248    0.3408891 
   6.292500000    -0.7039657    0.3019637    -0.2268515   -0.6154457    -0.2121856   -0.6201911    -0.7013254    0.3435773 
   6.295000000    -0.7027997    0.3018108    -0.2277862   -0.6172150    -0.2128330   -0.6223646    -0.7016751    0.3463660 
   6.297500000    -0.7013831    0.3017254    -0.2286933   -0.6181866    -0.2141394   -0.6241979    -0.7016629    0.3483414 
   6.300000000    -0.7000325    0.3016012    -0.2291498   -0.6196107    -0.2149581   -0.6259699    -0.7007561    0.3505086 
   6.302500000    -0.6984343    0.3014911    -0.2304677   -0.6208121    -0.2159709   -0.6270850    -0.6992066    0.3525832 
   6.305000000    -0.6970823    0.3020109    -0.2308903   -0.6224035    -0.2165362   -0.6288062    -0.6985289    0.3545641 
   6.307500000    -0.6957913    0.3020262    -0.2315899   -0.6241500    -0.2172092   -0.6305205    -0.6974275    0.3567708 
   6.310000000    -0.6939768    0.3013446    -0.2336605   -0.6253963    -0.2185113   -0.6326708    -0.6967535    0.3582390 
   6.312500000    -0.6929184    0.3010375    -0.2341877   -0.6268722    -0.2190820   -0.6344660    -0.6959757    0.3597188 
   6.315000000    -0.6914665    0.3003534    -0.2350503   -0.6279977    -0.2205600   -0.6357054    -0.6946983    0.3609677 
   6.317500000    -0.6899925    0.2999058    -0.2357333   -0.6294332    -0.2211208   -0.6373395    -0.6935266    0.3622906 
   6.320000000    -0.6883755    0.2997533    -0.2369154   -0.6309273    -0.2221033   -0.6391159    -0.6922753    0.3642029 
   6.322500000    -0.6867105    0.2991072    -0.2384707   -0.6320326    -0.2232257   -0.6404510    -0.6913618    0.3653413 
   6.325000000    -0.6850573    0.2986170    -0.2398228   -0.6333153    -0.2247202   -0.6420381    -0.6899378    0.3664758 
   6.327500000    -0.6832643    0.2981769    -0.2407144   -0.6349239    -0.2259956   -0.6432511    -0.6881964    0.3672107 
   6.330000000    -0.6813497    0.2973515    -0.2418948   -0.6363621    -0.2273861   -0.6449052    -0.6866182    0.3692364 
   6.332500000    -0.6799257    0.2975624    -0.2428026   -0.6375200    -0.2285353   -0.6462767    -0.6847234    0.3704998 
   6.335000000    -0.6782391    0.2979698    -0.2434656   -0.6390510    -0.2299321   -0.6475954    -0.6819680    0.3721536 
   6.337500000    -0.6760526    0.2977042    -0.2449900   -0.6397572    -0.2310797   -0.6490402    -0.6796934    0.3728712 
   6.340000000    -0.6741506    0.2981838    -0.2468260   -0.6413891    -0.2322603   -0.6499199    -0.6777148    0.3736331 
   6.342500000    -0.6719289    0.2986768    -0.2480652   -0.6424494    -0.2342781   -0.6511808    -0.6756490    0.3749540 
   6.345000000    -0.6695325    0.2995908    -0.2491538   -0.6440944    -0.2360380   -0.6525558    -0.6737418    0.3767430 
   6.347500000    -0.6670422    0.3008318    -0.2502786   -0.6452239    -0.2369843   -0.6538833    -0.6718725    0.3772863 
   6.350000000    -0.6651745    0.3023581    -0.2512013   -0.6461763    -0.2384069   -0.6550711    -0.6697831    0.3783187 
   6.352500000    -0.6627423    0.3031428    -0.2516021   -0.6472276    -0.2396702   -0.6558287    -0.6676081    0.3794666 
   6.355000000    -0.6603737    0.3045711    -0.2535030   -0.6476955    -0.2410102   -0.6575022    -0.6658325    0.3802949 
   6.357500000    -0.6577964    0.3059615    -0.2550202   -0.6489314    -0.2422578   -0.6583151    -0.6635788    0.3816255 
   6.360000000    -0.6552483    0.3077400    -0.2559687   -0.6498041    -0.2437569   -0.6591298    -0.6615266    0.3827218 
   6.362500000    -0.6526064    0.3095321    -0.2570083   -0.6506014    -0.2461157   -0.6601821    -0.6597716    0.3844603 
   6.365000000    -0.6504855    0.3115076    -0.2583970   -0.6513491    -0.2472398   -0.6615124    -0.6584107    0.3854322 
   6.367500000    -0.6485777    0.3136462    -0.2593459   -0.6518120    -0.2484024   -0.6623803    -0.6567754    0.3862842 
   6.370000000    -0.6460494    0.3157655    -0.2601314   -0.6522462    -0.2498443   -0.6634839    -0.6546761    0.3870662 
   6.372500000    -0.6437688    0.3177113    -0.2627663   -0.6523389    -0.2511742   -0.6644498    -0.6536459    0.3877721 
   6.375000000    -0.6411634    0.3196873    -0.2632864   -0.6530928    -0.2522593   -0.6649415    -0.6524183    0.3887224 
   6.377500000    -0.6391259    0.3215629    -0.2642467   -0.6541042    -0.2538981   -0.6652017    -0.6510850    0.3896734 
   6.380000000    -0.6372987    0.3234303    -0.2658928   -0.6549728    -0.2559587   -0.6663904    -0.6504220    0.3898505 
   6.382500000    -0.6351055    0.3259625    -0.2668670   -0.6554182    -0.2569317   -0.6669695    -0.6486738    0.3907973 
   6.385000000    -0.6333601    0.3276921    -0.2687165   -0.6561552    -0.2583936   -0.6677389    -0.6477513    0.3907366 
   6.387500000    -0.6312299    0.3288628    -0.2700692   -0.6571509    -0.2601029   -0.6685798    -0.6473030    0.3909732 
