! MS46122B
! 1919307/90821646
! 7/29/2022 1:44:47 PM
! C:\USERS\PC_\DESKTOP\MEDICIONES\BANCHA ESTRECHA\6_65_GHZ\S11_S21_ABS10_1002CL.S2P
! CHANNEL.1
! TR.MEASUREMENT
! CORRECTED.DATA
# GHZ S RI R 50.0
! FREQ.GHZ         S11RE         S11IM         S21RE         S21IM         S12RE         S12IM         S22RE         S22IM         
!; PortSelection: Port_12
   6.000000000    -0.5859740    0.3693053    -0.4250292   -0.5019087    -0.4149146   -0.5012974    -0.5499076    0.3753494 
   6.002500000    -0.5843233    0.3694991    -0.4237288   -0.5025982    -0.4148062   -0.4999978    -0.5499814    0.3747045 
   6.005000000    -0.5850086    0.3694148    -0.4233663   -0.5013025    -0.4149437   -0.4985626    -0.5495737    0.3740293 
   6.007500000    -0.5856897    0.3691418    -0.4238198   -0.4995243    -0.4153457   -0.4972345    -0.5490714    0.3736964 
   6.010000000    -0.5867414    0.3683708    -0.4235378   -0.4983031    -0.4152892   -0.4959932    -0.5484324    0.3727584 
   6.012500000    -0.5883713    0.3674065    -0.4232047   -0.4970722    -0.4153110   -0.4940385    -0.5476655    0.3721330 
   6.015000000    -0.5894127    0.3656824    -0.4225154   -0.4956256    -0.4151777   -0.4925271    -0.5472418    0.3713440 
   6.017500000    -0.5906137    0.3648492    -0.4222781   -0.4948233    -0.4147648   -0.4913220    -0.5477081    0.3715248 
   6.020000000    -0.5912803    0.3643790    -0.4221303   -0.4928808    -0.4145297   -0.4896314    -0.5471851    0.3710775 
   6.022500000    -0.5923243    0.3638636    -0.4220303   -0.4912833    -0.4140726   -0.4882351    -0.5470644    0.3704182 
   6.025000000    -0.5937828    0.3634398    -0.4209365   -0.4900440    -0.4136335   -0.4863580    -0.5470606    0.3696711 
   6.027500000    -0.5952602    0.3624837    -0.4204445   -0.4885258    -0.4131794   -0.4850981    -0.5472195    0.3687923 
   6.030000000    -0.5967246    0.3612531    -0.4194961   -0.4873585    -0.4120776   -0.4839036    -0.5467149    0.3686754 
   6.032500000    -0.5980433    0.3604582    -0.4186734   -0.4865839    -0.4115497   -0.4829438    -0.5469794    0.3676983 
   6.035000000    -0.5989423    0.3602040    -0.4183801   -0.4850430    -0.4103262   -0.4813080    -0.5472223    0.3668542 
   6.037500000    -0.6000924    0.3596289    -0.4182388   -0.4837734    -0.4092822   -0.4799138    -0.5478014    0.3656475 
   6.040000000    -0.6009094    0.3594922    -0.4171316   -0.4824533    -0.4083442   -0.4790043    -0.5481508    0.3650533 
   6.042500000    -0.6023065    0.3589705    -0.4153924   -0.4817562    -0.4073747   -0.4774675    -0.5489863    0.3634339 
   6.045000000    -0.6026546    0.3584335    -0.4143521   -0.4808307    -0.4064299   -0.4754530    -0.5499207    0.3617496 
   6.047500000    -0.6045374    0.3581253    -0.4131140   -0.4799669    -0.4055713   -0.4749989    -0.5504205    0.3602173 
   6.050000000    -0.6054124    0.3572196    -0.4127933   -0.4786765    -0.4037628   -0.4742674    -0.5513593    0.3590629 
   6.052500000    -0.6064598    0.3571886    -0.4120009   -0.4777623    -0.4027022   -0.4732854    -0.5525849    0.3574597 
   6.055000000    -0.6067557    0.3573465    -0.4118951   -0.4769099    -0.4012201   -0.4724488    -0.5533656    0.3561433 
   6.057500000    -0.6074705    0.3576227    -0.4107875   -0.4760136    -0.4007219   -0.4714715    -0.5548617    0.3547387 
   6.060000000    -0.6084685    0.3578380    -0.4093220   -0.4753857    -0.3997266   -0.4709058    -0.5553120    0.3536899 
   6.062500000    -0.6090584    0.3578475    -0.4089178   -0.4740041    -0.3983604   -0.4702512    -0.5568137    0.3521362 
   6.065000000    -0.6093791    0.3576934    -0.4076458   -0.4739321    -0.3969418   -0.4700156    -0.5574319    0.3511512 
   6.067500000    -0.6096548    0.3573810    -0.4073592   -0.4739779    -0.3959016   -0.4702239    -0.5586451    0.3496011 
   6.070000000    -0.6093088    0.3582985    -0.4063401   -0.4737871    -0.3949568   -0.4698487    -0.5594108    0.3488766 
   6.072500000    -0.6095647    0.3597284    -0.4056472   -0.4735524    -0.3940145   -0.4694177    -0.5604505    0.3474308 
   6.075000000    -0.6097220    0.3597666    -0.4040516   -0.4729819    -0.3928460   -0.4690925    -0.5609240    0.3464508 
   6.077500000    -0.6102927    0.3602731    -0.4029753   -0.4724362    -0.3918938   -0.4692376    -0.5623415    0.3463517 
   6.080000000    -0.6099914    0.3609717    -0.4021678   -0.4722280    -0.3907467   -0.4692775    -0.5636185    0.3454036 
   6.082500000    -0.6096259    0.3615939    -0.4016962   -0.4724254    -0.3893197   -0.4694532    -0.5648189    0.3450103 
   6.085000000    -0.6087360    0.3623206    -0.4005392   -0.4730808    -0.3881197   -0.4698122    -0.5661623    0.3442463 
   6.087500000    -0.6083455    0.3639623    -0.3997373   -0.4729027    -0.3873113   -0.4701641    -0.5671507    0.3444142 
   6.090000000    -0.6080189    0.3646513    -0.3983420   -0.4729794    -0.3860990   -0.4699322    -0.5678232    0.3439289 
   6.092500000    -0.6076965    0.3658270    -0.3971760   -0.4725043    -0.3851374   -0.4702924    -0.5691417    0.3442012 
   6.095000000    -0.6072699    0.3666876    -0.3962682   -0.4724589    -0.3842780   -0.4707007    -0.5704678    0.3444419 
   6.097500000    -0.6058356    0.3674452    -0.3962793   -0.4725363    -0.3826564   -0.4710189    -0.5720769    0.3446570 
   6.100000000    -0.6051503    0.3690644    -0.3950254   -0.4730785    -0.3815538   -0.4711522    -0.5732112    0.3448432 
   6.102500000    -0.6043209    0.3706318    -0.3943108   -0.4735464    -0.3807403   -0.4712466    -0.5738071    0.3459248 
   6.105000000    -0.6039095    0.3723869    -0.3935096   -0.4739045    -0.3804349   -0.4719205    -0.5746676    0.3465731 
   6.107500000    -0.6032699    0.3736107    -0.3925689   -0.4739459    -0.3795701   -0.4721164    -0.5757476    0.3474747 
   6.110000000    -0.6017521    0.3755928    -0.3913692   -0.4747242    -0.3795672   -0.4716631    -0.5764235    0.3488583 
   6.112500000    -0.6020133    0.3761256    -0.3930488   -0.4740208    -0.3775690   -0.4739659    -0.5777801    0.3505180 
   6.115000000    -0.6012874    0.3781766    -0.3914919   -0.4747871    -0.3778261   -0.4740866    -0.5788221    0.3516824 
   6.117500000    -0.6002422    0.3797355    -0.3904461   -0.4751292    -0.3773283   -0.4741372    -0.5793949    0.3534756 
   6.120000000    -0.5999516    0.3807372    -0.3901773   -0.4756982    -0.3765002   -0.4752696    -0.5805818    0.3548597 
   6.122500000    -0.5994937    0.3820311    -0.3888918   -0.4766307    -0.3760341   -0.4760382    -0.5815935    0.3564839 
   6.125000000    -0.5988007    0.3836077    -0.3893674   -0.4766082    -0.3754489   -0.4770674    -0.5829437    0.3590874 
   6.127500000    -0.5979314    0.3857548    -0.3886688   -0.4774117    -0.3749014   -0.4776208    -0.5839412    0.3607759 
   6.130000000    -0.5975118    0.3875068    -0.3881645   -0.4779882    -0.3742333   -0.4780616    -0.5845463    0.3630560 
   6.132500000    -0.5977272    0.3886864    -0.3876591   -0.4786603    -0.3736859   -0.4788632    -0.5852842    0.3642626 
   6.135000000    -0.5977282    0.3895237    -0.3864896   -0.4795495    -0.3735104   -0.4797853    -0.5861283    0.3661746 
   6.137500000    -0.5976920    0.3906289    -0.3868528   -0.4796439    -0.3725254   -0.4807746    -0.5873165    0.3684528 
   6.140000000    -0.5970894    0.3918074    -0.3861883   -0.4803510    -0.3721006   -0.4811344    -0.5878405    0.3709896 
   6.142500000    -0.5970573    0.3937462    -0.3856576   -0.4809750    -0.3711580   -0.4818057    -0.5888903    0.3722472 
   6.145000000    -0.5972240    0.3944598    -0.3847583   -0.4816313    -0.3706680   -0.4822772    -0.5890167    0.3743677 
   6.147500000    -0.5973598    0.3956885    -0.3842134   -0.4824181    -0.3701695   -0.4829523    -0.5896119    0.3758842 
   6.150000000    -0.5973411    0.3963343    -0.3845113   -0.4826351    -0.3693474   -0.4836199    -0.5904345    0.3769058 
   6.152500000    -0.5971785    0.3973645    -0.3841681   -0.4831192    -0.3692636   -0.4843077    -0.5908653    0.3789282 
   6.155000000    -0.5967439    0.3990003    -0.3836716   -0.4838527    -0.3685709   -0.4850092    -0.5912760    0.3807373 
   6.157500000    -0.5971166    0.4000102    -0.3830359   -0.4843399    -0.3680392   -0.4855886    -0.5917889    0.3820930 
   6.160000000    -0.5975770    0.4011854    -0.3828151   -0.4853739    -0.3680696   -0.4865029    -0.5917434    0.3833530 
   6.162500000    -0.5978901    0.4016211    -0.3819695   -0.4863521    -0.3679094   -0.4874916    -0.5924405    0.3839879 
   6.165000000    -0.5980777    0.4024385    -0.3830875   -0.4865814    -0.3676412   -0.4886269    -0.5935485    0.3847673 
   6.167500000    -0.5986699    0.4033624    -0.3825282   -0.4875042    -0.3673942   -0.4894227    -0.5942990    0.3859133 
   6.170000000    -0.5988832    0.4047450    -0.3825798   -0.4880800    -0.3673209   -0.4903152    -0.5949717    0.3872251 
   6.172500000    -0.5998922    0.4060258    -0.3823042   -0.4894119    -0.3672996   -0.4916326    -0.5945697    0.3890959 
   6.175000000    -0.6004551    0.4071378    -0.3816994   -0.4901325    -0.3672798   -0.4926775    -0.5954188    0.3899016 
   6.177500000    -0.6009896    0.4082836    -0.3826615   -0.4903321    -0.3672564   -0.4936158    -0.5959435    0.3908273 
   6.180000000    -0.6013938    0.4092360    -0.3821686   -0.4911278    -0.3671177   -0.4945573    -0.5962347    0.3912850 
   6.182500000    -0.6010912    0.4106071    -0.3817260   -0.4919104    -0.3668457   -0.4959811    -0.5968473    0.3924656 
   6.185000000    -0.6017279    0.4119911    -0.3810188   -0.4929175    -0.3661449   -0.4968668    -0.5970763    0.3926640 
   6.187500000    -0.6021073    0.4132658    -0.3806370   -0.4936208    -0.3660179   -0.4979671    -0.5966505    0.3933069 
   6.190000000    -0.6025867    0.4139627    -0.3804905   -0.4944815    -0.3662974   -0.4990198    -0.5968043    0.3937431 
   6.192500000    -0.6025331    0.4151039    -0.3797686   -0.4951420    -0.3657062   -0.5002640    -0.5971454    0.3936023 
   6.195000000    -0.6024449    0.4158139    -0.3799965   -0.4962234    -0.3652500   -0.5011408    -0.5969121    0.3935693 
   6.197500000    -0.6019276    0.4168780    -0.3789099   -0.4974829    -0.3646674   -0.5027040    -0.5976459    0.3939104 
   6.200000000    -0.6017142    0.4178056    -0.3785999   -0.4984725    -0.3643376   -0.5042344    -0.5971612    0.3937356 
   6.202500000    -0.6019318    0.4186587    -0.3778320   -0.4999126    -0.3636007   -0.5057124    -0.5969759    0.3937486 
   6.205000000    -0.6014494    0.4197161    -0.3776847   -0.5008611    -0.3640660   -0.5066966    -0.5970460    0.3937430 
   6.207500000    -0.6003995    0.4208176    -0.3779460   -0.5020975    -0.3638733   -0.5083569    -0.5967858    0.3939908 
   6.210000000    -0.5990133    0.4218662    -0.3777393   -0.5034103    -0.3638602   -0.5101495    -0.5968418    0.3940337 
   6.212500000    -0.5989544    0.4244197    -0.3778485   -0.5050685    -0.3636006   -0.5115426    -0.5970470    0.3955687 
   6.215000000    -0.6001688    0.4254730    -0.3774662   -0.5070287    -0.3638209   -0.5132438    -0.5968660    0.3955275 
   6.217500000    -0.5994364    0.4270388    -0.3773171   -0.5085600    -0.3635447   -0.5152234    -0.5962638    0.3961364 
   6.220000000    -0.5969405    0.4288867    -0.3768091   -0.5106391    -0.3633969   -0.5170558    -0.5963800    0.3966803 
   6.222500000    -0.5943087    0.4312828    -0.3771311   -0.5120161    -0.3642817   -0.5186002    -0.5968024    0.3973452 
   6.225000000    -0.5942187    0.4336535    -0.3778047   -0.5145162    -0.3643925   -0.5208887    -0.5970401    0.3982448 
   6.227500000    -0.5945750    0.4347616    -0.3776037   -0.5160981    -0.3648016   -0.5228958    -0.5976685    0.4006187 
   6.230000000    -0.5941375    0.4357001    -0.3778054   -0.5185995    -0.3650670   -0.5251986    -0.5986100    0.4015505 
   6.232500000    -0.5934232    0.4386500    -0.3776332   -0.5206198    -0.3656688   -0.5271829    -0.5986256    0.4032189 
   6.235000000    -0.5923583    0.4414225    -0.3783083   -0.5226064    -0.3661332   -0.5293491    -0.5988627    0.4046333 
   6.237500000    -0.5911779    0.4435365    -0.3781364   -0.5247478    -0.3671353   -0.5317453    -0.5995089    0.4066324 
   6.240000000    -0.5904006    0.4459462    -0.3798807   -0.5266196    -0.3680149   -0.5339712    -0.6000630    0.4088797 
   6.242500000    -0.5892410    0.4479398    -0.3804477   -0.5288064    -0.3692658   -0.5359929    -0.5999644    0.4123698 
   6.245000000    -0.5882949    0.4508899    -0.3814419   -0.5303715    -0.3701760   -0.5387324    -0.6002955    0.4150994 
   6.247500000    -0.5869159    0.4540272    -0.3822073   -0.5320278    -0.3713562   -0.5407028    -0.6004198    0.4183513 
   6.250000000    -0.5859412    0.4563070    -0.3829011   -0.5341522    -0.3723795   -0.5427257    -0.6001227    0.4207549 
   6.252500000    -0.5844404    0.4589658    -0.3843887   -0.5358231    -0.3738062   -0.5447564    -0.6004860    0.4233601 
   6.255000000    -0.5838400    0.4616395    -0.3862451   -0.5376387    -0.3756331   -0.5469495    -0.6009423    0.4264159 
   6.257500000    -0.5824649    0.4635521    -0.3874737   -0.5397676    -0.3769837   -0.5489535    -0.6017346    0.4299393 
   6.260000000    -0.5808480    0.4664070    -0.3890499   -0.5410833    -0.3782293   -0.5504606    -0.6018667    0.4331499 
   6.262500000    -0.5797640    0.4686815    -0.3903437   -0.5428186    -0.3796060   -0.5523574    -0.6005274    0.4365130 
   6.265000000    -0.5782840    0.4708757    -0.3916337   -0.5444369    -0.3813339   -0.5537810    -0.6001649    0.4395078 
   6.267500000    -0.5766585    0.4730294    -0.3939800   -0.5456242    -0.3831918   -0.5557795    -0.5999683    0.4430265 
   6.270000000    -0.5751466    0.4747843    -0.3958071   -0.5471203    -0.3853679   -0.5569255    -0.5995997    0.4458378 
   6.272500000    -0.5731074    0.4764506    -0.3972736   -0.5488096    -0.3872125   -0.5582098    -0.5984467    0.4484978 
   6.275000000    -0.5713044    0.4779429    -0.3986923   -0.5504529    -0.3888062   -0.5593858    -0.5971978    0.4520546 
   6.277500000    -0.5695065    0.4791952    -0.4009553   -0.5517663    -0.3907496   -0.5605181    -0.5962483    0.4550496 
   6.280000000    -0.5681604    0.4807438    -0.4031368   -0.5529653    -0.3930461   -0.5625304    -0.5958473    0.4575150 
   6.282500000    -0.5664290    0.4819976    -0.4043767   -0.5544143    -0.3954002   -0.5634783    -0.5949081    0.4601029 
   6.285000000    -0.5641994    0.4837013    -0.4066527   -0.5555584    -0.3973277   -0.5644231    -0.5935953    0.4622842 
   6.287500000    -0.5624810    0.4848019    -0.4082091   -0.5567169    -0.3992901   -0.5655466    -0.5923452    0.4644971 
   6.290000000    -0.5608960    0.4857587    -0.4101475   -0.5578272    -0.4014671   -0.5667849    -0.5908210    0.4669503 
   6.292500000    -0.5592677    0.4863831    -0.4122496   -0.5591519    -0.4032427   -0.5684015    -0.5896131    0.4693722 
   6.295000000    -0.5578585    0.4866299    -0.4138082   -0.5604981    -0.4051798   -0.5697145    -0.5884830    0.4718617 
   6.297500000    -0.5561836    0.4868638    -0.4154313   -0.5611809    -0.4072751   -0.5705816    -0.5873855    0.4738980 
   6.300000000    -0.5543498    0.4879096    -0.4165854   -0.5621968    -0.4089032   -0.5720404    -0.5857791    0.4758394 
   6.302500000    -0.5524487    0.4880727    -0.4187619   -0.5629389    -0.4106829   -0.5731243    -0.5835065    0.4786812 
   6.305000000    -0.5505635    0.4884359    -0.4211670   -0.5636021    -0.4130101   -0.5742959    -0.5818611    0.4802259 
   6.307500000    -0.5489648    0.4884946    -0.4229833   -0.5649096    -0.4146610   -0.5752673    -0.5798721    0.4819613 
   6.310000000    -0.5474204    0.4881255    -0.4247759   -0.5657706    -0.4168581   -0.5760976    -0.5781677    0.4832113 
   6.312500000    -0.5456808    0.4889514    -0.4265626   -0.5669873    -0.4187381   -0.5774871    -0.5765002    0.4843595 
   6.315000000    -0.5442032    0.4887298    -0.4282266   -0.5679911    -0.4207661   -0.5786926    -0.5744259    0.4865372 
   6.317500000    -0.5423120    0.4877542    -0.4293067   -0.5691953    -0.4236579   -0.5786626    -0.5724955    0.4865912 
   6.320000000    -0.5409968    0.4879471    -0.4336497   -0.5685595    -0.4233149   -0.5816589    -0.5704805    0.4880966 
   6.322500000    -0.5391275    0.4873928    -0.4346927   -0.5702162    -0.4271470   -0.5812448    -0.5684122    0.4890020 
   6.325000000    -0.5372368    0.4870186    -0.4367856   -0.5709507    -0.4294477   -0.5820977    -0.5659908    0.4898859 
   6.327500000    -0.5351859    0.4875336    -0.4389366   -0.5723951    -0.4316078   -0.5831241    -0.5635395    0.4910372 
   6.330000000    -0.5333784    0.4869325    -0.4409603   -0.5733082    -0.4337569   -0.5842498    -0.5602791    0.4920698 
   6.332500000    -0.5316679    0.4866723    -0.4432005   -0.5733946    -0.4359301   -0.5848456    -0.5575301    0.4928873 
   6.335000000    -0.5294881    0.4866228    -0.4457047   -0.5742893    -0.4381100   -0.5851031    -0.5546868    0.4934353 
   6.337500000    -0.5271878    0.4862412    -0.4475284   -0.5749114    -0.4407972   -0.5863349    -0.5514060    0.4935200 
   6.340000000    -0.5249364    0.4864759    -0.4496428   -0.5757720    -0.4433358   -0.5864021    -0.5489111    0.4949947 
   6.342500000    -0.5224949    0.4872188    -0.4519647   -0.5762550    -0.4458061   -0.5868508    -0.5458032    0.4950950 
   6.345000000    -0.5194813    0.4880110    -0.4542553   -0.5771649    -0.4484164   -0.5876566    -0.5417476    0.4962391 
   6.347500000    -0.5170755    0.4884277    -0.4564064   -0.5777777    -0.4506177   -0.5883590    -0.5390144    0.4965031 
   6.350000000    -0.5145295    0.4887935    -0.4589757   -0.5774275    -0.4527332   -0.5890365    -0.5366168    0.4965720 
   6.352500000    -0.5116308    0.4892441    -0.4607619   -0.5780659    -0.4548596   -0.5892076    -0.5337179    0.4969260 
   6.355000000    -0.5085986    0.4897841    -0.4628364   -0.5783817    -0.4577091   -0.5900478    -0.5308146    0.4971814 
   6.357500000    -0.5055171    0.4906334    -0.4645878   -0.5786881    -0.4602933   -0.5897292    -0.5276094    0.4991992 
   6.360000000    -0.5021937    0.4923670    -0.4667909   -0.5790429    -0.4629799   -0.5901070    -0.5240392    0.4993415 
   6.362500000    -0.4992653    0.4932244    -0.4686309   -0.5792852    -0.4654477   -0.5903361    -0.5201963    0.5000404 
   6.365000000    -0.4964305    0.4938778    -0.4714483   -0.5789850    -0.4675652   -0.5909317    -0.5176061    0.5006792 
   6.367500000    -0.4939002    0.4950119    -0.4737720   -0.5785417    -0.4696248   -0.5908899    -0.5152417    0.5006297 
   6.370000000    -0.4907841    0.4961600    -0.4752835   -0.5785653    -0.4725658   -0.5908189    -0.5123050    0.5009407 
   6.372500000    -0.4875115    0.4969593    -0.4776514   -0.5778707    -0.4751111   -0.5904705    -0.5098841    0.5021719 
   6.375000000    -0.4839028    0.4982629    -0.4791941   -0.5781038    -0.4770054   -0.5900023    -0.5064164    0.5023847 
   6.377500000    -0.4808365    0.4993230    -0.4813288   -0.5785357    -0.4790824   -0.5897288    -0.5038171    0.5025809 
   6.380000000    -0.4779378    0.5001817    -0.4845675   -0.5779724    -0.4816396   -0.5898173    -0.5016773    0.5028553 
   6.382500000    -0.4749529    0.5008021    -0.4870734   -0.5784225    -0.4836733   -0.5898873    -0.4991109    0.5029674 
   6.385000000    -0.4721199    0.5013517    -0.4891652   -0.5784147    -0.4864857   -0.5896996    -0.4968931    0.5028875 
   6.387500000    -0.4689442    0.5021063    -0.4919886   -0.5784377    -0.4888415   -0.5894091    -0.4947146    0.5032791 
   6.390000000    -0.4661974    0.5026746    -0.4942430   -0.5777475    -0.4910255   -0.5895557    -0.4928177    0.5034581 
