! MS46122B
! 1919307/90821646
! 5/16/2022 1:36:33 PM
! C:\USERS\PC_\DESKTOP\CARACTERIZACION\MEDICIONES\BANDA ANCHA\S11_S21_ABS65_502C.S2P
! CHANNEL.1
! TR.MEASUREMENT
! CORRECTED.DATA
# GHZ S RI R 50.0
! FREQ.GHZ         S11RE         S11IM         S21RE         S21IM         S12RE         S12IM         S22RE         S22IM         
!; PortSelection: Port_12
   4.950000000    -0.6845535   -0.1531152     0.1145504   -0.6793918     0.1206226   -0.7022633    -0.7271163   -0.0921611 
   4.957564576    -0.6849746   -0.1541114     0.1134117   -0.6774835     0.1187565   -0.6992309    -0.7271181   -0.0828924 
   4.965129151    -0.6888805   -0.1572074     0.1133724   -0.6742604     0.1182903   -0.6960957    -0.7285746   -0.0716038 
   4.972693727    -0.6926962   -0.1597337     0.1131958   -0.6704197     0.1172651   -0.6929001    -0.7301009   -0.0594208 
   4.980258303    -0.6951393   -0.1602505     0.1138158   -0.6663900     0.1162796   -0.6882638    -0.7311077   -0.0473793 
   4.987822878    -0.6977238   -0.1591059     0.1162027   -0.6624317     0.1157200   -0.6843543    -0.7319615   -0.0356041 
   4.995387454    -0.6997210   -0.1557963     0.1191813   -0.6598691     0.1157006   -0.6808870    -0.7330711   -0.0255646 
   5.002952030    -0.7002810   -0.1511634     0.1242208   -0.6586976     0.1155060   -0.6778750    -0.7337781   -0.0176205 
   5.010516605    -0.6992139   -0.1459029     0.1288521   -0.6593077     0.1163401   -0.6748887    -0.7346023   -0.0113810 
   5.018081181    -0.6972479   -0.1414908     0.1331845   -0.6602575     0.1164760   -0.6718838    -0.7354919   -0.0060314 
   5.025645756    -0.6947829   -0.1374091     0.1364839   -0.6623016     0.1168910   -0.6697139    -0.7352625   -0.0022778 
   5.033210332    -0.6910711   -0.1325520     0.1379217   -0.6648393     0.1169906   -0.6669282    -0.7346622   -0.0005004 
   5.040774908    -0.6886333   -0.1270399     0.1395218   -0.6674168     0.1165910   -0.6649973    -0.7345337    0.0013288 
   5.048339483    -0.6860651   -0.1247842     0.1401644   -0.6711707     0.1167068   -0.6633514    -0.7342064    0.0025388 
   5.055904059    -0.6847070   -0.1222313     0.1424545   -0.6748348     0.1173768   -0.6630115    -0.7346300    0.0016994 
   5.063468635    -0.6826854   -0.1210608     0.1430679   -0.6788827     0.1187264   -0.6628681    -0.7335941    0.0010868 
   5.071033210    -0.6811301   -0.1200278     0.1444302   -0.6818354     0.1191536   -0.6636531    -0.7327372    0.0009847 
   5.078597786    -0.6795747   -0.1195711     0.1441078   -0.6847916     0.1196817   -0.6649198    -0.7315018    0.0007669 
   5.086162362    -0.6774619   -0.1197018     0.1427967   -0.6875108     0.1191413   -0.6668519    -0.7303004    0.0019772 
   5.093726937    -0.6762550   -0.1210548     0.1410785   -0.6909887     0.1183412   -0.6692824    -0.7286348    0.0028053 
   5.101291513    -0.6753501   -0.1224090     0.1397888   -0.6929104     0.1183566   -0.6716613    -0.7266101    0.0037371 
   5.108856089    -0.6745391   -0.1246767     0.1396940   -0.6948271     0.1193755   -0.6744331    -0.7243728    0.0044066 
   5.116420664    -0.6741656   -0.1258397     0.1402878   -0.6964359     0.1201763   -0.6768345    -0.7224228    0.0055708 
   5.123985240    -0.6729894   -0.1260048     0.1431724   -0.6981164     0.1225721   -0.6793297    -0.7190485    0.0076020 
   5.131549815    -0.6712464   -0.1257496     0.1447039   -0.7002591     0.1239063   -0.6832096    -0.7156937    0.0089688 
   5.139114391    -0.6682975   -0.1234931     0.1480675   -0.7032411     0.1253638   -0.6874861    -0.7127634    0.0101112 
   5.146678967    -0.6651270   -0.1209262     0.1494974   -0.7075438     0.1267481   -0.6931313    -0.7093714    0.0097004 
   5.154243542    -0.6606799   -0.1162799     0.1518053   -0.7123681     0.1279275   -0.6982942    -0.7036265    0.0075259 
   5.161808118    -0.6557254   -0.1135910     0.1536681   -0.7194624     0.1299374   -0.7035993    -0.6974143    0.0055152 
   5.169372694    -0.6495837   -0.1111512     0.1556502   -0.7258805     0.1325649   -0.7081369    -0.6902292    0.0045985 
   5.176937269    -0.6419523   -0.1091861     0.1558111   -0.7339797     0.1353036   -0.7121336    -0.6829537    0.0043599 
   5.184501845    -0.6336301   -0.1073272     0.1559513   -0.7410206     0.1388149   -0.7158812    -0.6753294    0.0051798 
   5.192066421    -0.6243219   -0.1085099     0.1537872   -0.7499345     0.1425520   -0.7213979    -0.6691480    0.0059497 
   5.199630996    -0.6169699   -0.1111682     0.1501450   -0.7584990     0.1456077   -0.7296456    -0.6631752    0.0059097 
   5.207195572    -0.6104800   -0.1158906     0.1455270   -0.7662216     0.1479379   -0.7389913    -0.6580877    0.0088898 
   5.214760148    -0.6070324   -0.1215378     0.1387072   -0.7741423     0.1474859   -0.7495408    -0.6497657    0.0132706 
   5.222324723    -0.6040716   -0.1288332     0.1306863   -0.7812715     0.1452242   -0.7591477    -0.6419966    0.0164643 
   5.229889299    -0.6027636   -0.1352050     0.1218312   -0.7855823     0.1409594   -0.7677575    -0.6349205    0.0189123 
   5.237453875    -0.6023341   -0.1413826     0.1116840   -0.7866206     0.1347701   -0.7730412    -0.6278492    0.0184511 
   5.245018450    -0.6043005   -0.1453191     0.1036581   -0.7875934     0.1279595   -0.7779863    -0.6250585    0.0189122 
   5.252583026    -0.6058373   -0.1478880     0.0944837   -0.7879175     0.1210834   -0.7809071    -0.6261712    0.0196230 
   5.260147601    -0.6046636   -0.1472771     0.0884946   -0.7881479     0.1139009   -0.7823386    -0.6278756    0.0192807 
   5.267712177    -0.6051259   -0.1477032     0.0824066   -0.7867981     0.1090402   -0.7836162    -0.6299469    0.0170986 
   5.275276753    -0.6017675   -0.1472315     0.0785820   -0.7856966     0.1035723   -0.7823915    -0.6315703    0.0137361 
   5.282841328    -0.5985495   -0.1482949     0.0744053   -0.7833999     0.0995132   -0.7808797    -0.6353862    0.0085114 
   5.290405904    -0.5964611   -0.1508514     0.0720056   -0.7823504     0.0968410   -0.7792281    -0.6394572   -0.0008705 
   5.297970480    -0.5938329   -0.1547194     0.0698902   -0.7825732     0.0941515   -0.7785572    -0.6433339   -0.0097452 
   5.305535055    -0.5938711   -0.1568250     0.0672614   -0.7844444     0.0910044   -0.7788171    -0.6478587   -0.0198883 
   5.313099631    -0.5954805   -0.1595639     0.0638895   -0.7890995     0.0876252   -0.7806846    -0.6515855   -0.0303359 
   5.320664207    -0.5982487   -0.1619538     0.0591933   -0.7948782     0.0829329   -0.7828086    -0.6563037   -0.0407590 
   5.328228782    -0.6028097   -0.1637965     0.0522112   -0.8006200     0.0766346   -0.7862468    -0.6588854   -0.0515848 
   5.335793358    -0.6068524   -0.1660507     0.0410334   -0.8041109     0.0688501   -0.7885732    -0.6612106   -0.0608011 
   5.343357934    -0.6131048   -0.1661073     0.0295281   -0.8049718     0.0603764   -0.7902634    -0.6612383   -0.0688356 
   5.350922509    -0.6186575   -0.1675355     0.0146810   -0.8023773     0.0494164   -0.7901801    -0.6605690   -0.0735165 
   5.358487085    -0.6248559   -0.1676234     0.0009895   -0.7972240     0.0375414   -0.7896087    -0.6613895   -0.0774439 
   5.366051661    -0.6322840   -0.1683278    -0.0084262   -0.7909163     0.0256596   -0.7876090    -0.6611568   -0.0778150 
   5.373616236    -0.6404567   -0.1691646    -0.0168492   -0.7832974     0.0149475   -0.7840180    -0.6636681   -0.0773156 
   5.381180812    -0.6488568   -0.1687124    -0.0219194   -0.7742687     0.0061993   -0.7805611    -0.6654423   -0.0736335 
   5.388745387    -0.6567451   -0.1683017    -0.0256213   -0.7650409    -0.0015358   -0.7761918    -0.6689509   -0.0672316 
   5.396309963    -0.6651233   -0.1693724    -0.0287721   -0.7555594    -0.0076965   -0.7718438    -0.6711517   -0.0604598 
   5.403874539    -0.6730597   -0.1686258    -0.0296156   -0.7451361    -0.0151407   -0.7668903    -0.6741753   -0.0511308 
   5.411439114    -0.6831736   -0.1680498    -0.0293749   -0.7367042    -0.0213571   -0.7622145    -0.6754632   -0.0431716 
   5.419003690    -0.6931734   -0.1655227    -0.0272546   -0.7302598    -0.0280752   -0.7573314    -0.6775417   -0.0356731 
   5.426568266    -0.7024125   -0.1608641    -0.0244044   -0.7267880    -0.0330580   -0.7522003    -0.6792765   -0.0323695 
   5.434132841    -0.7095207   -0.1545766    -0.0219849   -0.7246611    -0.0361457   -0.7472461    -0.6821750   -0.0293339 
   5.441697417    -0.7148045   -0.1478988    -0.0214616   -0.7238495    -0.0379682   -0.7435580    -0.6878918   -0.0281196 
   5.449261993    -0.7181879   -0.1411016    -0.0230701   -0.7208968    -0.0394327   -0.7395928    -0.6942834   -0.0273041 
   5.456826568    -0.7203733   -0.1341733    -0.0253620   -0.7179387    -0.0428287   -0.7362850    -0.7010046   -0.0267603 
   5.464391144    -0.7207038   -0.1292458    -0.0282547   -0.7129087    -0.0470856   -0.7314618    -0.7084357   -0.0255331 
   5.471955720    -0.7213815   -0.1254771    -0.0308496   -0.7077032    -0.0502832   -0.7260078    -0.7134491   -0.0254182 
   5.479520295    -0.7221386   -0.1230804    -0.0300112   -0.7013733    -0.0502323   -0.7198350    -0.7181392   -0.0249532 
   5.487084871    -0.7236693   -0.1209598    -0.0291857   -0.6954299    -0.0483241   -0.7130126    -0.7209080   -0.0254627 
   5.494649446    -0.7258068   -0.1185400    -0.0265185   -0.6894951    -0.0445729   -0.7060707    -0.7224803   -0.0259203 
   5.502214022    -0.7292111   -0.1172027    -0.0236477   -0.6837027    -0.0397881   -0.7005628    -0.7258820   -0.0242195 
   5.509778598    -0.7334561   -0.1147564    -0.0198701   -0.6783600    -0.0343782   -0.6961488    -0.7285320   -0.0205548 
   5.517343173    -0.7382159   -0.1126646    -0.0173946   -0.6739901    -0.0297561   -0.6917508    -0.7314513   -0.0135237 
   5.524907749    -0.7431698   -0.1080949    -0.0130864   -0.6693484    -0.0239248   -0.6878904    -0.7326421   -0.0051675 
   5.532472325    -0.7469932   -0.1034656    -0.0097773   -0.6654388    -0.0190713   -0.6851233    -0.7344117    0.0046928 
   5.540036900    -0.7510391   -0.0973988    -0.0043711   -0.6612535    -0.0128914   -0.6814919    -0.7359728    0.0160573 
   5.547601476    -0.7524198   -0.0914978     0.0008120   -0.6573970    -0.0072571   -0.6783673    -0.7369552    0.0269145 
   5.555166052    -0.7552820   -0.0851208     0.0080263   -0.6537487    -0.0013374   -0.6749862    -0.7368007    0.0388616 
   5.562730627    -0.7523123   -0.0772302     0.0145350   -0.6507232     0.0044926   -0.6712472    -0.7368019    0.0506507 
   5.570295203    -0.7521864   -0.0725250     0.0216118   -0.6489521     0.0093551   -0.6677710    -0.7374649    0.0622617 
   5.577859779    -0.7502604   -0.0646146     0.0293878   -0.6489041     0.0141963   -0.6649624    -0.7383209    0.0730700 
   5.585424354    -0.7467206   -0.0586018     0.0357185   -0.6510474     0.0185138   -0.6627426    -0.7390121    0.0838286 
   5.592988930    -0.7425559   -0.0518812     0.0437589   -0.6534449     0.0231381   -0.6608393    -0.7397240    0.0930041 
   5.600553506    -0.7376959   -0.0453194     0.0501205   -0.6572088     0.0277140   -0.6596412    -0.7387851    0.1006800 
   5.608118081    -0.7323129   -0.0398159     0.0550997   -0.6614252     0.0313202   -0.6577754    -0.7367117    0.1080725 
   5.615682657    -0.7251819   -0.0368064     0.0556939   -0.6645591     0.0321481   -0.6546718    -0.7317333    0.1091326 
   5.623247232    -0.7242950   -0.0392336     0.0624040   -0.6592843     0.0393615   -0.6441939    -0.7325190    0.1014689 
   5.630811808    -0.7261742   -0.0312442     0.0740384   -0.6678677     0.0509727   -0.6476852    -0.7393323    0.1082705 
   5.638376384    -0.7232088   -0.0240883     0.0767457   -0.6762450     0.0548054   -0.6520215    -0.7368656    0.1134305 
   5.645940959    -0.7215056   -0.0184007     0.0812751   -0.6832253     0.0606652   -0.6557513    -0.7390683    0.1138226 
   5.653505535    -0.7188929   -0.0121298     0.0836888   -0.6910970     0.0644193   -0.6625323    -0.7401639    0.1193355 
   5.661070111    -0.7157808   -0.0088504     0.0843132   -0.6970103     0.0677547   -0.6679873    -0.7398191    0.1235189 
   5.668634686    -0.7130259   -0.0060287     0.0859242   -0.7019146     0.0701918   -0.6726671    -0.7392989    0.1273000 
   5.676199262    -0.7096621   -0.0028350     0.0858930   -0.7068045     0.0721512   -0.6769633    -0.7377081    0.1302926 
   5.683763838    -0.7066212    0.0006389     0.0869340   -0.7120085     0.0736055   -0.6819945    -0.7363095    0.1335053 
   5.691328413    -0.7025548    0.0048256     0.0885872   -0.7175321     0.0749217   -0.6882904    -0.7336885    0.1362495 
   5.698892989    -0.6992690    0.0077819     0.0907661   -0.7233359     0.0762840   -0.6951649    -0.7310711    0.1374418 
   5.706457565    -0.6945165    0.0111495     0.0922349   -0.7292491     0.0785952   -0.7035630    -0.7270027    0.1392834 
   5.714022140    -0.6883745    0.0142205     0.0950228   -0.7355235     0.0807125   -0.7108499    -0.7218847    0.1410794 
   5.721586716    -0.6816347    0.0181305     0.0966375   -0.7422755     0.0829758   -0.7189276    -0.7173442    0.1428409 
   5.729151292    -0.6728718    0.0212698     0.0965650   -0.7489440     0.0847774   -0.7260602    -0.7115310    0.1440052 
   5.736715867    -0.6646672    0.0248248     0.0974266   -0.7573144     0.0856222   -0.7351504    -0.7043184    0.1463958 
   5.744280443    -0.6546623    0.0272840     0.0969094   -0.7667090     0.0864736   -0.7449589    -0.6952026    0.1474610 
   5.751845018    -0.6448811    0.0286064     0.0970705   -0.7767438     0.0863361   -0.7555064    -0.6860484    0.1506689 
   5.759409594    -0.6343781    0.0290743     0.0951667   -0.7871225     0.0872627   -0.7667657    -0.6755968    0.1531336 
   5.766974170    -0.6237382    0.0288315     0.0924823   -0.7976760     0.0877539   -0.7770647    -0.6638569    0.1544928 
   5.774538745    -0.6134439    0.0274690     0.0866797   -0.8063630     0.0856654   -0.7875547    -0.6513168    0.1572463 
   5.782103321    -0.6042256    0.0256075     0.0785802   -0.8144855     0.0806029   -0.7970266    -0.6390453    0.1606460 
   5.789667897    -0.5952758    0.0219777     0.0705491   -0.8226090     0.0742268   -0.8053225    -0.6270391    0.1641211 
   5.797232472    -0.5869034    0.0196228     0.0602525   -0.8296858     0.0675882   -0.8123880    -0.6144000    0.1669040 
   5.804797048    -0.5791823    0.0147747     0.0519237   -0.8349756     0.0611226   -0.8186674    -0.6046594    0.1696319 
   5.812361624    -0.5714201    0.0108628     0.0429939   -0.8383436     0.0558797   -0.8224860    -0.5936148    0.1716716 
   5.819926199    -0.5632747    0.0066845     0.0356565   -0.8399989     0.0521874   -0.8254927    -0.5849587    0.1749113 
   5.827490775    -0.5557558    0.0021545     0.0272648   -0.8409257     0.0476677   -0.8261724    -0.5781019    0.1759880 
   5.835055351    -0.5477982   -0.0031543     0.0207262   -0.8401713     0.0439029   -0.8277509    -0.5708743    0.1768901 
   5.842619926    -0.5418706   -0.0098173     0.0134219   -0.8404433     0.0406831   -0.8289903    -0.5668967    0.1774403 
   5.850184502    -0.5375860   -0.0160042     0.0078333   -0.8421450     0.0377527   -0.8330058    -0.5641241    0.1754781 
   5.857749077    -0.5345137   -0.0222691     0.0028900   -0.8441588     0.0349695   -0.8369785    -0.5629595    0.1729849 
   5.865313653    -0.5324985   -0.0275635    -0.0016119   -0.8482391     0.0320705   -0.8411978    -0.5612288    0.1673092 
   5.872878229    -0.5306239   -0.0317907    -0.0066853   -0.8513616     0.0285340   -0.8459876    -0.5595333    0.1589420 
   5.880442804    -0.5286646   -0.0335823    -0.0141218   -0.8545652     0.0218436   -0.8514420    -0.5586675    0.1487627 
   5.888007380    -0.5259697   -0.0359005    -0.0240516   -0.8582914     0.0133501   -0.8562739    -0.5581958    0.1358417 
   5.895571956    -0.5233790   -0.0383591    -0.0333367   -0.8608481     0.0068001   -0.8603821    -0.5594747    0.1217491 
   5.903136531    -0.5211942   -0.0423085    -0.0439032   -0.8637245    -0.0061951   -0.8648259    -0.5616777    0.1084745 
   5.910701107    -0.5198035   -0.0463741    -0.0541421   -0.8634638    -0.0194275   -0.8663489    -0.5639609    0.0938907 
   5.918265683    -0.5204030   -0.0518948    -0.0637208   -0.8630660    -0.0315548   -0.8667123    -0.5665904    0.0814834 
   5.925830258    -0.5228146   -0.0568109    -0.0745761   -0.8596537    -0.0429643   -0.8652725    -0.5691330    0.0706089 
   5.933394834    -0.5259023   -0.0628801    -0.0842429   -0.8557196    -0.0548617   -0.8620839    -0.5704975    0.0625383 
   5.940959410    -0.5305452   -0.0688342    -0.0935457   -0.8509569    -0.0658019   -0.8575632    -0.5708467    0.0567761 
   5.948523985    -0.5371401   -0.0753194    -0.1019749   -0.8448842    -0.0764504   -0.8528122    -0.5706887    0.0528833 
   5.956088561    -0.5446488   -0.0811672    -0.1085307   -0.8387948    -0.0852661   -0.8480372    -0.5688994    0.0498099 
   5.963653137    -0.5537633   -0.0866961    -0.1145684   -0.8319408    -0.0950842   -0.8435451    -0.5666956    0.0507633 
   5.971217712    -0.5644591   -0.0897368    -0.1195853   -0.8251538    -0.1057740   -0.8378652    -0.5649233    0.0517311 
   5.978782288    -0.5749506   -0.0928462    -0.1232198   -0.8179116    -0.1123635   -0.8324329    -0.5629873    0.0536875 
   5.986346863    -0.5852346   -0.0938573    -0.1257962   -0.8113393    -0.1180017   -0.8266597    -0.5615494    0.0544592 
   5.993911439    -0.5947151   -0.0938646    -0.1289087   -0.8054000    -0.1213437   -0.8215786    -0.5625331    0.0540474 
   6.001476015    -0.6034328   -0.0933995    -0.1320229   -0.8003902    -0.1275122   -0.8166828    -0.5644965    0.0546491 
   6.009040590    -0.6113236   -0.0910043    -0.1344175   -0.7945356    -0.1339647   -0.8136498    -0.5675771    0.0530281 
   6.016605166    -0.6179215   -0.0901084    -0.1363146   -0.7904660    -0.1393647   -0.8111457    -0.5733985    0.0525934 
   6.024169742    -0.6235171   -0.0876797    -0.1376222   -0.7844451    -0.1463142   -0.8085326    -0.5798572    0.0521935 
   6.031734317    -0.6287459   -0.0859786    -0.1398326   -0.7792530    -0.1514650   -0.8049251    -0.5859906    0.0526536 
   6.039298893    -0.6326908   -0.0854206    -0.1403710   -0.7739006    -0.1559656   -0.7994094    -0.5930135    0.0520757 
   6.046863469    -0.6368294   -0.0852021    -0.1411166   -0.7688507    -0.1598089   -0.7927774    -0.5993021    0.0505404 
   6.054428044    -0.6417246   -0.0851205    -0.1438600   -0.7639366    -0.1630073   -0.7864609    -0.6068228    0.0480899 
   6.061992620    -0.6463600   -0.0840343    -0.1459891   -0.7593117    -0.1652345   -0.7795927    -0.6129013    0.0460158 
   6.069557196    -0.6511889   -0.0836121    -0.1466213   -0.7552102    -0.1669366   -0.7738163    -0.6172436    0.0443045 
   6.077121771    -0.6564412   -0.0830652    -0.1480449   -0.7495663    -0.1669104   -0.7674586    -0.6213295    0.0438928 
   6.084686347    -0.6616343   -0.0810991    -0.1477978   -0.7446610    -0.1662572   -0.7622369    -0.6252477    0.0431967 
   6.092250923    -0.6672189   -0.0784557    -0.1480946   -0.7381863    -0.1638966   -0.7561302    -0.6287732    0.0458579 
   6.099815498    -0.6732900   -0.0747516    -0.1468210   -0.7315418    -0.1617446   -0.7499534    -0.6323338    0.0481453 
   6.107380074    -0.6790457   -0.0702906    -0.1455274   -0.7251437    -0.1587267   -0.7433885    -0.6355292    0.0535349 
   6.114944649    -0.6850875   -0.0648323    -0.1434869   -0.7185771    -0.1556652   -0.7375239    -0.6384684    0.0601349 
   6.122509225    -0.6909851   -0.0597643    -0.1395190   -0.7129328    -0.1516783   -0.7323028    -0.6414797    0.0668964 
   6.130073801    -0.6953295   -0.0524230    -0.1354807   -0.7083789    -0.1477504   -0.7268216    -0.6440358    0.0755432 
