! MS46122B
! 1919307/90821646
! 5/16/2022 1:16:13 PM
! C:\USERS\PC_\DESKTOP\CARACTERIZACION\MEDICIONES\BANDA ANCHA\S11_S21_ABS65_1002C.S2P
! CHANNEL.1
! TR.MEASUREMENT
! CORRECTED.DATA
# GHZ S RI R 50.0
! FREQ.GHZ         S11RE         S11IM         S21RE         S21IM         S12RE         S12IM         S22RE         S22IM         
!; PortSelection: Port_12
   4.950000000    -0.8335015    0.0933660    -0.0411453   -0.5398438    -0.0476408   -0.5598023    -0.8439049    0.0289676 
   4.957564576    -0.8348731    0.0925925    -0.0420885   -0.5375908    -0.0487296   -0.5564530    -0.8414873    0.0455677 
   4.965129151    -0.8388864    0.0903161    -0.0431524   -0.5336499    -0.0490241   -0.5524130    -0.8399994    0.0622905 
   4.972693727    -0.8419520    0.0897394    -0.0413571   -0.5289665    -0.0484077   -0.5483169    -0.8410259    0.0774358 
   4.980258303    -0.8437366    0.0901393    -0.0396044   -0.5244169    -0.0469073   -0.5435763    -0.8408915    0.0891490 
   4.987822878    -0.8438275    0.0930789    -0.0346468   -0.5212752    -0.0447287   -0.5389063    -0.8416968    0.0983669 
   4.995387454    -0.8442034    0.0966856    -0.0299495   -0.5198955    -0.0419144   -0.5358890    -0.8432792    0.1030814 
   5.002952030    -0.8435938    0.1006709    -0.0241580   -0.5204164    -0.0384014   -0.5333441    -0.8443058    0.1040623 
   5.010516605    -0.8415636    0.1050327    -0.0181051   -0.5228891    -0.0352242   -0.5320464    -0.8460923    0.1025263 
   5.018081181    -0.8388919    0.1081845    -0.0142179   -0.5261208    -0.0320696   -0.5304856    -0.8459489    0.0999835 
   5.025645756    -0.8359079    0.1116103    -0.0098376   -0.5300909    -0.0293175   -0.5303891    -0.8443020    0.0960976 
   5.033210332    -0.8326081    0.1153861    -0.0083494   -0.5350602    -0.0269484   -0.5295583    -0.8424649    0.0916273 
   5.040774908    -0.8302307    0.1196284    -0.0066950   -0.5403337    -0.0254446   -0.5305337    -0.8404949    0.0891494 
   5.048339483    -0.8283499    0.1221893    -0.0070931   -0.5463790    -0.0243734   -0.5316033    -0.8378072    0.0878888 
   5.055904059    -0.8273531    0.1238308    -0.0066447   -0.5522892    -0.0234261   -0.5339978    -0.8349801    0.0880402 
   5.063468635    -0.8263502    0.1248532    -0.0084999   -0.5581986    -0.0234899   -0.5360922    -0.8319213    0.0906916 
   5.071033210    -0.8251113    0.1257935    -0.0098009   -0.5629492    -0.0248958   -0.5379324    -0.8288190    0.0960796 
   5.078597786    -0.8251818    0.1254620    -0.0132733   -0.5670547    -0.0268693   -0.5402604    -0.8261930    0.1027590 
   5.086162362    -0.8238710    0.1250062    -0.0186919   -0.5702415    -0.0296687   -0.5423663    -0.8244612    0.1112650 
   5.093726937    -0.8236469    0.1246976    -0.0228757   -0.5722814    -0.0328677   -0.5437539    -0.8235975    0.1189872 
   5.101291513    -0.8240227    0.1245008    -0.0270635   -0.5733717    -0.0348790   -0.5449113    -0.8233051    0.1257047 
   5.108856089    -0.8247610    0.1244179    -0.0293165   -0.5737092    -0.0364213   -0.5461302    -0.8233276    0.1313621 
   5.116420664    -0.8250034    0.1256405    -0.0300868   -0.5738145    -0.0370301   -0.5470138    -0.8252943    0.1355537 
   5.123985240    -0.8249600    0.1276121    -0.0288235   -0.5735145    -0.0367684   -0.5484735    -0.8258395    0.1372824 
   5.131549815    -0.8229408    0.1305014    -0.0265477   -0.5746437    -0.0356410   -0.5503678    -0.8250278    0.1344913 
   5.139114391    -0.8187145    0.1339662    -0.0228895   -0.5780222    -0.0341412   -0.5557030    -0.8269714    0.1247197 
   5.146678967    -0.8151143    0.1393354    -0.0219712   -0.5840991    -0.0345959   -0.5619418    -0.8321082    0.1162597 
   5.154243542    -0.8090359    0.1447531    -0.0215051   -0.5894417    -0.0355294   -0.5679129    -0.8319296    0.1066429 
   5.161808118    -0.8030503    0.1493129    -0.0206380   -0.5970401    -0.0349443   -0.5740050    -0.8299586    0.0979093 
   5.169372694    -0.7957451    0.1520403    -0.0208603   -0.6045491    -0.0346923   -0.5803578    -0.8249298    0.0904763 
   5.176937269    -0.7875288    0.1548498    -0.0225605   -0.6134868    -0.0337449   -0.5863191    -0.8189061    0.0853062 
   5.184501845    -0.7782529    0.1560398    -0.0258323   -0.6219747    -0.0331863   -0.5931487    -0.8107388    0.0831691 
   5.192066421    -0.7692602    0.1539558    -0.0314806   -0.6307954    -0.0331871   -0.6013520    -0.8039906    0.0840118 
   5.199630996    -0.7629663    0.1514093    -0.0395583   -0.6393427    -0.0348764   -0.6117246    -0.7960333    0.0867381 
   5.207195572    -0.7581251    0.1476251    -0.0497021   -0.6468489    -0.0380075   -0.6219205    -0.7867668    0.0934328 
   5.214760148    -0.7566720    0.1433197    -0.0610192   -0.6517733    -0.0442234   -0.6316413    -0.7753370    0.1024587 
   5.222324723    -0.7549374    0.1389760    -0.0738577   -0.6536530    -0.0521822   -0.6391646    -0.7646122    0.1111566 
   5.229889299    -0.7541359    0.1346436    -0.0856429   -0.6520882    -0.0611419   -0.6451442    -0.7572984    0.1190906 
   5.237453875    -0.7540941    0.1324912    -0.0958295   -0.6484078    -0.0700268   -0.6470608    -0.7521825    0.1257445 
   5.245018450    -0.7543488    0.1316735    -0.1043268   -0.6437721    -0.0788533   -0.6477652    -0.7523482    0.1336832 
   5.252583026    -0.7554640    0.1333025    -0.1116481   -0.6399718    -0.0865381   -0.6466882    -0.7564922    0.1411435 
   5.260147601    -0.7518303    0.1365280    -0.1170589   -0.6353644    -0.0924985   -0.6440541    -0.7611752    0.1464608 
   5.267712177    -0.7501919    0.1398858    -0.1207284   -0.6308833    -0.0970427   -0.6413191    -0.7667743    0.1475753 
   5.275276753    -0.7439586    0.1423816    -0.1223060   -0.6265683    -0.0995217   -0.6370836    -0.7722973    0.1450906 
   5.282841328    -0.7378263    0.1427830    -0.1244813   -0.6222236    -0.1009571   -0.6330531    -0.7790430    0.1369065 
   5.290405904    -0.7328194    0.1410172    -0.1239116   -0.6192899    -0.1001632   -0.6305428    -0.7859316    0.1250445 
   5.297970480    -0.7279986    0.1387941    -0.1248149   -0.6184467    -0.0999154   -0.6293879    -0.7919552    0.1106628 
   5.305535055    -0.7260326    0.1371236    -0.1262932   -0.6195054    -0.1002659   -0.6296992    -0.7975560    0.0957073 
   5.313099631    -0.7264523    0.1367056    -0.1293625   -0.6232573    -0.1025433   -0.6318247    -0.8018999    0.0809322 
   5.320664207    -0.7276222    0.1370414    -0.1349247   -0.6268588    -0.1067496   -0.6342584    -0.8055598    0.0682974 
   5.328228782    -0.7298102    0.1379164    -0.1433801   -0.6289586    -0.1133787   -0.6364310    -0.8063888    0.0567975 
   5.335793358    -0.7301559    0.1378402    -0.1526672   -0.6279951    -0.1227888   -0.6363817    -0.8049921    0.0484441 
   5.343357934    -0.7311720    0.1380124    -0.1631632   -0.6244117    -0.1327394   -0.6348397    -0.8027034    0.0444795 
   5.350922509    -0.7337578    0.1363102    -0.1734315   -0.6182751    -0.1432772   -0.6296880    -0.7983543    0.0463892 
   5.358487085    -0.7363024    0.1353743    -0.1822658   -0.6108680    -0.1542094   -0.6225543    -0.7941561    0.0528223 
   5.366051661    -0.7417454    0.1345728    -0.1886390   -0.6021065    -0.1631563   -0.6150289    -0.7885817    0.0635259 
   5.373616236    -0.7481410    0.1343667    -0.1928368   -0.5930284    -0.1701562   -0.6061594    -0.7837444    0.0759301 
   5.381180812    -0.7537284    0.1354318    -0.1942363   -0.5823655    -0.1756125   -0.5978878    -0.7798051    0.0892921 
   5.388745387    -0.7601710    0.1360538    -0.1947432   -0.5717704    -0.1786680   -0.5894583    -0.7771211    0.1027951 
   5.396309963    -0.7656146    0.1357950    -0.1923302   -0.5616086    -0.1811068   -0.5820451    -0.7756941    0.1151935 
   5.403874539    -0.7702888    0.1369377    -0.1885304   -0.5516753    -0.1823435   -0.5744748    -0.7750458    0.1265103 
   5.411439114    -0.7760532    0.1386889    -0.1821993   -0.5443835    -0.1835553   -0.5680703    -0.7755550    0.1336105 
   5.419003690    -0.7817245    0.1416616    -0.1760260   -0.5394756    -0.1841623   -0.5629834    -0.7776155    0.1379645 
   5.426568266    -0.7864718    0.1454168    -0.1684756   -0.5380170    -0.1846350   -0.5589743    -0.7820271    0.1367339 
   5.434132841    -0.7890297    0.1496926    -0.1638339   -0.5379798    -0.1842806   -0.5558839    -0.7876582    0.1342516 
   5.441697417    -0.7902797    0.1537175    -0.1599019   -0.5393712    -0.1842263   -0.5538220    -0.7954077    0.1303521 
   5.449261993    -0.7896969    0.1564823    -0.1577852   -0.5396478    -0.1846371   -0.5504838    -0.8020144    0.1254615 
   5.456826568    -0.7890015    0.1581578    -0.1575692   -0.5393083    -0.1856633   -0.5467166    -0.8082677    0.1207686 
   5.464391144    -0.7881503    0.1585103    -0.1586568   -0.5382136    -0.1861518   -0.5427738    -0.8122273    0.1160967 
   5.471955720    -0.7896338    0.1581348    -0.1576381   -0.5366877    -0.1844096   -0.5391403    -0.8141651    0.1109580 
   5.479520295    -0.7909470    0.1573415    -0.1560680   -0.5343402    -0.1817098   -0.5362586    -0.8140842    0.1073151 
   5.487084871    -0.7935994    0.1572802    -0.1541984   -0.5323822    -0.1776708   -0.5343753    -0.8115861    0.1046249 
   5.494649446    -0.7964256    0.1567418    -0.1515198   -0.5295667    -0.1735848   -0.5328986    -0.8092464    0.1028008 
   5.502214022    -0.8006468    0.1568495    -0.1484262   -0.5274994    -0.1686776   -0.5320793    -0.8071449    0.1056024 
   5.509778598    -0.8054584    0.1570447    -0.1453431   -0.5249372    -0.1646115   -0.5315769    -0.8059521    0.1104909 
   5.517343173    -0.8112159    0.1586502    -0.1425335   -0.5230994    -0.1602692   -0.5307932    -0.8041113    0.1204257 
   5.524907749    -0.8162448    0.1622776    -0.1390100   -0.5205185    -0.1555486   -0.5300852    -0.8028064    0.1311655 
   5.532472325    -0.8207204    0.1664243    -0.1349407   -0.5189049    -0.1508209   -0.5296600    -0.8020974    0.1432275 
   5.540036900    -0.8249128    0.1714271    -0.1295345   -0.5167040    -0.1451959   -0.5291954    -0.8030052    0.1555475 
   5.547601476    -0.8265656    0.1761505    -0.1232433   -0.5152361    -0.1389985   -0.5283394    -0.8039849    0.1660694 
   5.555166052    -0.8292621    0.1811627    -0.1164265   -0.5145302    -0.1329211   -0.5275370    -0.8050890    0.1754020 
   5.562730627    -0.8265241    0.1870433    -0.1084667   -0.5143900    -0.1256180   -0.5271182    -0.8067030    0.1837091 
   5.570295203    -0.8264874    0.1899469    -0.1009969   -0.5161592    -0.1191939   -0.5265914    -0.8088434    0.1907846 
   5.577859779    -0.8249368    0.1962609    -0.0939488   -0.5198727    -0.1131861   -0.5268267    -0.8113545    0.1954209 
   5.585424354    -0.8226277    0.2010216    -0.0869091   -0.5250213    -0.1068817   -0.5279568    -0.8137259    0.1992186 
   5.592988930    -0.8209478    0.2058611    -0.0792342   -0.5309932    -0.1001907   -0.5294826    -0.8155845    0.2015011 
   5.600553506    -0.8187435    0.2102887    -0.0735378   -0.5380477    -0.0941578   -0.5318924    -0.8166308    0.2017721 
   5.608118081    -0.8168522    0.2154386    -0.0687303   -0.5454355    -0.0878440   -0.5346249    -0.8163565    0.2027420 
   5.615682657    -0.8148514    0.2194162    -0.0655747   -0.5546603    -0.0828317   -0.5380771    -0.8171827    0.2024825 
   5.623247232    -0.8124963    0.2247110    -0.0639476   -0.5636109    -0.0791709   -0.5418434    -0.8140718    0.2045908 
   5.630811808    -0.8099365    0.2297253    -0.0638959   -0.5727661    -0.0756389   -0.5465769    -0.8110237    0.2076410 
   5.638376384    -0.8078919    0.2353828    -0.0647780   -0.5815149    -0.0741821   -0.5525634    -0.8081800    0.2122563 
   5.645940959    -0.8072872    0.2406658    -0.0664024   -0.5904782    -0.0736437   -0.5587063    -0.8054919    0.2182022 
   5.653505535    -0.8059898    0.2457796    -0.0694583   -0.5971423    -0.0734333   -0.5648749    -0.8026159    0.2269704 
   5.661070111    -0.8055792    0.2497967    -0.0719162   -0.6031576    -0.0741927   -0.5703276    -0.8008283    0.2353718 
   5.668634686    -0.8039604    0.2532484    -0.0752432   -0.6078395    -0.0745060   -0.5750863    -0.8000348    0.2436626 
   5.676199262    -0.8026832    0.2570632    -0.0771912   -0.6123253    -0.0759756   -0.5790020    -0.7999716    0.2511144 
   5.683763838    -0.8002105    0.2619631    -0.0804156   -0.6170714    -0.0775703   -0.5837182    -0.8009565    0.2582735 
   5.691328413    -0.7973306    0.2677126    -0.0803886   -0.6219608    -0.0794455   -0.5895671    -0.8020132    0.2633540 
   5.698892989    -0.7941014    0.2732712    -0.0820995   -0.6272079    -0.0804196   -0.5954350    -0.8043346    0.2657798 
   5.706457565    -0.7898419    0.2780553    -0.0819628   -0.6327332    -0.0821145   -0.6029946    -0.8055528    0.2672721 
   5.714022140    -0.7837560    0.2840593    -0.0822498   -0.6388673    -0.0825499   -0.6097230    -0.8052548    0.2662673 
   5.721586716    -0.7760969    0.2887096    -0.0827271   -0.6454105    -0.0839251   -0.6175199    -0.8073688    0.2642442 
   5.729151292    -0.7666620    0.2935537    -0.0851529   -0.6523778    -0.0848901   -0.6255031    -0.8058544    0.2599076 
   5.736715867    -0.7575182    0.2983875    -0.0874227   -0.6619363    -0.0879795   -0.6343737    -0.8020600    0.2566633 
   5.744280443    -0.7469680    0.3012950    -0.0906510   -0.6726453    -0.0912208   -0.6453662    -0.7957236    0.2525276 
   5.751845018    -0.7367857    0.3041823    -0.0962558   -0.6829360    -0.0950055   -0.6564798    -0.7876811    0.2505625 
   5.759409594    -0.7262502    0.3052221    -0.1020325   -0.6932571    -0.0993730   -0.6688359    -0.7769337    0.2486729 
   5.766974170    -0.7157305    0.3048368    -0.1107690   -0.7025707    -0.1043393   -0.6797741    -0.7637424    0.2469920 
   5.774538745    -0.7053273    0.3042214    -0.1213064   -0.7102293    -0.1126059   -0.6899117    -0.7498953    0.2480486 
   5.782103321    -0.6961522    0.3021026    -0.1339630   -0.7158377    -0.1223909   -0.6986981    -0.7356306    0.2516652 
   5.789667897    -0.6875079    0.3000744    -0.1470838   -0.7207696    -0.1341345   -0.7055243    -0.7209386    0.2556575 
   5.797232472    -0.6790050    0.2981616    -0.1606071   -0.7231805    -0.1444288   -0.7110543    -0.7064153    0.2618920 
   5.804797048    -0.6726885    0.2951091    -0.1732473   -0.7245606    -0.1560996   -0.7148558    -0.6943523    0.2698748 
   5.812361624    -0.6648729    0.2927898    -0.1834986   -0.7229670    -0.1643473   -0.7163238    -0.6829703    0.2773200 
   5.819926199    -0.6583926    0.2895883    -0.1942616   -0.7196230    -0.1725586   -0.7166432    -0.6729304    0.2853148 
   5.827490775    -0.6512258    0.2868178    -0.2029787   -0.7156736    -0.1775741   -0.7148453    -0.6659847    0.2918032 
   5.835055351    -0.6432748    0.2831847    -0.2113440   -0.7102883    -0.1846315   -0.7133494    -0.6602795    0.2973417 
   5.842619926    -0.6377435    0.2796869    -0.2167116   -0.7071943    -0.1876813   -0.7131335    -0.6570417    0.3000475 
   5.850184502    -0.6331719    0.2774134    -0.2237440   -0.7039563    -0.1914205   -0.7142590    -0.6571837    0.2994896 
   5.857749077    -0.6295338    0.2749694    -0.2279613   -0.7029723    -0.1949854   -0.7164032    -0.6594949    0.2957743 
   5.865313653    -0.6258889    0.2747428    -0.2337750   -0.7019987    -0.1986416   -0.7187217    -0.6626945    0.2885260 
   5.872878229    -0.6214364    0.2737558    -0.2387453   -0.7010733    -0.2032472   -0.7218869    -0.6659085    0.2762053 
   5.880442804    -0.6153591    0.2752095    -0.2464848   -0.7003697    -0.2120921   -0.7243053    -0.6704428    0.2632520 
   5.888007380    -0.6083703    0.2735701    -0.2544353   -0.6986377    -0.2209764   -0.7252337    -0.6753085    0.2464036 
   5.895571956    -0.6018290    0.2711293    -0.2632865   -0.6972693    -0.2316916   -0.7246631    -0.6811399    0.2324325 
   5.903136531    -0.5970396    0.2674732    -0.2714350   -0.6953065    -0.2430381   -0.7226880    -0.6855733    0.2187895 
   5.910701107    -0.5942884    0.2631882    -0.2796191   -0.6920859    -0.2544571   -0.7185725    -0.6889132    0.2079825 
   5.918265683    -0.5939336    0.2578511    -0.2882774   -0.6877542    -0.2649520   -0.7127801    -0.6898742    0.1993992 
   5.925830258    -0.5955764    0.2530068    -0.2971880   -0.6814321    -0.2742524   -0.7060171    -0.6885048    0.1958027 
   5.933394834    -0.5985116    0.2476618    -0.3052371   -0.6741197    -0.2834529   -0.6973904    -0.6846587    0.1950255 
   5.940959410    -0.6022176    0.2435365    -0.3121996   -0.6653224    -0.2914269   -0.6877690    -0.6786185    0.1975015 
   5.948523985    -0.6077062    0.2404290    -0.3181732   -0.6558817    -0.2992033   -0.6775026    -0.6712427    0.2007378 
   5.956088561    -0.6136357    0.2364084    -0.3204246   -0.6459773    -0.3044358   -0.6683326    -0.6639111    0.2048341 
   5.963653137    -0.6211562    0.2351248    -0.3231636   -0.6355681    -0.3119793   -0.6580353    -0.6566185    0.2123814 
   5.971217712    -0.6282930    0.2347530    -0.3224068   -0.6267262    -0.3152116   -0.6490175    -0.6495059    0.2180350 
   5.978782288    -0.6351290    0.2351741    -0.3216331   -0.6172243    -0.3187842   -0.6394431    -0.6452599    0.2243613 
   5.986346863    -0.6407117    0.2363854    -0.3192869   -0.6098047    -0.3201560   -0.6312044    -0.6434928    0.2286668 
   5.993911439    -0.6452084    0.2371908    -0.3166034   -0.6032586    -0.3204332   -0.6239013    -0.6452944    0.2300743 
   6.001476015    -0.6480235    0.2383459    -0.3139403   -0.5984121    -0.3231217   -0.6165171    -0.6489598    0.2318862 
   6.009040590    -0.6504071    0.2396740    -0.3109412   -0.5941533    -0.3252569   -0.6105890    -0.6538151    0.2305897 
   6.016605166    -0.6525151    0.2393940    -0.3081416   -0.5908574    -0.3262569   -0.6054375    -0.6604894    0.2288110 
   6.024169742    -0.6534974    0.2392739    -0.3055532   -0.5878029    -0.3273458   -0.6001403    -0.6662045    0.2270329 
   6.031734317    -0.6559741    0.2380631    -0.3027160   -0.5855262    -0.3276283   -0.5962344    -0.6721436    0.2233297 
   6.039298893    -0.6575670    0.2364251    -0.3016779   -0.5834866    -0.3272336   -0.5917656    -0.6778640    0.2196025 
   6.046863469    -0.6598237    0.2339640    -0.2996394   -0.5816292    -0.3262845   -0.5873559    -0.6819115    0.2131288 
   6.054428044    -0.6628711    0.2319789    -0.2991194   -0.5795712    -0.3265417   -0.5836170    -0.6864505    0.2065450 
   6.061992620    -0.6662170    0.2307580    -0.2990447   -0.5774285    -0.3260951   -0.5799652    -0.6889901    0.2007141 
   6.069557196    -0.6704633    0.2287940    -0.2993346   -0.5752192    -0.3254305   -0.5776343    -0.6889126    0.1970415 
   6.077121771    -0.6753338    0.2290496    -0.2984971   -0.5725057    -0.3248653   -0.5742751    -0.6876215    0.1947663 
   6.084686347    -0.6799309    0.2285430    -0.2984449   -0.5691616    -0.3225522   -0.5720919    -0.6868517    0.1945966 
   6.092250923    -0.6847478    0.2310883    -0.2959213   -0.5648697    -0.3201065   -0.5683389    -0.6844916    0.1967750 
   6.099815498    -0.6897917    0.2328674    -0.2945288   -0.5599719    -0.3163338   -0.5652547    -0.6833711    0.2011546 
   6.107380074    -0.6945814    0.2373871    -0.2905644   -0.5560247    -0.3126859   -0.5610403    -0.6810707    0.2069730 
   6.114944649    -0.6989542    0.2419647    -0.2868651   -0.5517566    -0.3076882   -0.5580259    -0.6799011    0.2148695 
   6.122509225    -0.7032821    0.2464530    -0.2819450   -0.5488213    -0.3016807   -0.5562412    -0.6804633    0.2234837 
   6.130073801    -0.7057870    0.2525707    -0.2757845   -0.5470808    -0.2953750   -0.5543740    -0.6811428    0.2326272 
