! MS46122B
! 1919307/90821646
! 7/29/2022 2:44:43 PM
! C:\USERS\PC_\DESKTOP\MEDICIONES\BANCHA ESTRECHA\65_7GHZ\S11_S21_ABS10_1002CL.S2P
! CHANNEL.1
! TR.MEASUREMENT
! CORRECTED.DATA
# GHZ S RI R 50.0
! FREQ.GHZ         S11RE         S11IM         S21RE         S21IM         S12RE         S12IM         S22RE         S22IM         
!; PortSelection: Port_12
   6.500000000    -0.3720914    0.5006262    -0.5768516   -0.5555109    -0.5733825   -0.5554393    -0.4295716    0.4489061 
   6.502500000    -0.3769053    0.5001596    -0.5786451   -0.5485968    -0.5748405   -0.5535801    -0.4268820    0.4479797 
   6.505000000    -0.3774192    0.4988859    -0.5801365   -0.5461763    -0.5759031   -0.5520558    -0.4242862    0.4474410 
   6.507500000    -0.3781115    0.4972405    -0.5808361   -0.5453316    -0.5767521   -0.5512016    -0.4222502    0.4466802 
   6.510000000    -0.3784101    0.4959305    -0.5821609   -0.5437580    -0.5772003   -0.5501672    -0.4202787    0.4448720 
   6.512500000    -0.3785753    0.4946222    -0.5824568   -0.5425757    -0.5790274   -0.5486355    -0.4179288    0.4434152 
   6.515000000    -0.3785606    0.4935089    -0.5843407   -0.5413230    -0.5798878   -0.5471807    -0.4155006    0.4422062 
   6.517500000    -0.3784770    0.4923882    -0.5864115   -0.5390968    -0.5815874   -0.5458833    -0.4129376    0.4412046 
   6.520000000    -0.3787295    0.4915686    -0.5874286   -0.5375069    -0.5827891   -0.5443407    -0.4101774    0.4401111 
   6.522500000    -0.3788202    0.4904949    -0.5885666   -0.5360842    -0.5838775   -0.5433564    -0.4070843    0.4395286 
   6.525000000    -0.3787791    0.4892274    -0.5897514   -0.5342151    -0.5856313   -0.5420691    -0.4044217    0.4385241 
   6.527500000    -0.3788437    0.4880646    -0.5920463   -0.5324996    -0.5871405   -0.5403912    -0.4016083    0.4374809 
   6.530000000    -0.3784572    0.4873077    -0.5934879   -0.5302495    -0.5887715   -0.5388049    -0.3983557    0.4366584 
   6.532500000    -0.3783990    0.4862319    -0.5953056   -0.5293342    -0.5904359   -0.5366575    -0.3949964    0.4359719 
   6.535000000    -0.3783318    0.4856629    -0.5972078   -0.5274433    -0.5922190   -0.5353218    -0.3912656    0.4358422 
   6.537500000    -0.3779910    0.4843422    -0.5983332   -0.5249631    -0.5946112   -0.5333501    -0.3872180    0.4354165 
   6.540000000    -0.3772378    0.4834914    -0.6000432   -0.5226951    -0.5966417   -0.5311575    -0.3833959    0.4356801 
   6.542500000    -0.3770004    0.4821202    -0.6022800   -0.5193946    -0.5985723   -0.5286084    -0.3785103    0.4357709 
   6.545000000    -0.3763853    0.4809181    -0.6041825   -0.5164049    -0.6009119   -0.5251932    -0.3727952    0.4359181 
   6.547500000    -0.3763781    0.4800431    -0.6055068   -0.5138292    -0.6027852   -0.5221558    -0.3671784    0.4361253 
   6.550000000    -0.3757659    0.4791347    -0.6074284   -0.5106735    -0.6048523   -0.5184003    -0.3609737    0.4368144 
   6.552500000    -0.3755602    0.4781756    -0.6087465   -0.5058621    -0.6067234   -0.5142367    -0.3532155    0.4370666 
   6.555000000    -0.3753210    0.4770474    -0.6103054   -0.5007886    -0.6093985   -0.5097237    -0.3440199    0.4372600 
   6.557500000    -0.3758389    0.4761569    -0.6114239   -0.4950143    -0.6107267   -0.5034637    -0.3342728    0.4369252 
   6.560000000    -0.3764576    0.4753375    -0.6122496   -0.4891240    -0.6121020   -0.4972203    -0.3225656    0.4365501 
   6.562500000    -0.3772744    0.4748446    -0.6128258   -0.4817289    -0.6127961   -0.4903312    -0.3084463    0.4344723 
   6.565000000    -0.3784683    0.4750416    -0.6115467   -0.4734701    -0.6116486   -0.4818932    -0.2920007    0.4302841 
   6.567500000    -0.3800525    0.4771543    -0.6085544   -0.4641625    -0.6089450   -0.4714983    -0.2733414    0.4225920 
   6.570000000    -0.3825025    0.4798175    -0.6037076   -0.4523026    -0.6032411   -0.4601426    -0.2520415    0.4092064 
   6.572500000    -0.3852921    0.4838818    -0.5925709   -0.4413331    -0.5927632   -0.4485182    -0.2302635    0.3852089 
   6.575000000    -0.3863661    0.4910866    -0.5755659   -0.4330569    -0.5760968   -0.4399608    -0.2133191    0.3484225 
   6.577500000    -0.3831160    0.5013701    -0.5535270   -0.4313281    -0.5535418   -0.4385479    -0.2091548    0.2994875 
   6.580000000    -0.3739950    0.5122421    -0.5304636   -0.4414282    -0.5306029   -0.4485533    -0.2299289    0.2483667 
   6.582500000    -0.3600546    0.5182613    -0.5151712   -0.4614550    -0.5153402   -0.4688876    -0.2727300    0.2122181 
   6.585000000    -0.3449005    0.5178056    -0.5121087   -0.4847380    -0.5122575   -0.4921357    -0.3225553    0.2010076 
   6.587500000    -0.3320039    0.5127810    -0.5194119   -0.5029801    -0.5188604   -0.5110604    -0.3650392    0.2088404 
   6.590000000    -0.3222497    0.5061375    -0.5298030   -0.5148998    -0.5304077   -0.5221559    -0.3944267    0.2259880 
   6.592500000    -0.3150876    0.4992348    -0.5407065   -0.5216064    -0.5419050   -0.5287024    -0.4129497    0.2449171 
   6.595000000    -0.3085594    0.4926501    -0.5514539   -0.5237439    -0.5521230   -0.5307970    -0.4241208    0.2623728 
   6.597500000    -0.3031128    0.4857239    -0.5601135   -0.5234622    -0.5612910   -0.5300027    -0.4307507    0.2773279 
   6.600000000    -0.2978723    0.4789023    -0.5677947   -0.5211187    -0.5690083   -0.5273605    -0.4347045    0.2894402 
   6.602500000    -0.2922572    0.4718828    -0.5749848   -0.5171091    -0.5752393   -0.5232741    -0.4372079    0.2990602 
   6.605000000    -0.2868495    0.4636580    -0.5794597   -0.5123974    -0.5807704   -0.5172960    -0.4393629    0.3071871 
   6.607500000    -0.2810804    0.4538749    -0.5822674   -0.5059271    -0.5836310   -0.5109891    -0.4414164    0.3132772 
   6.610000000    -0.2756395    0.4411435    -0.5824118   -0.4988623    -0.5846553   -0.5029668    -0.4450752    0.3185090 
   6.612500000    -0.2719790    0.4251863    -0.5796564   -0.4906806    -0.5813000   -0.4945635    -0.4495772    0.3239157 
   6.615000000    -0.2741170    0.4046694    -0.5730113   -0.4833721    -0.5737939   -0.4873742    -0.4550727    0.3321232 
   6.617500000    -0.2855037    0.3837307    -0.5616038   -0.4810143    -0.5626315   -0.4848430    -0.4598621    0.3430997 
   6.620000000    -0.3065979    0.3693396    -0.5494110   -0.4870019    -0.5501554   -0.4898760    -0.4600983    0.3564597 
   6.622500000    -0.3304093    0.3674079    -0.5422286   -0.4981660    -0.5432222   -0.5013637    -0.4555406    0.3696620 
   6.625000000    -0.3489485    0.3751179    -0.5420017   -0.5106580    -0.5428766   -0.5145693    -0.4474031    0.3778843 
   6.627500000    -0.3592627    0.3860503    -0.5458173   -0.5205038    -0.5472110   -0.5243255    -0.4392734    0.3820238 
   6.630000000    -0.3636262    0.3961820    -0.5530233   -0.5260952    -0.5534179   -0.5303712    -0.4323238    0.3835658 
   6.632500000    -0.3643143    0.4049950    -0.5596740   -0.5301936    -0.5600727   -0.5339140    -0.4264376    0.3836532 
   6.635000000    -0.3635964    0.4114319    -0.5655779   -0.5320480    -0.5663611   -0.5352964    -0.4217991    0.3827693 
   6.637500000    -0.3621420    0.4159878    -0.5706354   -0.5332003    -0.5717180   -0.5364670    -0.4181306    0.3821593 
   6.640000000    -0.3603764    0.4193794    -0.5745097   -0.5332289    -0.5760224   -0.5365547    -0.4150089    0.3811325 
   6.642500000    -0.3584923    0.4220352    -0.5787026   -0.5325074    -0.5799043   -0.5365345    -0.4124376    0.3794940 
   6.645000000    -0.3563470    0.4237809    -0.5831754   -0.5319392    -0.5833365   -0.5355120    -0.4101009    0.3781033 
   6.647500000    -0.3540458    0.4257236    -0.5862496   -0.5313989    -0.5870517   -0.5343912    -0.4079376    0.3768283 
   6.650000000    -0.3520137    0.4268180    -0.5888112   -0.5308354    -0.5901403   -0.5337026    -0.4059974    0.3751401 
   6.652500000    -0.3503090    0.4273328    -0.5915850   -0.5297734    -0.5930003   -0.5324399    -0.4034186    0.3738000 
   6.655000000    -0.3484836    0.4276969    -0.5932531   -0.5295086    -0.5953365   -0.5313412    -0.4015851    0.3729323 
   6.657500000    -0.3466498    0.4283346    -0.5959630   -0.5279559    -0.5971459   -0.5306485    -0.4003612    0.3712845 
   6.660000000    -0.3445873    0.4291303    -0.5984653   -0.5270475    -0.5990769   -0.5292976    -0.3986388    0.3697724 
   6.662500000    -0.3426618    0.4295826    -0.6003619   -0.5266807    -0.6012219   -0.5284235    -0.3967021    0.3681692 
   6.665000000    -0.3408419    0.4296667    -0.6018533   -0.5258796    -0.6032621   -0.5272326    -0.3945634    0.3670496 
   6.667500000    -0.3391182    0.4297954    -0.6026976   -0.5254272    -0.6047633   -0.5262062    -0.3927024    0.3654909 
   6.670000000    -0.3369741    0.4299848    -0.6043710   -0.5239707    -0.6064157   -0.5259125    -0.3909467    0.3644979 
   6.672500000    -0.3350938    0.4306507    -0.6059324   -0.5236735    -0.6078560   -0.5245032    -0.3890776    0.3635917 
   6.675000000    -0.3331866    0.4316636    -0.6079397   -0.5231048    -0.6092783   -0.5240871    -0.3870626    0.3628784 
   6.677500000    -0.3313983    0.4320852    -0.6091316   -0.5226352    -0.6110622   -0.5233649    -0.3856958    0.3619226 
   6.680000000    -0.3297493    0.4323039    -0.6104338   -0.5222765    -0.6126791   -0.5227948    -0.3841046    0.3618145 
   6.682500000    -0.3276300    0.4330038    -0.6114678   -0.5217901    -0.6136963   -0.5219554    -0.3824803    0.3607979 
   6.685000000    -0.3256835    0.4338203    -0.6124139   -0.5210473    -0.6154169   -0.5219740    -0.3810156    0.3602589 
   6.687500000    -0.3242797    0.4347937    -0.6146227   -0.5202153    -0.6162071   -0.5211886    -0.3789753    0.3601256 
   6.690000000    -0.3224569    0.4356833    -0.6160226   -0.5204057    -0.6176943   -0.5205022    -0.3772663    0.3602696 
   6.692500000    -0.3203442    0.4364988    -0.6173227   -0.5200048    -0.6191797   -0.5201687    -0.3761135    0.3607363 
   6.695000000    -0.3183451    0.4374074    -0.6179767   -0.5198605    -0.6206343   -0.5194264    -0.3749301    0.3608692 
   6.697500000    -0.3163886    0.4385518    -0.6189106   -0.5192059    -0.6215040   -0.5191601    -0.3736655    0.3607723 
   6.700000000    -0.3150291    0.4395939    -0.6209485   -0.5183043    -0.6231276   -0.5191524    -0.3725061    0.3610533 
   6.702500000    -0.3134359    0.4406654    -0.6228880   -0.5181537    -0.6243371   -0.5183478    -0.3703142    0.3618969 
   6.705000000    -0.3119491    0.4416828    -0.6245594   -0.5183967    -0.6252928   -0.5177026    -0.3689833    0.3630029 
   6.707500000    -0.3099266    0.4430325    -0.6258614   -0.5180852    -0.6273755   -0.5172976    -0.3677917    0.3638795 
   6.710000000    -0.3083491    0.4440154    -0.6275908   -0.5170848    -0.6287649   -0.5176017    -0.3670633    0.3645154 
   6.712500000    -0.3068328    0.4451975    -0.6291202   -0.5167343    -0.6301379   -0.5170807    -0.3657247    0.3655706 
   6.715000000    -0.3054181    0.4459991    -0.6309040   -0.5169863    -0.6312780   -0.5162168    -0.3639309    0.3673538 
   6.717500000    -0.3034783    0.4471365    -0.6322705   -0.5159033    -0.6334080   -0.5160841    -0.3631751    0.3681621 
   6.720000000    -0.3022024    0.4478284    -0.6338505   -0.5156950    -0.6343405   -0.5153559    -0.3614881    0.3696601 
   6.722500000    -0.3009868    0.4485845    -0.6355236   -0.5155478    -0.6362715   -0.5144295    -0.3603431    0.3714778 
   6.725000000    -0.2989972    0.4495462    -0.6363259   -0.5150316    -0.6381132   -0.5137998    -0.3595670    0.3725887 
   6.727500000    -0.2978576    0.4502324    -0.6386589   -0.5144081    -0.6396067   -0.5132527    -0.3584635    0.3737675 
   6.730000000    -0.2965482    0.4504139    -0.6397744   -0.5133381    -0.6403300   -0.5132033    -0.3574740    0.3748619 
   6.732500000    -0.2953605    0.4504148    -0.6412757   -0.5125930    -0.6415927   -0.5126879    -0.3565638    0.3760810 
   6.735000000    -0.2941925    0.4503919    -0.6424953   -0.5123118    -0.6428375   -0.5116937    -0.3556703    0.3766971 
   6.737500000    -0.2930043    0.4504918    -0.6438327   -0.5116501    -0.6445416   -0.5103697    -0.3546962    0.3775773 
   6.740000000    -0.2922900    0.4501837    -0.6459914   -0.5112090    -0.6458003   -0.5098235    -0.3535770    0.3788790 
   6.742500000    -0.2909623    0.4506414    -0.6476455   -0.5097844    -0.6468577   -0.5094685    -0.3529262    0.3794907 
   6.745000000    -0.2901983    0.4502416    -0.6490700   -0.5093675    -0.6482254   -0.5082315    -0.3521513    0.3801116 
   6.747500000    -0.2893392    0.4496385    -0.6501416   -0.5089785    -0.6487164   -0.5073117    -0.3513593    0.3803339 
   6.750000000    -0.2883685    0.4488590    -0.6512715   -0.5083674    -0.6502451   -0.5067950    -0.3505117    0.3804050 
   6.752500000    -0.2877162    0.4480493    -0.6517770   -0.5075486    -0.6513082   -0.5056596    -0.3498812    0.3798284 
   6.755000000    -0.2867012    0.4470954    -0.6534666   -0.5065970    -0.6526228   -0.5049253    -0.3484931    0.3803779 
   6.757500000    -0.2859692    0.4460145    -0.6553867   -0.5062910    -0.6534237   -0.5039848    -0.3475447    0.3795410 
   6.760000000    -0.2849404    0.4456973    -0.6562569   -0.5063432    -0.6538219   -0.5037591    -0.3467174    0.3785751 
   6.762500000    -0.2841564    0.4445866    -0.6572456   -0.5055720    -0.6550413   -0.5030004    -0.3458926    0.3777750 
   6.765000000    -0.2831408    0.4435929    -0.6575742   -0.5050239    -0.6560475   -0.5028220    -0.3455415    0.3763840 
   6.767500000    -0.2821830    0.4421830    -0.6584989   -0.5045266    -0.6571147   -0.5022478    -0.3443871    0.3754414 
   6.770000000    -0.2814054    0.4406509    -0.6601073   -0.5037698    -0.6581215   -0.5017268    -0.3435583    0.3745911 
   6.772500000    -0.2804632    0.4392433    -0.6612915   -0.5033760    -0.6590707   -0.5013618    -0.3428910    0.3728960 
   6.775000000    -0.2791015    0.4380307    -0.6623586   -0.5036840    -0.6598253   -0.5009100    -0.3419985    0.3711839 
   6.777500000    -0.2779723    0.4368793    -0.6630758   -0.5033040    -0.6603729   -0.5009647    -0.3410325    0.3692060 
   6.780000000    -0.2772463    0.4352494    -0.6641078   -0.5030838    -0.6614131   -0.5009817    -0.3399415    0.3673058 
   6.782500000    -0.2762992    0.4337452    -0.6647546   -0.5032825    -0.6628223   -0.5004560    -0.3392139    0.3645601 
   6.785000000    -0.2752188    0.4321842    -0.6667855   -0.5028598    -0.6638237   -0.5011424    -0.3384050    0.3628687 
   6.787500000    -0.2740299    0.4309442    -0.6680588   -0.5026312    -0.6647943   -0.5011509    -0.3376304    0.3605366 
   6.790000000    -0.2732259    0.4296726    -0.6696763   -0.5030792    -0.6660337   -0.5009244    -0.3361203    0.3582780 
   6.792500000    -0.2721187    0.4285173    -0.6713298   -0.5035413    -0.6674902   -0.5011779    -0.3354928    0.3559410 
   6.795000000    -0.2712624    0.4274036    -0.6725607   -0.5034019    -0.6684541   -0.5011885    -0.3349254    0.3539360 
   6.797500000    -0.2706986    0.4263805    -0.6741211   -0.5035146    -0.6700965   -0.5016581    -0.3348967    0.3523750 
   6.800000000    -0.2693650    0.4259622    -0.6758395   -0.5034235    -0.6719277   -0.5015457    -0.3344866    0.3502699 
   6.802500000    -0.2683214    0.4254409    -0.6784072   -0.5033699    -0.6733210   -0.5020192    -0.3338112    0.3481877 
   6.805000000    -0.2669213    0.4251484    -0.6801131   -0.5037255    -0.6752701   -0.5025461    -0.3333233    0.3463846 
   6.807500000    -0.2654065    0.4253391    -0.6823447   -0.5038185    -0.6771830   -0.5021374    -0.3325516    0.3456616 
   6.810000000    -0.2639492    0.4252779    -0.6842635   -0.5035869    -0.6791449   -0.5017741    -0.3319335    0.3450684 
   6.812500000    -0.2631584    0.4254579    -0.6859890   -0.5035826    -0.6815057   -0.5010558    -0.3313963    0.3446783 
   6.815000000    -0.2623984    0.4259663    -0.6891364   -0.5035513    -0.6837618   -0.5012190    -0.3304655    0.3437299 
   6.817500000    -0.2603393    0.4265120    -0.6911258   -0.5023779    -0.6863061   -0.5009573    -0.3298704    0.3440219 
   6.820000000    -0.2575819    0.4274619    -0.6937453   -0.5015974    -0.6887362   -0.5003701    -0.3291492    0.3441363 
   6.822500000    -0.2556193    0.4281748    -0.6955894   -0.5011030    -0.6909526   -0.4998850    -0.3276722    0.3450574 
   6.825000000    -0.2545535    0.4291103    -0.6984608   -0.5001190    -0.6940159   -0.4991952    -0.3265533    0.3458533 
   6.827500000    -0.2531898    0.4297101    -0.7008355   -0.4998162    -0.6963444   -0.4983297    -0.3252110    0.3465369 
   6.830000000    -0.2507586    0.4307096    -0.7025049   -0.4983631    -0.6985964   -0.4968300    -0.3228276    0.3469735 
   6.832500000    -0.2475555    0.4313239    -0.7046506   -0.4969868    -0.7003962   -0.4960078    -0.3215652    0.3474895 
   6.835000000    -0.2450717    0.4327101    -0.7064904   -0.4959465    -0.7027209   -0.4949200    -0.3198768    0.3484443 
   6.837500000    -0.2428658    0.4336534    -0.7094605   -0.4943019    -0.7054675   -0.4934676    -0.3180003    0.3493840 
   6.840000000    -0.2405876    0.4342488    -0.7116906   -0.4928893    -0.7076766   -0.4919174    -0.3159842    0.3502644 
   6.842500000    -0.2384619    0.4345225    -0.7137620   -0.4908129    -0.7098936   -0.4897623    -0.3140195    0.3507748 
   6.845000000    -0.2358958    0.4346083    -0.7155337   -0.4887358    -0.7117107   -0.4877744    -0.3124095    0.3519203 
   6.847500000    -0.2334593    0.4345710    -0.7166580   -0.4874509    -0.7133385   -0.4863593    -0.3110544    0.3527090 
   6.850000000    -0.2315848    0.4352311    -0.7185529   -0.4865626    -0.7146592   -0.4847514    -0.3097898    0.3534916 
   6.852500000    -0.2300299    0.4353395    -0.7208075   -0.4846864    -0.7165828   -0.4833897    -0.3077372    0.3543705 
   6.855000000    -0.2282083    0.4348446    -0.7225114   -0.4825359    -0.7180546   -0.4811892    -0.3064063    0.3549820 
   6.857500000    -0.2264105    0.4340563    -0.7236517   -0.4803968    -0.7193499   -0.4792029    -0.3048165    0.3550881 
   6.860000000    -0.2245290    0.4332125    -0.7254491   -0.4792302    -0.7205884   -0.4777792    -0.3035082    0.3555695 
   6.862500000    -0.2234583    0.4325685    -0.7263343   -0.4778518    -0.7213154   -0.4761502    -0.3027702    0.3564746 
   6.865000000    -0.2219741    0.4318812    -0.7282555   -0.4762625    -0.7224756   -0.4747574    -0.3018821    0.3568118 
   6.867500000    -0.2204307    0.4308554    -0.7289310   -0.4754300    -0.7234700   -0.4729972    -0.3011247    0.3572225 
   6.870000000    -0.2190029    0.4296207    -0.7300367   -0.4727596    -0.7242628   -0.4706962    -0.2995352    0.3574004 
   6.872500000    -0.2178269    0.4283370    -0.7313046   -0.4714968    -0.7253040   -0.4689538    -0.2987063    0.3575125 
   6.875000000    -0.2166319    0.4274786    -0.7318460   -0.4708369    -0.7256757   -0.4681478    -0.2981324    0.3582297 
   6.877500000    -0.2155862    0.4261676    -0.7329612   -0.4703229    -0.7264904   -0.4675936    -0.2975001    0.3581874 
   6.880000000    -0.2144256    0.4243228    -0.7342361   -0.4683853    -0.7270949   -0.4659845    -0.2966951    0.3580548 
   6.882500000    -0.2132466    0.4227678    -0.7356408   -0.4670098    -0.7287591   -0.4646563    -0.2956822    0.3578113 
   6.885000000    -0.2121082    0.4209076    -0.7362742   -0.4661339    -0.7300141   -0.4632204    -0.2948934    0.3571818 
   6.887500000    -0.2106363    0.4191746    -0.7374605   -0.4652630    -0.7303772   -0.4627963    -0.2946248    0.3574907 
   6.890000000    -0.2086169    0.4178447    -0.7383531   -0.4639780    -0.7315883   -0.4616965    -0.2942958    0.3566902 
