! MS46122B
! 1919307/90821646
! 7/29/2022 2:27:37 PM
! C:\USERS\PC_\DESKTOP\MEDICIONES\BANCHA ESTRECHA\65_7GHZ\S11_S21_ABS8_502CL.S2P
! CHANNEL.1
! TR.MEASUREMENT
! CORRECTED.DATA
# GHZ S RI R 50.0
! FREQ.GHZ         S11RE         S11IM         S21RE         S21IM         S12RE         S12IM         S22RE         S22IM         
!; PortSelection: Port_12
   6.500000000    -0.5535568    0.2316331    -0.1965973   -0.7877145    -0.1925346   -0.7853782    -0.5925482    0.1920663 
   6.502500000    -0.5565538    0.2261932    -0.2022597   -0.7842789    -0.1937532   -0.7850204    -0.5919715    0.1907793 
   6.505000000    -0.5573258    0.2242265    -0.2034940   -0.7837490    -0.1941892   -0.7847962    -0.5911030    0.1896876 
   6.507500000    -0.5579326    0.2224878    -0.2040366   -0.7834219    -0.1945590   -0.7845088    -0.5901366    0.1885053 
   6.510000000    -0.5583752    0.2212901    -0.2048551   -0.7828544    -0.1953142   -0.7845449    -0.5893751    0.1865831 
   6.512500000    -0.5589448    0.2207824    -0.2055137   -0.7822443    -0.1960884   -0.7840521    -0.5885081    0.1851448 
   6.515000000    -0.5594406    0.2195431    -0.2070023   -0.7826000    -0.1970757   -0.7835023    -0.5878236    0.1846223 
   6.517500000    -0.5598953    0.2182633    -0.2079008   -0.7826003    -0.1979080   -0.7834961    -0.5868602    0.1838207 
   6.520000000    -0.5604689    0.2171377    -0.2084812   -0.7818978    -0.1984287   -0.7833942    -0.5858088    0.1824192 
   6.522500000    -0.5609185    0.2159399    -0.2088165   -0.7815837    -0.1991758   -0.7836295    -0.5848130    0.1813281 
   6.525000000    -0.5612719    0.2148787    -0.2105601   -0.7817994    -0.1998093   -0.7838239    -0.5841130    0.1799765 
   6.527500000    -0.5613537    0.2142606    -0.2121445   -0.7808000    -0.2007060   -0.7834628    -0.5829358    0.1782362 
   6.530000000    -0.5618278    0.2134098    -0.2126923   -0.7809373    -0.2011200   -0.7835922    -0.5821199    0.1768133 
   6.532500000    -0.5624279    0.2125639    -0.2132069   -0.7815157    -0.2019032   -0.7834071    -0.5811279    0.1762946 
   6.535000000    -0.5629281    0.2116262    -0.2142595   -0.7816482    -0.2028405   -0.7842057    -0.5809282    0.1753342 
   6.537500000    -0.5628821    0.2106852    -0.2159559   -0.7818742    -0.2042233   -0.7845408    -0.5800023    0.1744653 
   6.540000000    -0.5628139    0.2102334    -0.2166765   -0.7815554    -0.2048961   -0.7847927    -0.5792810    0.1732224 
   6.542500000    -0.5627028    0.2091254    -0.2183197   -0.7809824    -0.2062904   -0.7849884    -0.5782892    0.1725923 
   6.545000000    -0.5624573    0.2083091    -0.2195930   -0.7810519    -0.2074716   -0.7849041    -0.5771140    0.1722500 
   6.547500000    -0.5627798    0.2075044    -0.2200920   -0.7809628    -0.2086520   -0.7853391    -0.5764660    0.1714683 
   6.550000000    -0.5624934    0.2070638    -0.2214534   -0.7815371    -0.2104342   -0.7854177    -0.5761898    0.1711362 
   6.552500000    -0.5621943    0.2064488    -0.2234321   -0.7817364    -0.2115514   -0.7856488    -0.5752826    0.1711766 
   6.555000000    -0.5616117    0.2057215    -0.2248805   -0.7804782    -0.2133546   -0.7857319    -0.5740849    0.1713385 
   6.557500000    -0.5615290    0.2048154    -0.2258136   -0.7802181    -0.2150204   -0.7849715    -0.5731853    0.1711658 
   6.560000000    -0.5609987    0.2041520    -0.2269784   -0.7800562    -0.2165819   -0.7852275    -0.5723980    0.1711038 
   6.562500000    -0.5607850    0.2029599    -0.2281090   -0.7798406    -0.2179675   -0.7854922    -0.5715973    0.1719661 
   6.565000000    -0.5600029    0.2022877    -0.2299420   -0.7789358    -0.2196868   -0.7857358    -0.5709665    0.1720222 
   6.567500000    -0.5596150    0.2021766    -0.2316354   -0.7787242    -0.2212579   -0.7855657    -0.5701501    0.1728578 
   6.570000000    -0.5592096    0.2015608    -0.2327617   -0.7788469    -0.2228885   -0.7845663    -0.5698060    0.1734797 
   6.572500000    -0.5585738    0.2003438    -0.2336664   -0.7776551    -0.2250649   -0.7840160    -0.5694232    0.1733259 
   6.575000000    -0.5585126    0.1988533    -0.2342101   -0.7765582    -0.2262810   -0.7837299    -0.5688453    0.1724852 
   6.577500000    -0.5582541    0.1983104    -0.2354005   -0.7759151    -0.2273313   -0.7833542    -0.5681783    0.1721505 
   6.580000000    -0.5578569    0.1978155    -0.2370660   -0.7753631    -0.2288633   -0.7823905    -0.5676229    0.1726110 
   6.582500000    -0.5574571    0.1969081    -0.2387792   -0.7740558    -0.2307323   -0.7815563    -0.5669535    0.1738672 
   6.585000000    -0.5568806    0.1959300    -0.2398412   -0.7736538    -0.2321665   -0.7805895    -0.5662356    0.1746702 
   6.587500000    -0.5558920    0.1949504    -0.2407329   -0.7729629    -0.2335513   -0.7800832    -0.5656315    0.1748179 
   6.590000000    -0.5559053    0.1945842    -0.2415716   -0.7720808    -0.2347008   -0.7792707    -0.5654810    0.1746737 
   6.592500000    -0.5559304    0.1934484    -0.2416816   -0.7717553    -0.2355452   -0.7785949    -0.5648783    0.1743303 
   6.595000000    -0.5560561    0.1922777    -0.2435288   -0.7712348    -0.2361706   -0.7777814    -0.5643018    0.1760115 
   6.597500000    -0.5556120    0.1914229    -0.2446851   -0.7701706    -0.2375964   -0.7769284    -0.5642175    0.1762281 
   6.600000000    -0.5554347    0.1905145    -0.2455187   -0.7694598    -0.2391254   -0.7758228    -0.5639625    0.1764915 
   6.602500000    -0.5553730    0.1895898    -0.2464340   -0.7691850    -0.2398043   -0.7750483    -0.5638206    0.1767737 
   6.605000000    -0.5550984    0.1890303    -0.2468992   -0.7684655    -0.2408039   -0.7742278    -0.5638543    0.1766562 
   6.607500000    -0.5553814    0.1882347    -0.2473496   -0.7676472    -0.2415984   -0.7732678    -0.5632716    0.1763043 
   6.610000000    -0.5554518    0.1869410    -0.2482282   -0.7670791    -0.2426002   -0.7723465    -0.5633133    0.1755839 
   6.612500000    -0.5559099    0.1858039    -0.2494556   -0.7663326    -0.2432221   -0.7715106    -0.5627180    0.1759616 
   6.615000000    -0.5559844    0.1851438    -0.2494946   -0.7659516    -0.2444248   -0.7707015    -0.5626439    0.1760722 
   6.617500000    -0.5560554    0.1844534    -0.2508619   -0.7653503    -0.2457158   -0.7706513    -0.5633311    0.1755534 
   6.620000000    -0.5560824    0.1835355    -0.2511456   -0.7651395    -0.2461624   -0.7701131    -0.5632226    0.1752302 
   6.622500000    -0.5565752    0.1831502    -0.2513627   -0.7643330    -0.2470396   -0.7696009    -0.5635198    0.1745414 
   6.625000000    -0.5568110    0.1823559    -0.2527426   -0.7636946    -0.2472083   -0.7693341    -0.5629320    0.1728526 
   6.627500000    -0.5570472    0.1816686    -0.2525958   -0.7631869    -0.2480102   -0.7681863    -0.5627663    0.1716420 
   6.630000000    -0.5579065    0.1808313    -0.2536296   -0.7636085    -0.2491529   -0.7682920    -0.5629787    0.1712874 
   6.632500000    -0.5579991    0.1801451    -0.2536997   -0.7630156    -0.2495278   -0.7678877    -0.5628628    0.1703259 
   6.635000000    -0.5579486    0.1798698    -0.2541732   -0.7622284    -0.2503008   -0.7674628    -0.5627413    0.1688797 
   6.637500000    -0.5580481    0.1791497    -0.2550614   -0.7618401    -0.2506531   -0.7670547    -0.5630854    0.1674836 
   6.640000000    -0.5585150    0.1789864    -0.2560762   -0.7610148    -0.2508978   -0.7663002    -0.5629605    0.1657173 
   6.642500000    -0.5588066    0.1790761    -0.2562197   -0.7607654    -0.2518593   -0.7660917    -0.5627643    0.1639052 
   6.645000000    -0.5589795    0.1787678    -0.2567410   -0.7604372    -0.2528327   -0.7653255    -0.5629201    0.1621720 
   6.647500000    -0.5591988    0.1783996    -0.2573462   -0.7597443    -0.2535441   -0.7651466    -0.5629336    0.1616883 
   6.650000000    -0.5593098    0.1784940    -0.2575975   -0.7592566    -0.2534657   -0.7647818    -0.5627249    0.1597016 
   6.652500000    -0.5595321    0.1780146    -0.2591738   -0.7586793    -0.2543943   -0.7638232    -0.5619777    0.1577933 
   6.655000000    -0.5593673    0.1776469    -0.2591569   -0.7581660    -0.2549205   -0.7627840    -0.5617268    0.1561413 
   6.657500000    -0.5596126    0.1784970    -0.2597123   -0.7577921    -0.2555020   -0.7622400    -0.5617910    0.1540730 
   6.660000000    -0.5595919    0.1785269    -0.2598470   -0.7573621    -0.2565433   -0.7620227    -0.5611932    0.1525693 
   6.662500000    -0.5591464    0.1784129    -0.2600839   -0.7569627    -0.2567540   -0.7616256    -0.5610129    0.1517115 
   6.665000000    -0.5588014    0.1784777    -0.2608621   -0.7558036    -0.2572015   -0.7611936    -0.5604687    0.1498602 
   6.667500000    -0.5584789    0.1786045    -0.2609734   -0.7554364    -0.2575513   -0.7598473    -0.5594211    0.1477021 
   6.670000000    -0.5579045    0.1791812    -0.2614058   -0.7550557    -0.2575608   -0.7594007    -0.5586053    0.1462019 
   6.672500000    -0.5577036    0.1801860    -0.2607360   -0.7550405    -0.2586570   -0.7589999    -0.5574341    0.1456863 
   6.675000000    -0.5573990    0.1807866    -0.2611217   -0.7546171    -0.2591817   -0.7586154    -0.5571786    0.1445877 
   6.677500000    -0.5569744    0.1815495    -0.2609538   -0.7541642    -0.2594472   -0.7581794    -0.5570712    0.1438534 
   6.680000000    -0.5563287    0.1821412    -0.2616086   -0.7533266    -0.2596005   -0.7581958    -0.5565506    0.1428586 
   6.682500000    -0.5556401    0.1831389    -0.2621067   -0.7530349    -0.2595688   -0.7573898    -0.5556204    0.1415174 
   6.685000000    -0.5551792    0.1845148    -0.2615942   -0.7529708    -0.2598907   -0.7570936    -0.5544490    0.1414739 
   6.687500000    -0.5549242    0.1854048    -0.2615356   -0.7527604    -0.2598343   -0.7570178    -0.5539197    0.1409958 
   6.690000000    -0.5544274    0.1867250    -0.2616593   -0.7523128    -0.2609614   -0.7567679    -0.5537329    0.1416445 
   6.692500000    -0.5533707    0.1884573    -0.2615260   -0.7518787    -0.2609296   -0.7565565    -0.5533993    0.1411480 
   6.695000000    -0.5527943    0.1898119    -0.2616865   -0.7518433    -0.2609065   -0.7564868    -0.5528720    0.1408883 
   6.697500000    -0.5523677    0.1912942    -0.2621403   -0.7512601    -0.2607884   -0.7561902    -0.5519122    0.1409743 
   6.700000000    -0.5521268    0.1926449    -0.2623451   -0.7513703    -0.2611144   -0.7559080    -0.5513176    0.1417457 
   6.702500000    -0.5517817    0.1940132    -0.2622635   -0.7516339    -0.2616683   -0.7556593    -0.5509874    0.1426593 
   6.705000000    -0.5510623    0.1959255    -0.2624822   -0.7518907    -0.2621184   -0.7554188    -0.5505809    0.1429400 
   6.707500000    -0.5508325    0.1978872    -0.2626483   -0.7514022    -0.2624843   -0.7556413    -0.5502149    0.1435180 
   6.710000000    -0.5504505    0.1990287    -0.2633874   -0.7519810    -0.2620854   -0.7555422    -0.5493472    0.1448831 
   6.712500000    -0.5501620    0.2011507    -0.2636161   -0.7517666    -0.2626780   -0.7555271    -0.5490361    0.1459079 
   6.715000000    -0.5496047    0.2030029    -0.2637137   -0.7522007    -0.2633181   -0.7551003    -0.5484350    0.1468771 
   6.717500000    -0.5495638    0.2044670    -0.2645294   -0.7521067    -0.2638072   -0.7554124    -0.5479007    0.1482952 
   6.720000000    -0.5490214    0.2062223    -0.2647174   -0.7521218    -0.2643829   -0.7548633    -0.5474758    0.1496230 
   6.722500000    -0.5489032    0.2080621    -0.2657160   -0.7523501    -0.2649173   -0.7550859    -0.5472730    0.1507475 
   6.725000000    -0.5484495    0.2094906    -0.2666482   -0.7521858    -0.2652677   -0.7554150    -0.5471565    0.1519156 
   6.727500000    -0.5482337    0.2106657    -0.2666587   -0.7521940    -0.2657202   -0.7551386    -0.5468352    0.1531216 
   6.730000000    -0.5481234    0.2118005    -0.2665492   -0.7521170    -0.2653543   -0.7548366    -0.5463201    0.1552017 
   6.732500000    -0.5476053    0.2128031    -0.2670322   -0.7517461    -0.2660759   -0.7547890    -0.5461178    0.1565888 
   6.735000000    -0.5473059    0.2137178    -0.2670410   -0.7517779    -0.2670595   -0.7545387    -0.5457873    0.1573860 
   6.737500000    -0.5470632    0.2154015    -0.2682752   -0.7517373    -0.2674153   -0.7542074    -0.5456670    0.1583352 
   6.740000000    -0.5471856    0.2158775    -0.2690665   -0.7518784    -0.2676442   -0.7540474    -0.5452768    0.1590464 
   6.742500000    -0.5471919    0.2166014    -0.2692001   -0.7515522    -0.2677819   -0.7537391    -0.5452660    0.1598053 
   6.745000000    -0.5472327    0.2174154    -0.2697754   -0.7514213    -0.2691342   -0.7530857    -0.5454143    0.1606053 
   6.747500000    -0.5471941    0.2177934    -0.2696127   -0.7511344    -0.2694292   -0.7526482    -0.5454462    0.1613610 
   6.750000000    -0.5469948    0.2178601    -0.2705807   -0.7503329    -0.2696592   -0.7530472    -0.5449471    0.1622191 
   6.752500000    -0.5469080    0.2188957    -0.2711391   -0.7506097    -0.2696735   -0.7526672    -0.5446237    0.1619276 
   6.755000000    -0.5466952    0.2189173    -0.2713332   -0.7505395    -0.2700648   -0.7517738    -0.5440871    0.1614449 
   6.757500000    -0.5467858    0.2188587    -0.2715108   -0.7510807    -0.2701733   -0.7511483    -0.5435829    0.1614892 
   6.760000000    -0.5465854    0.2185638    -0.2709633   -0.7496989    -0.2702391   -0.7507330    -0.5431255    0.1606219 
   6.762500000    -0.5465865    0.2184094    -0.2710319   -0.7496219    -0.2710397   -0.7503023    -0.5428203    0.1598622 
   6.765000000    -0.5463694    0.2183118    -0.2716677   -0.7495799    -0.2704449   -0.7501123    -0.5428061    0.1597731 
   6.767500000    -0.5460171    0.2179461    -0.2718238   -0.7494155    -0.2702886   -0.7500197    -0.5426034    0.1584816 
   6.770000000    -0.5457038    0.2181952    -0.2712298   -0.7495454    -0.2704351   -0.7499615    -0.5420786    0.1572588 
   6.772500000    -0.5454474    0.2171133    -0.2714377   -0.7495239    -0.2703425   -0.7499216    -0.5415427    0.1559281 
   6.775000000    -0.5450074    0.2165360    -0.2709900   -0.7500908    -0.2701198   -0.7495606    -0.5413287    0.1544357 
   6.777500000    -0.5445344    0.2155562    -0.2701105   -0.7499012    -0.2702921   -0.7496384    -0.5404602    0.1534573 
   6.780000000    -0.5444024    0.2145800    -0.2710443   -0.7500468    -0.2700410   -0.7498556    -0.5405603    0.1516418 
   6.782500000    -0.5440094    0.2137493    -0.2704303   -0.7503470    -0.2695290   -0.7497792    -0.5395854    0.1492313 
   6.785000000    -0.5436078    0.2140873    -0.2702752   -0.7508244    -0.2688667   -0.7505965    -0.5390207    0.1471411 
   6.787500000    -0.5435067    0.2132917    -0.2699109   -0.7513955    -0.2688453   -0.7510954    -0.5384648    0.1448018 
   6.790000000    -0.5432292    0.2127191    -0.2699184   -0.7526084    -0.2687242   -0.7515280    -0.5373550    0.1431705 
   6.792500000    -0.5424933    0.2118623    -0.2694536   -0.7531628    -0.2690809   -0.7519830    -0.5371457    0.1412092 
   6.795000000    -0.5423819    0.2113085    -0.2694575   -0.7537371    -0.2692644   -0.7527345    -0.5372456    0.1395113 
   6.797500000    -0.5425930    0.2107189    -0.2701858   -0.7546205    -0.2686376   -0.7536678    -0.5374674    0.1369857 
   6.800000000    -0.5422742    0.2113489    -0.2697262   -0.7555425    -0.2686757   -0.7544531    -0.5373380    0.1347740 
   6.802500000    -0.5419624    0.2121259    -0.2697060   -0.7564542    -0.2685500   -0.7554504    -0.5366797    0.1330460 
   6.805000000    -0.5415687    0.2121707    -0.2699099   -0.7574970    -0.2687144   -0.7568285    -0.5365047    0.1315536 
   6.807500000    -0.5410877    0.2131009    -0.2704395   -0.7587712    -0.2693654   -0.7572956    -0.5367936    0.1312196 
   6.810000000    -0.5408611    0.2139110    -0.2708031   -0.7597890    -0.2708480   -0.7582754    -0.5369115    0.1303079 
   6.812500000    -0.5405410    0.2152296    -0.2723526   -0.7605190    -0.2715808   -0.7593568    -0.5372943    0.1294983 
   6.815000000    -0.5404469    0.2164578    -0.2728247   -0.7616056    -0.2714835   -0.7602640    -0.5363484    0.1289921 
   6.817500000    -0.5397477    0.2179935    -0.2732518   -0.7633383    -0.2724220   -0.7612997    -0.5366222    0.1289059 
   6.820000000    -0.5381406    0.2197047    -0.2747505   -0.7645677    -0.2737390   -0.7623327    -0.5367875    0.1294975 
   6.822500000    -0.5374528    0.2213879    -0.2756578   -0.7655727    -0.2746330   -0.7635426    -0.5365716    0.1298192 
   6.825000000    -0.5368466    0.2237022    -0.2775830   -0.7655482    -0.2762468   -0.7644191    -0.5363610    0.1306094 
   6.827500000    -0.5363179    0.2252767    -0.2791971   -0.7670677    -0.2779713   -0.7650531    -0.5361018    0.1311855 
   6.830000000    -0.5350680    0.2276060    -0.2795551   -0.7675312    -0.2791066   -0.7662131    -0.5346118    0.1321225 
   6.832500000    -0.5332281    0.2295273    -0.2810830   -0.7682168    -0.2799662   -0.7666496    -0.5342408    0.1336375 
   6.835000000    -0.5317081    0.2316052    -0.2820287   -0.7688167    -0.2815274   -0.7671031    -0.5335107    0.1349286 
   6.837500000    -0.5300876    0.2343283    -0.2849266   -0.7696390    -0.2835346   -0.7675703    -0.5327600    0.1362714 
   6.840000000    -0.5284026    0.2363819    -0.2856731   -0.7699302    -0.2851824   -0.7675626    -0.5317730    0.1376808 
   6.842500000    -0.5266675    0.2379584    -0.2880091   -0.7690617    -0.2871432   -0.7676775    -0.5305661    0.1389569 
   6.845000000    -0.5249639    0.2398072    -0.2892966   -0.7690945    -0.2884928   -0.7674042    -0.5295721    0.1405915 
   6.847500000    -0.5231482    0.2414864    -0.2902032   -0.7687392    -0.2897677   -0.7672793    -0.5288296    0.1418307 
   6.850000000    -0.5215010    0.2430632    -0.2914985   -0.7691531    -0.2914494   -0.7673724    -0.5284157    0.1438185 
   6.852500000    -0.5202072    0.2443249    -0.2928516   -0.7690415    -0.2923840   -0.7671218    -0.5279461    0.1452812 
   6.855000000    -0.5184410    0.2453618    -0.2951024   -0.7678370    -0.2942429   -0.7660711    -0.5272282    0.1467368 
   6.857500000    -0.5168204    0.2459249    -0.2958226   -0.7674201    -0.2951654   -0.7658917    -0.5263570    0.1478912 
   6.860000000    -0.5153078    0.2466594    -0.2968225   -0.7675379    -0.2960691   -0.7655351    -0.5257360    0.1490870 
   6.862500000    -0.5139982    0.2468920    -0.2985284   -0.7674530    -0.2971244   -0.7650252    -0.5252290    0.1503959 
   6.865000000    -0.5123757    0.2473715    -0.2988525   -0.7670853    -0.2979815   -0.7647242    -0.5243817    0.1518751 
   6.867500000    -0.5108367    0.2474008    -0.2999161   -0.7660298    -0.2991118   -0.7632899    -0.5238472    0.1531481 
   6.870000000    -0.5094072    0.2474151    -0.3005618   -0.7656786    -0.2996408   -0.7626749    -0.5235751    0.1545293 
   6.872500000    -0.5083504    0.2475477    -0.3012108   -0.7654210    -0.3001937   -0.7619680    -0.5231426    0.1553158 
   6.875000000    -0.5072755    0.2470016    -0.3013118   -0.7651364    -0.3002104   -0.7612588    -0.5224711    0.1561558 
   6.877500000    -0.5060307    0.2465490    -0.3025044   -0.7661484    -0.3005748   -0.7613841    -0.5219196    0.1567895 
   6.880000000    -0.5043526    0.2460630    -0.3034647   -0.7658348    -0.3016336   -0.7605503    -0.5212040    0.1574952 
   6.882500000    -0.5035890    0.2453284    -0.3038058   -0.7658699    -0.3019711   -0.7609277    -0.5209389    0.1583604 
   6.885000000    -0.5026515    0.2448274    -0.3038717   -0.7658847    -0.3026421   -0.7606884    -0.5205241    0.1586630 
   6.887500000    -0.5014834    0.2438025    -0.3040541   -0.7652109    -0.3023480   -0.7603780    -0.5203166    0.1584110 
   6.890000000    -0.4995952    0.2426642    -0.3045096   -0.7655442    -0.3027934   -0.7603244    -0.5200207    0.1583792 
