! MS46122B
! 1919307/90821646
! 7/29/2022 2:33:05 PM
! C:\USERS\PC_\DESKTOP\MEDICIONES\BANCHA ESTRECHA\65_7GHZ\S11_S21_ABS8_1002CL.S2P
! CHANNEL.1
! TR.MEASUREMENT
! CORRECTED.DATA
# GHZ S RI R 50.0
! FREQ.GHZ         S11RE         S11IM         S21RE         S21IM         S12RE         S12IM         S22RE         S22IM         
!; PortSelection: Port_12
   6.500000000    -0.5342337    0.3976419    -0.4095943   -0.6492999    -0.4051346   -0.6479035    -0.5568677    0.4187547 
   6.502500000    -0.5385333    0.3949989    -0.4127942   -0.6433334    -0.4063080   -0.6467766    -0.5553293    0.4178315 
   6.505000000    -0.5393353    0.3933694    -0.4135298   -0.6419564    -0.4073705   -0.6467416    -0.5540532    0.4163900 
   6.507500000    -0.5398757    0.3927309    -0.4145285   -0.6410924    -0.4081590   -0.6458244    -0.5529227    0.4156892 
   6.510000000    -0.5403208    0.3915980    -0.4158056   -0.6399756    -0.4083819   -0.6451929    -0.5516222    0.4141509 
   6.512500000    -0.5405679    0.3904715    -0.4161930   -0.6401743    -0.4091606   -0.6445669    -0.5506127    0.4124449 
   6.515000000    -0.5410053    0.3893962    -0.4170444   -0.6396984    -0.4096650   -0.6438644    -0.5494099    0.4108942 
   6.517500000    -0.5412994    0.3882711    -0.4178844   -0.6390481    -0.4111840   -0.6439160    -0.5482181    0.4098786 
   6.520000000    -0.5417493    0.3872692    -0.4189492   -0.6375184    -0.4117278   -0.6436164    -0.5470869    0.4083378 
   6.522500000    -0.5417805    0.3868491    -0.4203128   -0.6373178    -0.4126570   -0.6432247    -0.5459006    0.4071644 
   6.525000000    -0.5419942    0.3862099    -0.4211609   -0.6366462    -0.4133897   -0.6427934    -0.5447932    0.4064414 
   6.527500000    -0.5422364    0.3853157    -0.4221495   -0.6360683    -0.4139616   -0.6422914    -0.5437138    0.4044455 
   6.530000000    -0.5424149    0.3845159    -0.4226606   -0.6357468    -0.4150346   -0.6423490    -0.5426270    0.4029912 
   6.532500000    -0.5424671    0.3836529    -0.4243277   -0.6355084    -0.4161739   -0.6420289    -0.5415207    0.4018629 
   6.535000000    -0.5421631    0.3834281    -0.4262491   -0.6351127    -0.4175192   -0.6420361    -0.5407104    0.4006225 
   6.537500000    -0.5418035    0.3824973    -0.4269646   -0.6345728    -0.4189776   -0.6415356    -0.5390744    0.3998629 
   6.540000000    -0.5417480    0.3822313    -0.4276155   -0.6341518    -0.4198202   -0.6414782    -0.5382435    0.3987773 
   6.542500000    -0.5413104    0.3811691    -0.4284466   -0.6334320    -0.4214262   -0.6412029    -0.5373967    0.3984980 
   6.545000000    -0.5406252    0.3803514    -0.4300775   -0.6321738    -0.4229351   -0.6408840    -0.5361031    0.3976107 
   6.547500000    -0.5398828    0.3797203    -0.4315559   -0.6316165    -0.4244112   -0.6403517    -0.5349868    0.3967992 
   6.550000000    -0.5395175    0.3795353    -0.4327476   -0.6320264    -0.4261368   -0.6394137    -0.5336241    0.3965377 
   6.552500000    -0.5387539    0.3788664    -0.4341772   -0.6314670    -0.4273588   -0.6390973    -0.5324582    0.3969857 
   6.555000000    -0.5379030    0.3780856    -0.4346143   -0.6296012    -0.4288173   -0.6386464    -0.5314387    0.3965636 
   6.557500000    -0.5367571    0.3773138    -0.4352451   -0.6287791    -0.4300812   -0.6375112    -0.5303208    0.3963899 
   6.560000000    -0.5360994    0.3767694    -0.4373793   -0.6277521    -0.4322203   -0.6369276    -0.5284200    0.3964367 
   6.562500000    -0.5355124    0.3757473    -0.4387542   -0.6271002    -0.4340630   -0.6364220    -0.5267437    0.3974654 
   6.565000000    -0.5347160    0.3750223    -0.4393459   -0.6264626    -0.4350136   -0.6358361    -0.5260476    0.3975268 
   6.567500000    -0.5335373    0.3746311    -0.4404943   -0.6257826    -0.4365687   -0.6350535    -0.5250487    0.3980560 
   6.570000000    -0.5321549    0.3743472    -0.4414942   -0.6248674    -0.4375816   -0.6338441    -0.5241583    0.3983576 
   6.572500000    -0.5318470    0.3733729    -0.4417162   -0.6236407    -0.4386167   -0.6322070    -0.5230750    0.3980402 
   6.575000000    -0.5313185    0.3719755    -0.4434719   -0.6225064    -0.4397885   -0.6314499    -0.5217358    0.3979315 
   6.577500000    -0.5306146    0.3710065    -0.4443765   -0.6215897    -0.4413737   -0.6304109    -0.5206519    0.3975848 
   6.580000000    -0.5297127    0.3704833    -0.4449941   -0.6207271    -0.4424624   -0.6295050    -0.5200885    0.3975074 
   6.582500000    -0.5289357    0.3697187    -0.4458163   -0.6192377    -0.4433757   -0.6280938    -0.5187643    0.3982569 
   6.585000000    -0.5274447    0.3695621    -0.4468222   -0.6186482    -0.4442251   -0.6269236    -0.5176277    0.3988713 
   6.587500000    -0.5266254    0.3680636    -0.4470646   -0.6180022    -0.4451687   -0.6260615    -0.5167220    0.3992346 
   6.590000000    -0.5260688    0.3672557    -0.4489358   -0.6163045    -0.4456803   -0.6247243    -0.5151528    0.3998289 
   6.592500000    -0.5258079    0.3663482    -0.4490835   -0.6160787    -0.4471349   -0.6236669    -0.5143922    0.3990931 
   6.595000000    -0.5255249    0.3653061    -0.4497080   -0.6151687    -0.4473047   -0.6228486    -0.5142646    0.3996801 
   6.597500000    -0.5246146    0.3642631    -0.4503725   -0.6141779    -0.4480807   -0.6215751    -0.5139863    0.4002721 
   6.600000000    -0.5239774    0.3634160    -0.4510647   -0.6133544    -0.4488614   -0.6202843    -0.5129395    0.4003744 
   6.602500000    -0.5230520    0.3630210    -0.4515198   -0.6129447    -0.4494506   -0.6192992    -0.5121852    0.4002501 
   6.605000000    -0.5226735    0.3617432    -0.4531871   -0.6116404    -0.4499624   -0.6181979    -0.5109718    0.4004154 
   6.607500000    -0.5224531    0.3608215    -0.4532824   -0.6110245    -0.4510064   -0.6172490    -0.5100493    0.4006152 
   6.610000000    -0.5225431    0.3597398    -0.4530503   -0.6104956    -0.4519889   -0.6161307    -0.5099722    0.3998420 
   6.612500000    -0.5222998    0.3587720    -0.4539994   -0.6097799    -0.4518273   -0.6154401    -0.5093256    0.3989956 
   6.615000000    -0.5216587    0.3578149    -0.4540318   -0.6093618    -0.4526207   -0.6146851    -0.5086468    0.3987768 
   6.617500000    -0.5212982    0.3574785    -0.4552917   -0.6086946    -0.4535888   -0.6138908    -0.5082228    0.3980521 
   6.620000000    -0.5206232    0.3569185    -0.4562738   -0.6079330    -0.4536740   -0.6131634    -0.5074575    0.3972267 
   6.622500000    -0.5209962    0.3562268    -0.4563064   -0.6073043    -0.4550326   -0.6124735    -0.5074573    0.3973918 
   6.625000000    -0.5210764    0.3553251    -0.4566097   -0.6067863    -0.4555087   -0.6122039    -0.5066126    0.3961790 
   6.627500000    -0.5209150    0.3544746    -0.4566406   -0.6063840    -0.4557475   -0.6117938    -0.5065016    0.3947537 
   6.630000000    -0.5206585    0.3533511    -0.4572900   -0.6058126    -0.4564063   -0.6117136    -0.5065266    0.3933454 
   6.632500000    -0.5202731    0.3527328    -0.4580495   -0.6054088    -0.4566103   -0.6107174    -0.5059542    0.3919438 
   6.635000000    -0.5196182    0.3526982    -0.4590065   -0.6044285    -0.4573370   -0.6098570    -0.5051278    0.3902632 
   6.637500000    -0.5197842    0.3524881    -0.4595532   -0.6050454    -0.4583652   -0.6092488    -0.5044369    0.3886646 
   6.640000000    -0.5197567    0.3517972    -0.4597407   -0.6041723    -0.4586169   -0.6087971    -0.5040905    0.3875366 
   6.642500000    -0.5198719    0.3513764    -0.4597669   -0.6036108    -0.4590742   -0.6089484    -0.5035629    0.3857317 
   6.645000000    -0.5191540    0.3509235    -0.4607151   -0.6029829    -0.4593720   -0.6079230    -0.5032830    0.3838694 
   6.647500000    -0.5185938    0.3506561    -0.4617113   -0.6018726    -0.4601904   -0.6072390    -0.5026783    0.3824306 
   6.650000000    -0.5183003    0.3508422    -0.4620850   -0.6020170    -0.4607214   -0.6068377    -0.5022137    0.3803224 
   6.652500000    -0.5178193    0.3506980    -0.4628196   -0.6018512    -0.4617605   -0.6056442    -0.5011624    0.3780375 
   6.655000000    -0.5173718    0.3502870    -0.4624740   -0.6013756    -0.4620996   -0.6049047    -0.5002161    0.3772116 
   6.657500000    -0.5168837    0.3504949    -0.4627895   -0.6004965    -0.4623151   -0.6047502    -0.4999988    0.3751510 
   6.660000000    -0.5164564    0.3505580    -0.4635978   -0.6001191    -0.4628668   -0.6041548    -0.4992670    0.3731140 
   6.662500000    -0.5157176    0.3502966    -0.4643942   -0.5995569    -0.4631533   -0.6038520    -0.4984255    0.3713500 
   6.665000000    -0.5147085    0.3510833    -0.4645443   -0.5994217    -0.4638434   -0.6033694    -0.4976608    0.3693785 
   6.667500000    -0.5138697    0.3510566    -0.4643039   -0.5993643    -0.4645098   -0.6025017    -0.4959363    0.3674281 
   6.670000000    -0.5130669    0.3510803    -0.4644591   -0.5985224    -0.4646886   -0.6023484    -0.4948975    0.3664864 
   6.672500000    -0.5121862    0.3517293    -0.4640747   -0.5987434    -0.4651774   -0.6019692    -0.4938824    0.3651690 
   6.675000000    -0.5112497    0.3524472    -0.4651329   -0.5986066    -0.4654845   -0.6018263    -0.4932200    0.3636949 
   6.677500000    -0.5100694    0.3534657    -0.4656582   -0.5978956    -0.4658530   -0.6014897    -0.4922390    0.3625802 
   6.680000000    -0.5089635    0.3543583    -0.4657190   -0.5979885    -0.4660945   -0.6016528    -0.4909501    0.3618544 
   6.682500000    -0.5081977    0.3550594    -0.4660503   -0.5979585    -0.4670547   -0.6008863    -0.4900154    0.3610152 
   6.685000000    -0.5070421    0.3556646    -0.4657327   -0.5977334    -0.4673043   -0.6007730    -0.4890556    0.3600702 
   6.687500000    -0.5057726    0.3570074    -0.4662538   -0.5982766    -0.4674757   -0.6009055    -0.4882292    0.3594857 
   6.690000000    -0.5047520    0.3588263    -0.4674058   -0.5978660    -0.4679775   -0.6009132    -0.4871427    0.3593498 
   6.692500000    -0.5035031    0.3601550    -0.4676216   -0.5975832    -0.4683060   -0.6007613    -0.4861633    0.3589515 
   6.695000000    -0.5023073    0.3614827    -0.4674448   -0.5977750    -0.4685850   -0.6007727    -0.4851131    0.3593064 
   6.697500000    -0.5014756    0.3622930    -0.4679299   -0.5977467    -0.4693930   -0.6007181    -0.4847711    0.3587589 
   6.700000000    -0.5000727    0.3639663    -0.4685375   -0.5977278    -0.4698843   -0.6005740    -0.4836156    0.3588835 
   6.702500000    -0.4988936    0.3658685    -0.4684858   -0.5979524    -0.4703659   -0.6002864    -0.4827544    0.3593659 
   6.705000000    -0.4980592    0.3674978    -0.4703754   -0.5978984    -0.4708701   -0.6002814    -0.4820994    0.3594746 
   6.707500000    -0.4971664    0.3691042    -0.4706810   -0.5981201    -0.4715830   -0.6005079    -0.4806003    0.3609923 
   6.710000000    -0.4958532    0.3706317    -0.4708249   -0.5983224    -0.4722486   -0.6006358    -0.4801525    0.3612296 
   6.712500000    -0.4948318    0.3725593    -0.4716821   -0.5981516    -0.4728446   -0.6006824    -0.4793963    0.3619623 
   6.715000000    -0.4939273    0.3738701    -0.4733120   -0.5985904    -0.4734324   -0.6004885    -0.4786017    0.3628172 
   6.717500000    -0.4928106    0.3757916    -0.4737075   -0.5985304    -0.4746459   -0.6005425    -0.4774770    0.3641744 
   6.720000000    -0.4919401    0.3771721    -0.4749856   -0.5983226    -0.4752297   -0.6003209    -0.4767491    0.3652608 
   6.722500000    -0.4911187    0.3784783    -0.4762133   -0.5994678    -0.4759489   -0.6000751    -0.4761531    0.3666978 
   6.725000000    -0.4901472    0.3798123    -0.4766471   -0.5993624    -0.4772296   -0.6000872    -0.4750814    0.3680659 
   6.727500000    -0.4893520    0.3808350    -0.4771184   -0.5990134    -0.4783424   -0.5997669    -0.4745356    0.3691617 
   6.730000000    -0.4884613    0.3821248    -0.4780472   -0.5983221    -0.4787074   -0.6003195    -0.4740483    0.3699471 
   6.732500000    -0.4870230    0.3832725    -0.4790714   -0.5979393    -0.4794030   -0.6006984    -0.4732768    0.3711819 
   6.735000000    -0.4861909    0.3840002    -0.4800980   -0.5984647    -0.4798253   -0.6001154    -0.4726802    0.3716972 
   6.737500000    -0.4854480    0.3847013    -0.4808938   -0.5985445    -0.4803433   -0.5992125    -0.4722067    0.3723791 
   6.740000000    -0.4849282    0.3852438    -0.4814466   -0.5984383    -0.4815189   -0.5990572    -0.4716147    0.3732080 
   6.742500000    -0.4842731    0.3858329    -0.4818396   -0.5977428    -0.4823026   -0.5986879    -0.4708426    0.3742785 
   6.745000000    -0.4836865    0.3862625    -0.4836456   -0.5973486    -0.4833966   -0.5981203    -0.4706289    0.3748446 
   6.747500000    -0.4828997    0.3870212    -0.4841778   -0.5971673    -0.4837692   -0.5979834    -0.4702233    0.3748066 
   6.750000000    -0.4821306    0.3872325    -0.4850352   -0.5971723    -0.4842677   -0.5979797    -0.4694181    0.3750465 
   6.752500000    -0.4815144    0.3871911    -0.4855543   -0.5969973    -0.4846833   -0.5975310    -0.4688558    0.3744221 
   6.755000000    -0.4807288    0.3870959    -0.4860726   -0.5968818    -0.4862372   -0.5969424    -0.4681534    0.3736494 
   6.757500000    -0.4800353    0.3867607    -0.4873119   -0.5973080    -0.4865646   -0.5964912    -0.4670632    0.3740970 
   6.760000000    -0.4795061    0.3863335    -0.4881332   -0.5965979    -0.4864832   -0.5964236    -0.4664548    0.3729758 
   6.762500000    -0.4788826    0.3862485    -0.4885326   -0.5968166    -0.4874219   -0.5960113    -0.4658430    0.3720646 
   6.765000000    -0.4777146    0.3865906    -0.4886094   -0.5970526    -0.4875577   -0.5962831    -0.4655608    0.3707943 
   6.767500000    -0.4768464    0.3861220    -0.4895905   -0.5968609    -0.4878126   -0.5964392    -0.4651548    0.3693719 
   6.770000000    -0.4760329    0.3852054    -0.4895699   -0.5972466    -0.4892561   -0.5959225    -0.4644615    0.3676646 
   6.772500000    -0.4749652    0.3842328    -0.4900343   -0.5973898    -0.4898368   -0.5960777    -0.4634363    0.3673529 
   6.775000000    -0.4741634    0.3834209    -0.4917453   -0.5974321    -0.4900899   -0.5958056    -0.4628168    0.3653967 
   6.777500000    -0.4731283    0.3823715    -0.4916206   -0.5976683    -0.4901270   -0.5962281    -0.4620071    0.3636752 
   6.780000000    -0.4720425    0.3823633    -0.4922377   -0.5978734    -0.4906028   -0.5966718    -0.4616898    0.3611543 
   6.782500000    -0.4709361    0.3815202    -0.4926358   -0.5983364    -0.4909488   -0.5970415    -0.4607072    0.3583333 
   6.785000000    -0.4697530    0.3808549    -0.4936028   -0.5987439    -0.4913344   -0.5979316    -0.4593253    0.3564182 
   6.787500000    -0.4689830    0.3801048    -0.4940248   -0.5996242    -0.4930974   -0.5979745    -0.4587612    0.3546867 
   6.790000000    -0.4682779    0.3791784    -0.4962448   -0.6000617    -0.4938156   -0.5985525    -0.4581934    0.3519803 
   6.792500000    -0.4668210    0.3785197    -0.4969764   -0.6006316    -0.4948631   -0.5990016    -0.4575442    0.3498114 
   6.795000000    -0.4654703    0.3786019    -0.4976861   -0.6009784    -0.4955043   -0.5992741    -0.4562569    0.3477816 
   6.797500000    -0.4647209    0.3784366    -0.4990823   -0.6017250    -0.4963831   -0.6004224    -0.4563346    0.3453087 
   6.800000000    -0.4637234    0.3784542    -0.5001620   -0.6026472    -0.4975703   -0.6012737    -0.4559418    0.3437727 
   6.802500000    -0.4623030    0.3785622    -0.5013089   -0.6033927    -0.4986605   -0.6021388    -0.4559793    0.3414536 
   6.805000000    -0.4608499    0.3789083    -0.5035067   -0.6041110    -0.5010893   -0.6026615    -0.4555136    0.3395905 
   6.807500000    -0.4585392    0.3798824    -0.5057844   -0.6044444    -0.5027312   -0.6027964    -0.4549486    0.3383041 
   6.810000000    -0.4569851    0.3811720    -0.5074959   -0.6049217    -0.5046995   -0.6029810    -0.4536125    0.3375103 
   6.812500000    -0.4557656    0.3819983    -0.5096560   -0.6057245    -0.5069691   -0.6033623    -0.4531991    0.3374325 
   6.815000000    -0.4543386    0.3831582    -0.5118425   -0.6062039    -0.5084519   -0.6039707    -0.4527707    0.3360838 
   6.817500000    -0.4516498    0.3843448    -0.5137695   -0.6063691    -0.5113963   -0.6042230    -0.4522177    0.3359357 
   6.820000000    -0.4480181    0.3860494    -0.5173913   -0.6063615    -0.5144598   -0.6040032    -0.4518012    0.3356861 
   6.822500000    -0.4453776    0.3877269    -0.5204162   -0.6061578    -0.5173790   -0.6046305    -0.4500596    0.3359459 
   6.825000000    -0.4430049    0.3898306    -0.5233762   -0.6057047    -0.5201364   -0.6043186    -0.4485679    0.3368903 
   6.827500000    -0.4402680    0.3910000    -0.5258386   -0.6057537    -0.5230702   -0.6038272    -0.4472640    0.3370760 
   6.830000000    -0.4359751    0.3927459    -0.5280289   -0.6049197    -0.5262527   -0.6031225    -0.4454193    0.3370069 
   6.832500000    -0.4314435    0.3943494    -0.5323219   -0.6044216    -0.5293528   -0.6020265    -0.4441983    0.3369745 
   6.835000000    -0.4267645    0.3960298    -0.5356401   -0.6023238    -0.5332243   -0.6006585    -0.4420801    0.3374391 
   6.837500000    -0.4217895    0.3977675    -0.5396413   -0.6006703    -0.5368886   -0.5993347    -0.4392691    0.3376718 
   6.840000000    -0.4164328    0.3987227    -0.5428144   -0.5989170    -0.5403600   -0.5973290    -0.4368357    0.3375487 
   6.842500000    -0.4104323    0.3989260    -0.5473146   -0.5965069    -0.5442682   -0.5947585    -0.4345552    0.3370190 
   6.845000000    -0.4036487    0.3988339    -0.5516546   -0.5936677    -0.5488687   -0.5917901    -0.4327481    0.3366722 
   6.847500000    -0.3961594    0.3980590    -0.5557261   -0.5891310    -0.5532062   -0.5877408    -0.4306482    0.3352470 
   6.850000000    -0.3883943    0.3961792    -0.5597034   -0.5854087    -0.5575335   -0.5834478    -0.4288081    0.3331957 
   6.852500000    -0.3796983    0.3933794    -0.5645543   -0.5797700    -0.5618460   -0.5779052    -0.4271932    0.3303424 
   6.855000000    -0.3694115    0.3879037    -0.5701679   -0.5723410    -0.5664608   -0.5703229    -0.4260497    0.3263243 
   6.857500000    -0.3577223    0.3790187    -0.5745744   -0.5628796    -0.5712589   -0.5610093    -0.4253931    0.3207984 
   6.860000000    -0.3452742    0.3650987    -0.5784474   -0.5493421    -0.5746496   -0.5476648    -0.4264390    0.3139385 
   6.862500000    -0.3347927    0.3436145    -0.5784728   -0.5321220    -0.5744821   -0.5305742    -0.4315770    0.3055739 
   6.865000000    -0.3306273    0.3125329    -0.5708838   -0.5107803    -0.5670152   -0.5094638    -0.4423678    0.2959234 
   6.867500000    -0.3421647    0.2737331    -0.5505141   -0.4895873    -0.5470983   -0.4879446    -0.4609507    0.2904916 
   6.870000000    -0.3767665    0.2412069    -0.5186599   -0.4799393    -0.5151196   -0.4784254    -0.4835126    0.2962472 
   6.872500000    -0.4252931    0.2334069    -0.4857388   -0.4902764    -0.4824457   -0.4885712    -0.5005172    0.3146986 
   6.875000000    -0.4650126    0.2503688    -0.4658562   -0.5147384    -0.4627438   -0.5124867    -0.5044070    0.3379970 
   6.877500000    -0.4867004    0.2763615    -0.4607934   -0.5395411    -0.4575730   -0.5368932    -0.4997819    0.3556032 
   6.880000000    -0.4938869    0.3008177    -0.4645559   -0.5581762    -0.4609077   -0.5548404    -0.4913834    0.3670010 
   6.882500000    -0.4946385    0.3198987    -0.4705288   -0.5710002    -0.4671033   -0.5677406    -0.4835497    0.3733742 
   6.885000000    -0.4914247    0.3334268    -0.4770544   -0.5795198    -0.4741189   -0.5758570    -0.4762817    0.3768943 
   6.887500000    -0.4867038    0.3431298    -0.4846968   -0.5849107    -0.4805210   -0.5813574    -0.4700484    0.3792101 
   6.890000000    -0.4810676    0.3501724    -0.4905291   -0.5890443    -0.4863704   -0.5852885    -0.4652700    0.3806680 
