! MS46122B
! 1919307/90821646
! 7/29/2022 2:22:51 PM
! C:\USERS\PC_\DESKTOP\MEDICIONES\BANCHA ESTRECHA\65_7GHZ\S11_S21_ABS3_1002CL.S2P
! CHANNEL.1
! TR.MEASUREMENT
! CORRECTED.DATA
# GHZ S RI R 50.0
! FREQ.GHZ         S11RE         S11IM         S21RE         S21IM         S12RE         S12IM         S22RE         S22IM         
!; PortSelection: Port_12
   6.500000000    -0.5386606    0.0363364     0.0605918   -0.8384197     0.0632494   -0.8348620    -0.5618593    0.0298630 
   6.502500000    -0.5386640    0.0295970     0.0543294   -0.8376378     0.0623751   -0.8348626    -0.5613899    0.0283742 
   6.505000000    -0.5389160    0.0277607     0.0523670   -0.8378119     0.0613435   -0.8344316    -0.5609204    0.0277401 
   6.507500000    -0.5392530    0.0259202     0.0513924   -0.8377405     0.0610039   -0.8345249    -0.5606711    0.0261956 
   6.510000000    -0.5396717    0.0246053     0.0507304   -0.8384387     0.0609144   -0.8343062    -0.5598712    0.0243216 
   6.512500000    -0.5401372    0.0233978     0.0505672   -0.8379623     0.0601306   -0.8341393    -0.5591714    0.0233489 
   6.515000000    -0.5404860    0.0220682     0.0502615   -0.8379381     0.0591208   -0.8343993    -0.5583484    0.0220977 
   6.517500000    -0.5409527    0.0213036     0.0489827   -0.8385019     0.0587930   -0.8347301    -0.5574988    0.0208156 
   6.520000000    -0.5417233    0.0204285     0.0473859   -0.8379623     0.0578213   -0.8347858    -0.5570384    0.0207871 
   6.522500000    -0.5421206    0.0193850     0.0470701   -0.8380575     0.0573791   -0.8347487    -0.5563651    0.0197313 
   6.525000000    -0.5423649    0.0180730     0.0463320   -0.8378730     0.0571548   -0.8348678    -0.5554489    0.0183652 
   6.527500000    -0.5426865    0.0168069     0.0455978   -0.8378208     0.0566247   -0.8350598    -0.5545669    0.0167193 
   6.530000000    -0.5429187    0.0156756     0.0448397   -0.8388875     0.0560529   -0.8353847    -0.5540240    0.0155488 
   6.532500000    -0.5433392    0.0149983     0.0446460   -0.8395482     0.0555904   -0.8355687    -0.5534469    0.0143108 
   6.535000000    -0.5438442    0.0139425     0.0429777   -0.8397506     0.0548974   -0.8363663    -0.5527051    0.0136551 
   6.537500000    -0.5438920    0.0128710     0.0422830   -0.8397072     0.0541089   -0.8368272    -0.5516997    0.0128057 
   6.540000000    -0.5444950    0.0118454     0.0418648   -0.8398069     0.0536973   -0.8375766    -0.5509820    0.0115706 
   6.542500000    -0.5445403    0.0106514     0.0403488   -0.8407050     0.0526281   -0.8381319    -0.5503401    0.0110349 
   6.545000000    -0.5445442    0.0098979     0.0391861   -0.8413864     0.0519886   -0.8383995    -0.5498459    0.0103313 
   6.547500000    -0.5446091    0.0088141     0.0378371   -0.8411407     0.0509505   -0.8391732    -0.5491585    0.0096809 
   6.550000000    -0.5448146    0.0077611     0.0372238   -0.8421173     0.0497744   -0.8396066    -0.5485563    0.0094575 
   6.552500000    -0.5447839    0.0068368     0.0360117   -0.8425056     0.0489243   -0.8402669    -0.5478846    0.0093272 
   6.555000000    -0.5450038    0.0063573     0.0349903   -0.8422120     0.0479468   -0.8408256    -0.5471938    0.0090871 
   6.557500000    -0.5448895    0.0052593     0.0334129   -0.8431135     0.0463211   -0.8411295    -0.5465076    0.0090394 
   6.560000000    -0.5448328    0.0041750     0.0315734   -0.8430714     0.0449662   -0.8416594    -0.5458997    0.0096155 
   6.562500000    -0.5447483    0.0027214     0.0304514   -0.8433789     0.0436288   -0.8425192    -0.5451480    0.0101833 
   6.565000000    -0.5443019    0.0023272     0.0294168   -0.8436611     0.0423216   -0.8426097    -0.5446267    0.0100485 
   6.567500000    -0.5444245    0.0018179     0.0285180   -0.8437415     0.0409017   -0.8430407    -0.5447325    0.0104405 
   6.570000000    -0.5443971    0.0012571     0.0270678   -0.8438945     0.0392210   -0.8433665    -0.5444350    0.0113373 
   6.572500000    -0.5441157   -0.0001646     0.0252370   -0.8433730     0.0374139   -0.8441115    -0.5440239    0.0110274 
   6.575000000    -0.5445334   -0.0016648     0.0241188   -0.8432560     0.0354388   -0.8440530    -0.5430484    0.0099531 
   6.577500000    -0.5441453   -0.0025122     0.0229076   -0.8433303     0.0343492   -0.8446068    -0.5430499    0.0102216 
   6.580000000    -0.5438808   -0.0030013     0.0216276   -0.8431017     0.0330806   -0.8447199    -0.5430451    0.0100168 
   6.582500000    -0.5437986   -0.0038650     0.0202579   -0.8423394     0.0313840   -0.8443405    -0.5422633    0.0109244 
   6.585000000    -0.5438317   -0.0046687     0.0183832   -0.8420451     0.0301208   -0.8439416    -0.5417816    0.0118435 
   6.587500000    -0.5432071   -0.0059765     0.0167316   -0.8415309     0.0281323   -0.8441554    -0.5415776    0.0122538 
   6.590000000    -0.5433725   -0.0071040     0.0157791   -0.8415954     0.0263316   -0.8436075    -0.5415361    0.0123646 
   6.592500000    -0.5434135   -0.0078450     0.0154564   -0.8417599     0.0254074   -0.8439959    -0.5411307    0.0120842 
   6.595000000    -0.5435503   -0.0091161     0.0141672   -0.8410049     0.0244688   -0.8435570    -0.5412125    0.0123516 
   6.597500000    -0.5439693   -0.0095390     0.0131187   -0.8400710     0.0232189   -0.8429849    -0.5415070    0.0125490 
   6.600000000    -0.5440640   -0.0105326     0.0116206   -0.8396977     0.0218074   -0.8423603    -0.5412373    0.0133114 
   6.602500000    -0.5443637   -0.0116714     0.0099261   -0.8399320     0.0205466   -0.8416017    -0.5415951    0.0142066 
   6.605000000    -0.5445217   -0.0130510     0.0091857   -0.8395062     0.0186641   -0.8412477    -0.5417927    0.0138327 
   6.607500000    -0.5451187   -0.0139981     0.0086217   -0.8393407     0.0178447   -0.8412145    -0.5415242    0.0136158 
   6.610000000    -0.5452590   -0.0149754     0.0081408   -0.8384587     0.0165576   -0.8407084    -0.5418631    0.0130867 
   6.612500000    -0.5461087   -0.0157405     0.0071197   -0.8377665     0.0161225   -0.8400491    -0.5417413    0.0125611 
   6.615000000    -0.5465934   -0.0166535     0.0060811   -0.8378741     0.0150834   -0.8395149    -0.5420011    0.0121997 
   6.617500000    -0.5469624   -0.0173835     0.0043642   -0.8375395     0.0134667   -0.8392050    -0.5423720    0.0127566 
   6.620000000    -0.5473807   -0.0182892     0.0038095   -0.8382941     0.0123785   -0.8388435    -0.5424663    0.0122828 
   6.622500000    -0.5481837   -0.0193836     0.0034257   -0.8376415     0.0110457   -0.8388373    -0.5430438    0.0112929 
   6.625000000    -0.5487729   -0.0205304     0.0029925   -0.8370636     0.0106271   -0.8387828    -0.5430945    0.0098568 
   6.627500000    -0.5493249   -0.0214486     0.0029667   -0.8358839     0.0103066   -0.8381552    -0.5434221    0.0088947 
   6.630000000    -0.5500760   -0.0216229     0.0013948   -0.8371287     0.0093771   -0.8379132    -0.5436232    0.0075096 
   6.632500000    -0.5507190   -0.0221974     0.0004647   -0.8361558     0.0084650   -0.8379407    -0.5438051    0.0063679 
   6.635000000    -0.5513389   -0.0227728    -0.0003128   -0.8357397     0.0071744   -0.8377527    -0.5442282    0.0059221 
   6.637500000    -0.5521507   -0.0234284    -0.0006208   -0.8356333     0.0064837   -0.8375877    -0.5445999    0.0045257 
   6.640000000    -0.5525769   -0.0239683    -0.0011296   -0.8344643     0.0058362   -0.8371332    -0.5448160    0.0027660 
   6.642500000    -0.5531733   -0.0245853    -0.0019706   -0.8348771     0.0057108   -0.8370003    -0.5446913    0.0009504 
   6.645000000    -0.5538867   -0.0248043    -0.0035430   -0.8339952     0.0048995   -0.8363440    -0.5451505   -0.0006338 
   6.647500000    -0.5545707   -0.0245518    -0.0044826   -0.8337054     0.0038120   -0.8369156    -0.5452026   -0.0023733 
   6.650000000    -0.5550913   -0.0248375    -0.0048023   -0.8333033     0.0029900   -0.8360706    -0.5450872   -0.0043759 
   6.652500000    -0.5554844   -0.0253200    -0.0057634   -0.8327577     0.0017906   -0.8357696    -0.5452083   -0.0050347 
   6.655000000    -0.5557306   -0.0254095    -0.0057666   -0.8320803     0.0010084   -0.8351449    -0.5451472   -0.0069093 
   6.657500000    -0.5561925   -0.0255240    -0.0071400   -0.8326177     0.0008048   -0.8346366    -0.5451711   -0.0089073 
   6.660000000    -0.5564209   -0.0256353    -0.0084446   -0.8315577     0.0000864   -0.8340124    -0.5449064   -0.0108227 
   6.662500000    -0.5565620   -0.0250867    -0.0089507   -0.8314621    -0.0007805   -0.8338997    -0.5445582   -0.0125152 
   6.665000000    -0.5565726   -0.0249381    -0.0094207   -0.8307521    -0.0021040   -0.8334702    -0.5441790   -0.0140761 
   6.667500000    -0.5562856   -0.0248531    -0.0090651   -0.8297620    -0.0027375   -0.8328599    -0.5434597   -0.0154348 
   6.670000000    -0.5561185   -0.0246304    -0.0097971   -0.8291471    -0.0030522   -0.8324682    -0.5431857   -0.0166819 
   6.672500000    -0.5561373   -0.0241970    -0.0101822   -0.8290255    -0.0038475   -0.8319556    -0.5427560   -0.0179252 
   6.675000000    -0.5560572   -0.0230711    -0.0113055   -0.8285145    -0.0042426   -0.8314887    -0.5425106   -0.0192456 
   6.677500000    -0.5562589   -0.0220991    -0.0114693   -0.8281419    -0.0054054   -0.8307412    -0.5419550   -0.0197254 
   6.680000000    -0.5558954   -0.0213869    -0.0117443   -0.8277151    -0.0060122   -0.8306737    -0.5416815   -0.0208991 
   6.682500000    -0.5556599   -0.0208619    -0.0116564   -0.8269430    -0.0064838   -0.8303620    -0.5414891   -0.0215613 
   6.685000000    -0.5550255   -0.0199698    -0.0119223   -0.8264657    -0.0068412   -0.8300924    -0.5410680   -0.0221060 
   6.687500000    -0.5549395   -0.0185612    -0.0128853   -0.8258560    -0.0068842   -0.8291589    -0.5406686   -0.0225348 
   6.690000000    -0.5547432   -0.0173078    -0.0131158   -0.8257946    -0.0077773   -0.8289378    -0.5402013   -0.0220582 
   6.692500000    -0.5547161   -0.0157066    -0.0131563   -0.8255659    -0.0079541   -0.8284341    -0.5399373   -0.0227376 
   6.695000000    -0.5543007   -0.0142812    -0.0129500   -0.8249373    -0.0091066   -0.8284008    -0.5400601   -0.0223289 
   6.697500000    -0.5536659   -0.0127274    -0.0132214   -0.8239352    -0.0092985   -0.8278158    -0.5397285   -0.0225465 
   6.700000000    -0.5533938   -0.0115319    -0.0142739   -0.8233684    -0.0096941   -0.8275356    -0.5392954   -0.0223455 
   6.702500000    -0.5535581   -0.0096124    -0.0149341   -0.8228035    -0.0104204   -0.8270822    -0.5387206   -0.0212872 
   6.705000000    -0.5534365   -0.0082575    -0.0150253   -0.8238251    -0.0105552   -0.8266222    -0.5383621   -0.0208894 
   6.707500000    -0.5532730   -0.0065912    -0.0152513   -0.8236519    -0.0110944   -0.8265729    -0.5385066   -0.0197420 
   6.710000000    -0.5526036   -0.0046239    -0.0161334   -0.8224617    -0.0117397   -0.8264606    -0.5377352   -0.0191842 
   6.712500000    -0.5526175   -0.0025206    -0.0166863   -0.8221377    -0.0121008   -0.8266577    -0.5375925   -0.0179871 
   6.715000000    -0.5522240   -0.0012040    -0.0172797   -0.8230799    -0.0128657   -0.8255321    -0.5375384   -0.0165567 
   6.717500000    -0.5521646    0.0008938    -0.0183405   -0.8224235    -0.0136654   -0.8260946    -0.5370685   -0.0156874 
   6.720000000    -0.5517070    0.0024568    -0.0188534   -0.8221456    -0.0143221   -0.8251337    -0.5370704   -0.0137996 
   6.722500000    -0.5512942    0.0038862    -0.0194630   -0.8225582    -0.0155214   -0.8243572    -0.5370243   -0.0130710 
   6.725000000    -0.5504152    0.0058666    -0.0200264   -0.8216853    -0.0166916   -0.8242920    -0.5369459   -0.0122935 
   6.727500000    -0.5498675    0.0075729    -0.0209717   -0.8212172    -0.0176514   -0.8240353    -0.5368669   -0.0112632 
   6.730000000    -0.5490009    0.0086876    -0.0220093   -0.8204453    -0.0181352   -0.8231148    -0.5366951   -0.0105153 
   6.732500000    -0.5476287    0.0095475    -0.0236355   -0.8194052    -0.0188229   -0.8224934    -0.5368845   -0.0096991 
   6.735000000    -0.5460652    0.0098523    -0.0240461   -0.8185340    -0.0198966   -0.8207512    -0.5368376   -0.0084187 
   6.737500000    -0.5445213    0.0099391    -0.0247887   -0.8169724    -0.0215303   -0.8189133    -0.5373121   -0.0079633 
   6.740000000    -0.5429187    0.0090741    -0.0255124   -0.8154790    -0.0229178   -0.8174974    -0.5376506   -0.0082194 
   6.742500000    -0.5415425    0.0082237    -0.0263194   -0.8135777    -0.0230173   -0.8153548    -0.5386557   -0.0082888 
   6.745000000    -0.5406886    0.0054044    -0.0266264   -0.8108091    -0.0230601   -0.8129450    -0.5404105   -0.0081183 
   6.747500000    -0.5406892    0.0018282    -0.0250587   -0.8083471    -0.0214134   -0.8101473    -0.5421253   -0.0081184 
   6.750000000    -0.5424595   -0.0021897    -0.0230791   -0.8064737    -0.0193146   -0.8082558    -0.5439144   -0.0073839 
   6.752500000    -0.5456163   -0.0052534    -0.0200004   -0.8053851    -0.0170394   -0.8070901    -0.5453473   -0.0062699 
   6.755000000    -0.5494815   -0.0069434    -0.0184542   -0.8052173    -0.0152202   -0.8077670    -0.5460996   -0.0041119 
   6.757500000    -0.5532823   -0.0076494    -0.0171133   -0.8068413    -0.0134053   -0.8083007    -0.5463699   -0.0030658 
   6.760000000    -0.5567880   -0.0065911    -0.0155828   -0.8076155    -0.0119022   -0.8089839    -0.5460217   -0.0023636 
   6.762500000    -0.5592650   -0.0058465    -0.0148126   -0.8086693    -0.0117660   -0.8094170    -0.5459237   -0.0016728 
   6.765000000    -0.5611420   -0.0048406    -0.0139537   -0.8092183    -0.0111482   -0.8100362    -0.5454262   -0.0020887 
   6.767500000    -0.5622798   -0.0039586    -0.0138793   -0.8090669    -0.0113541   -0.8108455    -0.5449396   -0.0027267 
   6.770000000    -0.5632634   -0.0035295    -0.0138426   -0.8100196    -0.0113143   -0.8113129    -0.5447825   -0.0022091 
   6.772500000    -0.5636035   -0.0035515    -0.0143103   -0.8103443    -0.0111648   -0.8116356    -0.5440039   -0.0031615 
   6.775000000    -0.5643038   -0.0025959    -0.0136998   -0.8110529    -0.0112378   -0.8117272    -0.5434259   -0.0043573 
   6.777500000    -0.5645626   -0.0027728    -0.0132712   -0.8108984    -0.0105120   -0.8118444    -0.5429516   -0.0055291 
   6.780000000    -0.5645925   -0.0030874    -0.0130377   -0.8110574    -0.0103368   -0.8118819    -0.5424325   -0.0076358 
   6.782500000    -0.5644787   -0.0034121    -0.0120843   -0.8111168    -0.0110960   -0.8120301    -0.5412330   -0.0089155 
   6.785000000    -0.5646241   -0.0035158    -0.0124865   -0.8120427    -0.0100604   -0.8127354    -0.5410689   -0.0103909 
   6.787500000    -0.5647876   -0.0039535    -0.0121965   -0.8124305    -0.0098015   -0.8130244    -0.5403442   -0.0124856 
   6.790000000    -0.5646341   -0.0039570    -0.0113782   -0.8132859    -0.0095983   -0.8133900    -0.5397598   -0.0144735 
   6.792500000    -0.5648831   -0.0037716    -0.0110001   -0.8136464    -0.0092195   -0.8139366    -0.5392738   -0.0166280 
   6.795000000    -0.5647476   -0.0038348    -0.0108765   -0.8139294    -0.0089665   -0.8142180    -0.5387471   -0.0182294 
   6.797500000    -0.5648562   -0.0043879    -0.0100010   -0.8146171    -0.0077457   -0.8146450    -0.5385011   -0.0204111 
   6.800000000    -0.5651730   -0.0043814    -0.0090470   -0.8152396    -0.0083223   -0.8155931    -0.5391091   -0.0218528 
   6.802500000    -0.5651593   -0.0041733    -0.0099846   -0.8162511    -0.0077223   -0.8165567    -0.5391064   -0.0243244 
   6.805000000    -0.5650427   -0.0031057    -0.0092897   -0.8171805    -0.0074743   -0.8174756    -0.5389254   -0.0255671 
   6.807500000    -0.5652399   -0.0018166    -0.0090959   -0.8182221    -0.0078298   -0.8180366    -0.5383090   -0.0261128 
   6.810000000    -0.5654578   -0.0008038    -0.0092258   -0.8190286    -0.0078659   -0.8191175    -0.5384384   -0.0269496 
   6.812500000    -0.5658987    0.0000416    -0.0091571   -0.8199163    -0.0080905   -0.8202000    -0.5391815   -0.0270241 
   6.815000000    -0.5660726    0.0010818    -0.0087701   -0.8208511    -0.0075909   -0.8208362    -0.5391492   -0.0277811 
   6.817500000    -0.5656292    0.0021035    -0.0092263   -0.8223869    -0.0088905   -0.8223833    -0.5395672   -0.0282175 
   6.820000000    -0.5646610    0.0044722    -0.0105962   -0.8233235    -0.0093083   -0.8234611    -0.5391747   -0.0279767 
   6.822500000    -0.5645683    0.0067228    -0.0107438   -0.8244441    -0.0093992   -0.8246319    -0.5389213   -0.0274664 
   6.825000000    -0.5650063    0.0085960    -0.0116993   -0.8263052    -0.0102945   -0.8255685    -0.5390759   -0.0264197 
   6.827500000    -0.5647488    0.0101053    -0.0116864   -0.8273703    -0.0108672   -0.8265854    -0.5388193   -0.0260200 
   6.830000000    -0.5639153    0.0120453    -0.0118408   -0.8274673    -0.0114156   -0.8274997    -0.5381277   -0.0252136 
   6.832500000    -0.5626020    0.0144812    -0.0135774   -0.8288866    -0.0128160   -0.8282970    -0.5379296   -0.0247080 
   6.835000000    -0.5618038    0.0165294    -0.0144007   -0.8297399    -0.0136787   -0.8297204    -0.5368677   -0.0229780 
   6.837500000    -0.5614426    0.0193514    -0.0159580   -0.8306689    -0.0148118   -0.8304647    -0.5365317   -0.0211553 
   6.840000000    -0.5604865    0.0215893    -0.0166650   -0.8311040    -0.0157204   -0.8308267    -0.5359445   -0.0198461 
   6.842500000    -0.5590658    0.0234465    -0.0177081   -0.8314354    -0.0169418   -0.8311937    -0.5350847   -0.0187284 
   6.845000000    -0.5580227    0.0252933    -0.0194127   -0.8327108    -0.0187304   -0.8319125    -0.5350440   -0.0176978 
   6.847500000    -0.5569417    0.0274388    -0.0209463   -0.8319238    -0.0204472   -0.8318300    -0.5344774   -0.0162070 
   6.850000000    -0.5559480    0.0290233    -0.0212826   -0.8321659    -0.0213408   -0.8320997    -0.5336536   -0.0143413 
   6.852500000    -0.5554762    0.0306606    -0.0224564   -0.8322303    -0.0221423   -0.8321087    -0.5334617   -0.0128803 
   6.855000000    -0.5543615    0.0320367    -0.0241172   -0.8322892    -0.0234017   -0.8317038    -0.5335328   -0.0111207 
   6.857500000    -0.5530108    0.0332745    -0.0251636   -0.8325257    -0.0244337   -0.8321658    -0.5331280   -0.0098988 
   6.860000000    -0.5518106    0.0344218    -0.0262352   -0.8327328    -0.0255269   -0.8321286    -0.5328591   -0.0084639 
   6.862500000    -0.5507293    0.0350226    -0.0275599   -0.8320789    -0.0267853   -0.8315194    -0.5326435   -0.0069806 
   6.865000000    -0.5495998    0.0356759    -0.0279263   -0.8314393    -0.0273934   -0.8311775    -0.5321798   -0.0058034 
   6.867500000    -0.5488903    0.0361793    -0.0282625   -0.8312430    -0.0280124   -0.8303000    -0.5319363   -0.0048159 
   6.870000000    -0.5477912    0.0368554    -0.0293447   -0.8315257    -0.0288837   -0.8302839    -0.5315530   -0.0027832 
   6.872500000    -0.5464796    0.0375207    -0.0303024   -0.8310711    -0.0294699   -0.8297406    -0.5313001   -0.0017332 
   6.875000000    -0.5454353    0.0373682    -0.0305806   -0.8304049    -0.0301328   -0.8286960    -0.5312675   -0.0003929 
   6.877500000    -0.5444861    0.0371327    -0.0303529   -0.8308753    -0.0298120   -0.8286394    -0.5310192    0.0002534 
   6.880000000    -0.5437504    0.0368784    -0.0303099   -0.8310145    -0.0301242   -0.8282645    -0.5307273    0.0010536 
   6.882500000    -0.5430092    0.0360868    -0.0308957   -0.8312380    -0.0302322   -0.8279309    -0.5302437    0.0012743 
   6.885000000    -0.5418471    0.0353747    -0.0314623   -0.8308157    -0.0313892   -0.8278476    -0.5296226    0.0018126 
   6.887500000    -0.5404968    0.0350139    -0.0314443   -0.8310605    -0.0312763   -0.8277606    -0.5294347    0.0022769 
   6.890000000    -0.5387095    0.0340885    -0.0314103   -0.8313727    -0.0314439   -0.8276232    -0.5298317    0.0025841 
