! MS46122B
! 1919307/90821646
! 7/29/2022 2:37:04 PM
! C:\USERS\PC_\DESKTOP\MEDICIONES\BANCHA ESTRECHA\65_7GHZ\S11_S21_ABS44_1002CL.S2P
! CHANNEL.1
! TR.MEASUREMENT
! CORRECTED.DATA
# GHZ S RI R 50.0
! FREQ.GHZ         S11RE         S11IM         S21RE         S21IM         S12RE         S12IM         S22RE         S22IM         
!; PortSelection: Port_12
   6.500000000    -0.6308023    0.1770087    -0.1550065   -0.7480081    -0.1522364   -0.7446750    -0.6455228    0.2262350 
   6.502500000    -0.6333072    0.1719680    -0.1608592   -0.7445241    -0.1533602   -0.7442433    -0.6449007    0.2250882 
   6.505000000    -0.6339300    0.1704953    -0.1619946   -0.7437295    -0.1536348   -0.7440912    -0.6442865    0.2241049 
   6.507500000    -0.6346489    0.1686902    -0.1627069   -0.7432636    -0.1535632   -0.7439455    -0.6438116    0.2227754 
   6.510000000    -0.6352064    0.1675129    -0.1634306   -0.7429224    -0.1543293   -0.7432761    -0.6428211    0.2210263 
   6.512500000    -0.6357654    0.1665543    -0.1635047   -0.7424268    -0.1555867   -0.7433993    -0.6414262    0.2202617 
   6.515000000    -0.6364025    0.1661212    -0.1651220   -0.7422021    -0.1565887   -0.7424741    -0.6405797    0.2194794 
   6.517500000    -0.6370624    0.1651108    -0.1665730   -0.7424055    -0.1572341   -0.7428096    -0.6396519    0.2188236 
   6.520000000    -0.6375330    0.1640560    -0.1668575   -0.7423735    -0.1577874   -0.7427281    -0.6387196    0.2174987 
   6.522500000    -0.6380706    0.1631248    -0.1672133   -0.7419503    -0.1581952   -0.7428854    -0.6377966    0.2168352 
   6.525000000    -0.6384799    0.1621065    -0.1680976   -0.7410051    -0.1588988   -0.7430401    -0.6370844    0.2155372 
   6.527500000    -0.6389169    0.1612598    -0.1699057   -0.7409645    -0.1593601   -0.7427637    -0.6359980    0.2138480 
   6.530000000    -0.6395523    0.1609382    -0.1705052   -0.7411749    -0.1601455   -0.7426019    -0.6350698    0.2131056 
   6.532500000    -0.6400579    0.1602710    -0.1711904   -0.7417110    -0.1608036   -0.7425078    -0.6346780    0.2127008 
   6.535000000    -0.6406274    0.1593837    -0.1720660   -0.7418402    -0.1616044   -0.7433124    -0.6341340    0.2115248 
   6.537500000    -0.6407208    0.1585273    -0.1728562   -0.7413859    -0.1627522   -0.7436643    -0.6330983    0.2106396 
   6.540000000    -0.6409199    0.1576955    -0.1744247   -0.7414232    -0.1633343   -0.7438961    -0.6324515    0.2097268 
   6.542500000    -0.6407283    0.1572106    -0.1758843   -0.7411442    -0.1647888   -0.7440646    -0.6313860    0.2092328 
   6.545000000    -0.6406318    0.1565756    -0.1771075   -0.7412573    -0.1657851   -0.7439730    -0.6301415    0.2089417 
   6.547500000    -0.6410359    0.1557799    -0.1775730   -0.7411754    -0.1665684   -0.7441937    -0.6299796    0.2087981 
   6.550000000    -0.6411680    0.1551279    -0.1785023   -0.7414449    -0.1681266   -0.7444191    -0.6293432    0.2081629 
   6.552500000    -0.6408345    0.1547736    -0.1804801   -0.7409112    -0.1695053   -0.7447723    -0.6282157    0.2083413 
   6.555000000    -0.6404135    0.1543491    -0.1820518   -0.7406918    -0.1711687   -0.7447547    -0.6270549    0.2087654 
   6.557500000    -0.6404077    0.1536740    -0.1827991   -0.7404518    -0.1727617   -0.7441284    -0.6261693    0.2087153 
   6.560000000    -0.6403137    0.1527580    -0.1838450   -0.7402053    -0.1740331   -0.7443386    -0.6256897    0.2090714 
   6.562500000    -0.6401952    0.1514837    -0.1851191   -0.7393042    -0.1752539   -0.7445726    -0.6246080    0.2097831 
   6.565000000    -0.6395029    0.1513192    -0.1863258   -0.7390799    -0.1763923   -0.7444458    -0.6240496    0.2097926 
   6.567500000    -0.6391001    0.1513491    -0.1882188   -0.7387732    -0.1784753   -0.7443975    -0.6230458    0.2108860 
   6.570000000    -0.6388871    0.1509810    -0.1891800   -0.7384146    -0.1802615   -0.7437077    -0.6227869    0.2118582 
   6.572500000    -0.6388372    0.1494659    -0.1897862   -0.7373236    -0.1816303   -0.7428103    -0.6222888    0.2116038 
   6.575000000    -0.6387113    0.1480009    -0.1906086   -0.7368409    -0.1830068   -0.7424773    -0.6214302    0.2106909 
   6.577500000    -0.6382271    0.1474280    -0.1915986   -0.7362715    -0.1839842   -0.7422109    -0.6208133    0.2106926 
   6.580000000    -0.6379079    0.1476516    -0.1928101   -0.7356647    -0.1853664   -0.7418225    -0.6202033    0.2114175 
   6.582500000    -0.6376439    0.1467068    -0.1947956   -0.7346204    -0.1871739   -0.7410102    -0.6194624    0.2125228 
   6.585000000    -0.6371753    0.1459311    -0.1957792   -0.7342021    -0.1884447   -0.7400590    -0.6186154    0.2134174 
   6.587500000    -0.6365027    0.1446569    -0.1963639   -0.7334272    -0.1898728   -0.7396336    -0.6178740    0.2138666 
   6.590000000    -0.6364319    0.1438281    -0.1973469   -0.7326489    -0.1905595   -0.7387585    -0.6177002    0.2138484 
   6.592500000    -0.6366022    0.1437673    -0.1975624   -0.7323506    -0.1915489   -0.7381994    -0.6169291    0.2134121 
   6.595000000    -0.6366266    0.1426855    -0.1983725   -0.7316366    -0.1921856   -0.7372503    -0.6164160    0.2150763 
   6.597500000    -0.6361744    0.1417711    -0.2004426   -0.7308468    -0.1930928   -0.7362975    -0.6161015    0.2155118 
   6.600000000    -0.6359444    0.1410940    -0.2012128   -0.7301044    -0.1949281   -0.7354611    -0.6158833    0.2157834 
   6.602500000    -0.6359878    0.1402119    -0.2019089   -0.7297711    -0.1956565   -0.7347919    -0.6162655    0.2165146 
   6.605000000    -0.6360060    0.1389112    -0.2023708   -0.7291759    -0.1965541   -0.7336997    -0.6160621    0.2165431 
   6.607500000    -0.6363233    0.1385249    -0.2032194   -0.7283056    -0.1971432   -0.7330070    -0.6157197    0.2158798 
   6.610000000    -0.6362261    0.1377732    -0.2033761   -0.7277794    -0.1981565   -0.7321255    -0.6153592    0.2158475 
   6.612500000    -0.6366265    0.1367302    -0.2047219   -0.7270845    -0.1983201   -0.7312120    -0.6149747    0.2159596 
   6.615000000    -0.6370500    0.1360591    -0.2049925   -0.7266465    -0.1998799   -0.7305896    -0.6147233    0.2162205 
   6.617500000    -0.6374937    0.1354815    -0.2058065   -0.7259981    -0.2009003   -0.7301486    -0.6149784    0.2156037 
   6.620000000    -0.6371887    0.1346032    -0.2062401   -0.7258931    -0.2012601   -0.7294097    -0.6146113    0.2153389 
   6.622500000    -0.6373581    0.1337922    -0.2063724   -0.7250335    -0.2022635   -0.7289531    -0.6149459    0.2145690 
   6.625000000    -0.6379857    0.1330559    -0.2077705   -0.7244794    -0.2024338   -0.7287220    -0.6146917    0.2129597 
   6.627500000    -0.6384482    0.1329276    -0.2075359   -0.7239887    -0.2026907   -0.7279375    -0.6149734    0.2124412 
   6.630000000    -0.6389329    0.1321239    -0.2082817   -0.7235843    -0.2039427   -0.7277414    -0.6149777    0.2117220 
   6.632500000    -0.6392319    0.1313726    -0.2085511   -0.7231529    -0.2042370   -0.7273327    -0.6148072    0.2109026 
   6.635000000    -0.6395905    0.1311166    -0.2090484   -0.7223909    -0.2050719   -0.7272580    -0.6146953    0.2096455 
   6.637500000    -0.6396355    0.1303793    -0.2096447   -0.7222380    -0.2053806   -0.7268209    -0.6149567    0.2082765 
   6.640000000    -0.6401588    0.1303026    -0.2105042   -0.7210730    -0.2056450   -0.7256983    -0.6148844    0.2063856 
   6.642500000    -0.6406894    0.1300842    -0.2105270   -0.7209888    -0.2062413   -0.7256342    -0.6139827    0.2045182 
   6.645000000    -0.6408500    0.1301658    -0.2111438   -0.7210500    -0.2072005   -0.7248041    -0.6143963    0.2034924 
   6.647500000    -0.6410671    0.1299973    -0.2116632   -0.7201096    -0.2077682   -0.7245745    -0.6142163    0.2025788 
   6.650000000    -0.6414277    0.1298448    -0.2117164   -0.7192910    -0.2078776   -0.7242422    -0.6139897    0.2004495 
   6.652500000    -0.6414866    0.1293899    -0.2130101   -0.7188723    -0.2087975   -0.7232898    -0.6132420    0.1987974 
   6.655000000    -0.6409981    0.1293146    -0.2132085   -0.7181510    -0.2091633   -0.7224002    -0.6129798    0.1972160 
   6.657500000    -0.6413330    0.1297552    -0.2136418   -0.7179636    -0.2096772   -0.7221398    -0.6130813    0.1950163 
   6.660000000    -0.6413590    0.1302047    -0.2139124   -0.7176071    -0.2104653   -0.7214816    -0.6127040    0.1943659 
   6.662500000    -0.6411029    0.1301114    -0.2140714   -0.7169395    -0.2105834   -0.7210196    -0.6123704    0.1927134 
   6.665000000    -0.6407401    0.1304458    -0.2141818   -0.7162632    -0.2110731   -0.7205170    -0.6118286    0.1907709 
   6.667500000    -0.6403902    0.1303652    -0.2144604   -0.7156744    -0.2112610   -0.7197654    -0.6107320    0.1887918 
   6.670000000    -0.6399412    0.1304091    -0.2147363   -0.7149721    -0.2112521   -0.7192814    -0.6100942    0.1872784 
   6.672500000    -0.6399184    0.1319295    -0.2142296   -0.7146872    -0.2122357   -0.7189796    -0.6091762    0.1868724 
   6.675000000    -0.6395386    0.1326330    -0.2147232   -0.7143722    -0.2127437   -0.7184874    -0.6091636    0.1861922 
   6.677500000    -0.6391509    0.1333642    -0.2144629   -0.7138491    -0.2128146   -0.7179917    -0.6088383    0.1849780 
   6.680000000    -0.6385717    0.1338902    -0.2143397   -0.7136302    -0.2127265   -0.7178483    -0.6084102    0.1840059 
   6.682500000    -0.6383499    0.1345501    -0.2150715   -0.7131311    -0.2128444   -0.7172241    -0.6076917    0.1826640 
   6.685000000    -0.6377627    0.1362170    -0.2146755   -0.7126008    -0.2129504   -0.7169390    -0.6067610    0.1826139 
   6.687500000    -0.6375334    0.1372012    -0.2146115   -0.7129102    -0.2128265   -0.7166440    -0.6063372    0.1829742 
   6.690000000    -0.6371142    0.1384020    -0.2145990   -0.7125093    -0.2139266   -0.7165500    -0.6061165    0.1827888 
   6.692500000    -0.6365964    0.1397004    -0.2144352   -0.7120633    -0.2136525   -0.7162781    -0.6057928    0.1822686 
   6.695000000    -0.6357917    0.1414196    -0.2137929   -0.7117746    -0.2134966   -0.7161596    -0.6055623    0.1819456 
   6.697500000    -0.6353908    0.1429341    -0.2148518   -0.7113096    -0.2133486   -0.7156355    -0.6047122    0.1821407 
   6.700000000    -0.6351393    0.1441105    -0.2148548   -0.7112221    -0.2136129   -0.7154713    -0.6042415    0.1831809 
   6.702500000    -0.6348988    0.1456870    -0.2144089   -0.7110775    -0.2136164   -0.7152220    -0.6038854    0.1836405 
   6.705000000    -0.6348392    0.1468865    -0.2146623   -0.7114392    -0.2143303   -0.7150112    -0.6034473    0.1839643 
   6.707500000    -0.6345807    0.1489644    -0.2147368   -0.7113468    -0.2145182   -0.7151979    -0.6031852    0.1846746 
   6.710000000    -0.6339900    0.1503225    -0.2150530   -0.7110117    -0.2138987   -0.7151023    -0.6027082    0.1858639 
   6.712500000    -0.6339074    0.1523474    -0.2152839   -0.7107720    -0.2142645   -0.7151158    -0.6023788    0.1870113 
   6.715000000    -0.6337150    0.1535074    -0.2153798   -0.7114457    -0.2148846   -0.7146850    -0.6018503    0.1880754 
   6.717500000    -0.6335557    0.1554801    -0.2160074   -0.7111143    -0.2147418   -0.7148014    -0.6014819    0.1894787 
   6.720000000    -0.6334597    0.1568656    -0.2160740   -0.7110755    -0.2156558   -0.7144374    -0.6012089    0.1907896 
   6.722500000    -0.6333272    0.1589426    -0.2163316   -0.7116286    -0.2159309   -0.7142743    -0.6010557    0.1920792 
   6.725000000    -0.6332044    0.1602785    -0.2172593   -0.7113160    -0.2160826   -0.7144906    -0.6009758    0.1932036 
   6.727500000    -0.6331163    0.1614322    -0.2174155   -0.7111824    -0.2165759   -0.7143086    -0.6008061    0.1943747 
   6.730000000    -0.6328976    0.1625214    -0.2170688   -0.7114927    -0.2161867   -0.7141595    -0.6005524    0.1963031 
   6.732500000    -0.6326163    0.1635107    -0.2176032   -0.7110276    -0.2166905   -0.7143971    -0.6002725    0.1978566 
   6.735000000    -0.6323963    0.1642570    -0.2174659   -0.7108062    -0.2173180   -0.7137385    -0.6000510    0.1985683 
   6.737500000    -0.6325408    0.1655548    -0.2181851   -0.7109161    -0.2175717   -0.7133335    -0.6005433    0.1998171 
   6.740000000    -0.6325815    0.1664023    -0.2190451   -0.7109310    -0.2180160   -0.7133628    -0.6003200    0.2003876 
   6.742500000    -0.6327564    0.1671004    -0.2189991   -0.7108782    -0.2178484   -0.7131075    -0.6001185    0.2010830 
   6.745000000    -0.6331067    0.1677426    -0.2195631   -0.7105560    -0.2186423   -0.7128354    -0.6002783    0.2024265 
   6.747500000    -0.6331352    0.1681002    -0.2192990   -0.7102647    -0.2192659   -0.7125209    -0.6000256    0.2032041 
   6.750000000    -0.6330871    0.1683791    -0.2198144   -0.7101516    -0.2191776   -0.7125022    -0.6000393    0.2036591 
   6.752500000    -0.6331905    0.1686340    -0.2202329   -0.7098670    -0.2190494   -0.7119638    -0.6001860    0.2032591 
   6.755000000    -0.6330445    0.1690616    -0.2204146   -0.7097319    -0.2195767   -0.7117739    -0.5996995    0.2031060 
   6.757500000    -0.6333290    0.1690404    -0.2204163   -0.7101508    -0.2196232   -0.7111341    -0.5988256    0.2027793 
   6.760000000    -0.6337828    0.1686360    -0.2201915   -0.7096043    -0.2190182   -0.7106416    -0.5983907    0.2019728 
   6.762500000    -0.6339204    0.1681779    -0.2197891   -0.7095896    -0.2201800   -0.7104755    -0.5985435    0.2019977 
   6.765000000    -0.6332837    0.1682569    -0.2200000   -0.7096754    -0.2195743   -0.7102357    -0.5983292    0.2010997 
   6.767500000    -0.6329112    0.1677928    -0.2205477   -0.7093634    -0.2191370   -0.7101071    -0.5982578    0.1998252 
   6.770000000    -0.6329677    0.1674777    -0.2197828   -0.7094800    -0.2191721   -0.7099417    -0.5978568    0.1987919 
   6.772500000    -0.6326460    0.1668807    -0.2197871   -0.7093979    -0.2190963   -0.7100379    -0.5975805    0.1974019 
   6.775000000    -0.6323098    0.1661680    -0.2193902   -0.7099693    -0.2186579   -0.7097449    -0.5974120    0.1957172 
   6.777500000    -0.6321263    0.1649229    -0.2185172   -0.7097951    -0.2189847   -0.7098261    -0.5971109    0.1955148 
   6.780000000    -0.6318597    0.1639671    -0.2189620   -0.7096615    -0.2186675   -0.7097688    -0.5971529    0.1929125 
   6.782500000    -0.6315425    0.1630346    -0.2185542   -0.7100436    -0.2180625   -0.7096958    -0.5961557    0.1904411 
   6.785000000    -0.6313915    0.1623680    -0.2184412   -0.7105230    -0.2172695   -0.7106215    -0.5958093    0.1883270 
   6.787500000    -0.6315099    0.1623776    -0.2176325   -0.7111263    -0.2170815   -0.7110322    -0.5954996    0.1861362 
   6.790000000    -0.6315534    0.1615884    -0.2175941   -0.7122267    -0.2167560   -0.7115023    -0.5948217    0.1844606 
   6.792500000    -0.6308639    0.1606655    -0.2171806   -0.7127594    -0.2173030   -0.7118573    -0.5948849    0.1830815 
   6.795000000    -0.6308238    0.1603329    -0.2166600   -0.7131440    -0.2169422   -0.7124069    -0.5947752    0.1809652 
   6.797500000    -0.6311896    0.1594227    -0.2177129   -0.7140449    -0.2165721   -0.7133870    -0.5953634    0.1782923 
   6.800000000    -0.6313616    0.1593402    -0.2170387   -0.7150517    -0.2164012   -0.7143254    -0.5953816    0.1760622 
   6.802500000    -0.6313506    0.1604616    -0.2169231   -0.7157871    -0.2160828   -0.7153171    -0.5956624    0.1739301 
   6.805000000    -0.6309471    0.1607250    -0.2168774   -0.7167352    -0.2160844   -0.7162921    -0.5953394    0.1738448 
   6.807500000    -0.6308457    0.1613449    -0.2170719   -0.7181008    -0.2165976   -0.7169895    -0.5954315    0.1727033 
   6.810000000    -0.6308807    0.1622237    -0.2173935   -0.7190483    -0.2174831   -0.7178561    -0.5956641    0.1719252 
   6.812500000    -0.6312637    0.1629902    -0.2182159   -0.7199313    -0.2185458   -0.7190615    -0.5962437    0.1713013 
   6.815000000    -0.6314080    0.1645566    -0.2190611   -0.7209008    -0.2184077   -0.7199045    -0.5964481    0.1703795 
   6.817500000    -0.6309410    0.1660923    -0.2191105   -0.7220755    -0.2192289   -0.7208680    -0.5963625    0.1711277 
   6.820000000    -0.6298464    0.1679022    -0.2202666   -0.7229971    -0.2201723   -0.7218708    -0.5965493    0.1716446 
   6.822500000    -0.6293602    0.1696649    -0.2210999   -0.7239663    -0.2208341   -0.7232618    -0.5965087    0.1719797 
   6.825000000    -0.6294473    0.1715982    -0.2223355   -0.7247636    -0.2217894   -0.7240243    -0.5962725    0.1728640 
   6.827500000    -0.6290740    0.1730749    -0.2233741   -0.7260000    -0.2237376   -0.7249228    -0.5963234    0.1736684 
   6.830000000    -0.6277795    0.1755570    -0.2243671   -0.7260542    -0.2245969   -0.7255847    -0.5952034    0.1748175 
   6.832500000    -0.6265569    0.1778971    -0.2256285   -0.7276103    -0.2253624   -0.7260655    -0.5949472    0.1761416 
   6.835000000    -0.6255825    0.1799179    -0.2264331   -0.7282662    -0.2269476   -0.7269711    -0.5942886    0.1775754 
   6.837500000    -0.6245284    0.1824239    -0.2281782   -0.7286699    -0.2283164   -0.7272605    -0.5935014    0.1789528 
   6.840000000    -0.6231806    0.1846800    -0.2296186   -0.7291654    -0.2299862   -0.7273405    -0.5927448    0.1807427 
   6.842500000    -0.6215085    0.1867153    -0.2317957   -0.7287721    -0.2318397   -0.7278119    -0.5919675    0.1821291 
   6.845000000    -0.6200413    0.1889094    -0.2330375   -0.7289724    -0.2332359   -0.7276994    -0.5914242    0.1836264 
   6.847500000    -0.6187719    0.1906342    -0.2335549   -0.7287788    -0.2341878   -0.7276169    -0.5906236    0.1858458 
   6.850000000    -0.6175179    0.1921027    -0.2340857   -0.7287216    -0.2352789   -0.7274778    -0.5899729    0.1872996 
   6.852500000    -0.6166814    0.1933544    -0.2360577   -0.7292964    -0.2367074   -0.7275822    -0.5897939    0.1888761 
   6.855000000    -0.6147705    0.1949847    -0.2380337   -0.7281029    -0.2383565   -0.7267823    -0.5892200    0.1905611 
   6.857500000    -0.6133564    0.1957676    -0.2387160   -0.7278872    -0.2392557   -0.7267124    -0.5883312    0.1917226 
   6.860000000    -0.6122118    0.1970731    -0.2395994   -0.7282016    -0.2400527   -0.7265000    -0.5878982    0.1932464 
   6.862500000    -0.6110671    0.1971157    -0.2404031   -0.7276033    -0.2407822   -0.7258231    -0.5875657    0.1943722 
   6.865000000    -0.6099725    0.1976564    -0.2415309   -0.7278273    -0.2415821   -0.7258548    -0.5871144    0.1965670 
   6.867500000    -0.6086380    0.1977407    -0.2424209   -0.7268432    -0.2428227   -0.7244660    -0.5867459    0.1976555 
   6.870000000    -0.6071878    0.1984196    -0.2430800   -0.7266994    -0.2431533   -0.7240020    -0.5861737    0.1987867 
   6.872500000    -0.6062263    0.1987550    -0.2435762   -0.7265463    -0.2438163   -0.7234011    -0.5858371    0.1997534 
   6.875000000    -0.6052514    0.1984182    -0.2436289   -0.7262523    -0.2437034   -0.7228302    -0.5852937    0.2005388 
   6.877500000    -0.6041991    0.1978824    -0.2443165   -0.7262626    -0.2436722   -0.7224758    -0.5850777    0.2011477 
   6.880000000    -0.6029858    0.1971954    -0.2453876   -0.7263984    -0.2448673   -0.7221614    -0.5846125    0.2029607 
   6.882500000    -0.6025288    0.1963768    -0.2453681   -0.7263229    -0.2451048   -0.7222130    -0.5844657    0.2030039 
   6.885000000    -0.6015072    0.1963227    -0.2456298   -0.7263181    -0.2457489   -0.7223011    -0.5839321    0.2031672 
   6.887500000    -0.6002682    0.1955206    -0.2459404   -0.7266088    -0.2455149   -0.7221753    -0.5838796    0.2032620 
   6.890000000    -0.5984989    0.1944602    -0.2461269   -0.7267767    -0.2458916   -0.7221551    -0.5837175    0.2031246 
